(1487076865.178310) can0 220#F10300000000D40F
(1487076865.179422) can0 164#0008000000000C04
(1487076865.179423) can0 1F1#0000000000000000
(1487076865.180803) can0 316#059D0000002F007F
(1487076865.181875) can0 080#001700009D2F0001
(1487076865.181876) can0 081#40000000000000B1
(1487076865.181876) can0 18F#002B000000720000
(1487076865.181877) can0 260#0500000016A75F1E
(1487076865.182993) can0 2A0#A2005D806C12A900
(1487076865.182994) can0 2B0#6305000707
(1487076865.182995) can0 165#66088000000005EB
(1487076865.182995) can0 329#0F60810E11270010
(1487076865.182995) can0 545#DF00005E57FE57FE
(1487076865.184071) can0 153#200000FF00FF405E
(1487076865.184072) can0 2C0#0000000000000000
(1487076865.184072) can0 4B0#0080008000000000
(1487076865.185287) can0 4F0#0000A80000121402
(1487076865.186343) can0 0A0#00400000001F0000
(1487076865.186345) can0 0A1#8080808066000000
(1487076865.186345) can0 4F1#CCFF000000000000
(1487076865.188331) can0 220#F10300000000E00F
(1487076865.189397) can0 164#0008000000000D05
(1487076865.190500) can0 165#66088000000006E8
(1487076865.191548) can0 2B0#63050007F8
(1487076865.191549) can0 316#059D0000002F007F
(1487076865.191550) can0 080#001700009D2F00F2
(1487076865.191550) can0 081#40000000000000A2
(1487076865.191551) can0 18F#002B000000720000
(1487076865.192690) can0 260#0500000016A75F2D
(1487076865.192691) can0 2A0#C2005D806C12A900
(1487076865.192691) can0 329#0F60810E11270010
(1487076865.192691) can0 545#DF00005E57FE57FE
(1487076865.193711) can0 153#200000FF00FF506E
(1487076865.193712) can0 2C0#0000000000000000
(1487076865.198334) can0 220#F10300000000E00F
(1487076865.199355) can0 164#0008000000000E06
(1487076865.199356) can0 1F1#0000000000000000
(1487076865.200463) can0 165#66088000000007E9
(1487076865.200464) can0 2B0#61050007C9
(1487076865.201563) can0 316#059D0000002F007F
(1487076865.201564) can0 080#001700009D2F00E3
(1487076865.201564) can0 081#4000000000000093
(1487076865.201565) can0 18F#002B000000720000
(1487076865.201565) can0 260#0500000016A75F3C
(1487076865.202648) can0 2A0#62005D806C12A900
(1487076865.202649) can0 329#0F60810E11270010
(1487076865.202649) can0 545#DF00005E57FE57FE
(1487076865.203745) can0 153#200000FF00FF607E
(1487076865.203746) can0 2C0#0000000000000000
(1487076865.203747) can0 4B0#00C0008000000000
(1487076865.204826) can0 5E4#040000
(1487076865.205911) can0 4F0#0000AA0000121402
(1487076865.205912) can0 4F1#CCFF000000000000
(1487076865.206995) can0 5F0#0100
(1487076865.208267) can0 220#F10300000000ED0F
(1487076865.209369) can0 164#0008000000000F07
(1487076865.210452) can0 165#66088000000008E6
(1487076865.210453) can0 2B0#61050007FA
(1487076865.211605) can0 316#059D0000002F007F
(1487076865.211606) can0 080#001700009D2F00D4
(1487076865.211607) can0 081#4000000000000084
(1487076865.211607) can0 18F#002B000000720000
(1487076865.212721) can0 260#0500000016A75F0F
(1487076865.212723) can0 2A0#02005D806C12A900
(1487076865.212723) can0 329#0F60810E11260010
(1487076865.212723) can0 545#DF00005E57FE57FE
(1487076865.213804) can0 153#200000FF00FF708E
(1487076865.213806) can0 2C0#0000000000000000
(1487076865.218324) can0 220#F10300000000F90F
(1487076865.219415) can0 164#0008000000000008
(1487076865.219416) can0 1F1#0000000000000000
(1487076865.219416) can0 165#66088000000009E7
(1487076865.219417) can0 2B0#63050007CB
(1487076865.220764) can0 316#059D0000002F007F
(1487076865.221847) can0 080#001700009D2F00C5
(1487076865.221848) can0 081#4000000000000075
(1487076865.221848) can0 18F#002B000000720000
(1487076865.221849) can0 260#0500000016A75F1E
(1487076865.222930) can0 2A0#A2005D806C12A900
(1487076865.222932) can0 329#0F60810E11260010
(1487076865.222932) can0 545#DF00005E57FE57FE
(1487076865.224017) can0 153#200000FF00FF809E
(1487076865.224018) can0 2C0#0000000000000000
(1487076865.224019) can0 4B0#000000C000000000
(1487076865.225829) can0 4F0#0000AC0000121402
(1487076865.226897) can0 4F1#CCFF000000000000
(1487076865.226898) can0 690#4000400000203800
(1487076865.228351) can0 220#F10300000000E00F
(1487076865.229430) can0 164#0008000000000109
(1487076865.229431) can0 165#6608800000000AE4
(1487076865.229432) can0 2B0#610500079C
(1487076865.230867) can0 316#059D0000002F007F
(1487076865.231902) can0 080#001700009D2F00B6
(1487076865.231903) can0 081#4000000000000066
(1487076865.231903) can0 18F#002B000000720000
(1487076865.231904) can0 260#0500000016A75F2D
(1487076865.233003) can0 2A0#C2005D806C12A900
(1487076865.233004) can0 329#4F60810E11260010
(1487076865.233005) can0 545#DF00005E57FE57FE
(1487076865.234138) can0 153#200000FF00FF90AE
(1487076865.234139) can0 2C0#0000000000000000
(1487076865.238102) can0 165#6608800000000BE5
(1487076865.239179) can0 2B0#63050007AD
(1487076865.239180) can0 220#F10300000000C70F
(1487076865.239180) can0 164#000800000000020A
(1487076865.239181) can0 1F1#0000000000000000
(1487076865.240578) can0 316#059D0000002F007F
(1487076865.241664) can0 080#001700009D2F00A7
(1487076865.241666) can0 081#4000000000000057
(1487076865.241666) can0 18F#002B000000720000
(1487076865.241666) can0 260#0500000016A75F3C
(1487076865.242738) can0 2A0#62005D806C12A900
(1487076865.242739) can0 329#4F60810E11270010
(1487076865.242740) can0 545#DF00005E57FE57FE
(1487076865.243851) can0 153#200000FF00FFA0BE
(1487076865.243852) can0 2C0#0000000000000000
(1487076865.243853) can0 4B0#004000C000000000
(1487076865.245314) can0 4F0#0000AE0000121402
(1487076865.246421) can0 4F1#CCFF000000000000
(1487076865.247643) can0 165#6608800000000CE2
(1487076865.248723) can0 2B0#630500079E
(1487076865.248724) can0 220#F10300000000C70F
(1487076865.248724) can0 164#000800000000030B
(1487076865.250726) can0 316#059D0000002F007F
(1487076865.251831) can0 080#001700009D2F0098
(1487076865.251832) can0 081#4000000000000048
(1487076865.251837) can0 18F#002B000000720000
(1487076865.251837) can0 260#0500000016A75F0F
(1487076865.252918) can0 2A0#02005D806C12A900
(1487076865.252919) can0 329#4F60810E11260010
(1487076865.252920) can0 545#DF00005E57FE57FE
(1487076865.253992) can0 153#200000FF00FFB0CE
(1487076865.253993) can0 2C0#0000000000000000
(1487076865.255053) can0 5F0#0100
(1487076865.257224) can0 165#6608800000000DE3
(1487076865.258326) can0 2B0#630500078F
(1487076865.258327) can0 220#F10300000000D40F
(1487076865.259407) can0 164#000800000000040C
(1487076865.259408) can0 1F1#0000000000000000
(1487076865.260765) can0 316#059D0000002F007F
(1487076865.261847) can0 080#001700009D2F0089
(1487076865.261849) can0 081#4000000000000039
(1487076865.261849) can0 18F#002B000000720000
(1487076865.261849) can0 260#0500000016A75F1E
(1487076865.262913) can0 2A0#A2005D806C12A900
(1487076865.262914) can0 329#4F60810E11270010
(1487076865.262914) can0 545#DF00005E57FE57FE
(1487076865.264047) can0 153#200000FF00FFC0DE
(1487076865.264048) can0 2C0#0000000000000000
(1487076865.264049) can0 4B0#008000C000000000
(1487076865.265306) can0 4F0#0000B00000121402
(1487076865.266354) can0 4F1#CCFF000000000000
(1487076865.267469) can0 165#6608800000000EE0
(1487076865.267470) can0 2B0#6305000770
(1487076865.268560) can0 220#F10300000000CD0F
(1487076865.268562) can0 164#000800000000050D
(1487076865.270871) can0 316#059D0000002F007F
(1487076865.271976) can0 080#001700009D2F007A
(1487076865.271977) can0 081#400000000000002A
(1487076865.271978) can0 18F#002B000000720000
(1487076865.271978) can0 260#0500000016A75F2D
(1487076865.273056) can0 2A0#C2005D806C12A900
(1487076865.273057) can0 329#4F60810E11270010
(1487076865.273058) can0 545#DF00005E57FE57FE
(1487076865.274140) can0 153#200000FF00FFD0EE
(1487076865.274141) can0 2C0#0000000000000000
(1487076865.276435) can0 165#6608800000000FE1
(1487076865.277474) can0 2B0#6305000761
(1487076865.278598) can0 220#F10300000000C70F
(1487076865.278599) can0 164#000800000000060E
(1487076865.279685) can0 1F1#0000000000000000
(1487076865.280793) can0 316#059D0000002F007F
(1487076865.281867) can0 080#001700009D2F006B
(1487076865.281868) can0 081#400000000000001B
(1487076865.281869) can0 18F#002B000000720000
(1487076865.281869) can0 0A0#00400000001F0000
(1487076865.281871) can0 0A1#8080808066000000
(1487076865.282975) can0 260#0500000016A75F3C
(1487076865.282976) can0 2A0#62005D806C12A900
(1487076865.282976) can0 329#4F60810E11270010
(1487076865.282977) can0 545#DF00005E57FE57FE
(1487076865.284046) can0 153#200000FF00FFE0FE
(1487076865.284047) can0 2C0#0000000000000000
(1487076865.284047) can0 4B0#0000000000000000
(1487076865.285293) can0 4F0#0000B20000121402
(1487076865.286366) can0 4F1#CCFF000000000000
(1487076865.286367) can0 165#66088000000000EE
(1487076865.286368) can0 2B0#6305000752
(1487076865.288354) can0 220#F10300000000D40F
(1487076865.289421) can0 164#000800000000070F
(1487076865.290701) can0 316#059D0000002F007F
(1487076865.291785) can0 080#001700009D2F005C
(1487076865.291786) can0 081#400000000000000C
(1487076865.291787) can0 18F#002B000000720000
(1487076865.291787) can0 260#0500000016A75F0F
(1487076865.292890) can0 2A0#02005D806C12A900
(1487076865.292891) can0 329#8060810E11260010
(1487076865.292891) can0 545#DF00005E57FE57FE
(1487076865.293955) can0 153#200000FF00FF001E
(1487076865.293961) can0 2C0#0000000000000000
(1487076865.295582) can0 165#66088000000001EF
(1487076865.296668) can0 2B0#6305000743
(1487076865.298330) can0 220#F10300000000ED0F
(1487076865.299431) can0 164#0008000000000800
(1487076865.299433) can0 1F1#0000000000000000
(1487076865.300754) can0 316#059D0000002F007F
(1487076865.301873) can0 080#001700009D2F004D
(1487076865.301874) can0 081#40000000000000FD
(1487076865.301875) can0 18F#002B000000720000
(1487076865.301876) can0 260#0500000016A75F1E
(1487076865.302953) can0 2A0#A2005D806C12A900
(1487076865.302954) can0 329#8060810E11270010
(1487076865.302954) can0 545#DF00005E57FE57FE
(1487076865.302955) can0 5F0#0100
(1487076865.304047) can0 153#200000FF00FF102E
(1487076865.304048) can0 2C0#0000000000000000
(1487076865.304048) can0 4B0#0040000000000000
(1487076865.305088) can0 5E4#040000
(1487076865.306208) can0 2B0#6305000734
(1487076865.306209) can0 165#66088000000002EC
(1487076865.306209) can0 4F0#0000B40000121402
(1487076865.306210) can0 4F1#CCFF000000000000
(1487076865.308329) can0 220#F10300000000ED0F
(1487076865.309419) can0 164#0008000000000901
(1487076865.310828) can0 316#059D0000002F007F
(1487076865.311922) can0 080#001700009D2F003E
(1487076865.311924) can0 081#40000000000000EE
(1487076865.311924) can0 18F#002B000000720000
(1487076865.311925) can0 260#0500000016A75F2D
(1487076865.312993) can0 2A0#C2005D806C12A900
(1487076865.312994) can0 329#8060810E11270010
(1487076865.312995) can0 545#DF00005E57FE57FE
(1487076865.314078) can0 153#200000FF00FF203E
(1487076865.314079) can0 2C0#0000000000000000
(1487076865.315169) can0 165#66088000000003ED
(1487076865.315170) can0 2B0#6305000725
(1487076865.318335) can0 220#F10300000000ED0F
(1487076865.319418) can0 164#0008000000000A02
(1487076865.319420) can0 1F1#0000000000000000
(1487076865.320576) can0 316#059D0000002F007F
(1487076865.321681) can0 080#001700009D2F002F
(1487076865.321682) can0 081#40000000000000DF
(1487076865.321683) can0 18F#002B000000720000
(1487076865.321683) can0 260#0500000016A75F3C
(1487076865.322765) can0 2A0#62005D806C12A900
(1487076865.322766) can0 329#8060810E11270010
(1487076865.322767) can0 545#DF00005E57FE57FE
(1487076865.323828) can0 153#200000FF00FF304E
(1487076865.323829) can0 2C0#0000000000000000
(1487076865.323830) can0 4B0#0080000000000000
(1487076865.324919) can0 165#66088000000004EA
(1487076865.324920) can0 2B0#6305000716
(1487076865.326018) can0 4F0#0000B60000121402
(1487076865.327102) can0 4F1#CCFF000000000000
(1487076865.327103) can0 690#4000400000203C00
(1487076865.328334) can0 220#F10300000000D40F
(1487076865.329418) can0 164#0008000000000B03
(1487076865.330745) can0 316#059D0000002F007F
(1487076865.331832) can0 080#001700009D2F0010
(1487076865.331833) can0 081#40000000000000C0
(1487076865.331833) can0 18F#002B000000720000
(1487076865.331834) can0 260#0500000016A75F0F
(1487076865.332918) can0 2A0#02005D806C12A900
(1487076865.332919) can0 329#8060810E11270010
(1487076865.332920) can0 545#DF00005E57FE57FE
(1487076865.334043) can0 153#200000FF00FF405E
(1487076865.334044) can0 2C0#0000000000000000
(1487076865.334045) can0 165#66088000000005EB
(1487076865.334045) can0 2B0#6305000707
(1487076865.338327) can0 220#F10300000000E60F
(1487076865.339418) can0 164#0008000000000C04
(1487076865.339419) can0 1F1#0000000000000000
(1487076865.340766) can0 316#059D0000002F007F
(1487076865.341855) can0 080#001700009D2F0001
(1487076865.341856) can0 081#40000000000000B1
(1487076865.341857) can0 18F#002B000000720000
(1487076865.341857) can0 260#0500000016A75F1E
(1487076865.342952) can0 2A0#A2005D806C12A900
(1487076865.342953) can0 329#8060810E11260010
(1487076865.342954) can0 545#DF00005E57FE57FE
(1487076865.344045) can0 153#200000FF00FF506E
(1487076865.344046) can0 165#66088000000006E8
(1487076865.344047) can0 2B0#61050007D8
(1487076865.344047) can0 2C0#0000000000000000
(1487076865.345118) can0 4B0#00C0000000000000
(1487076865.346203) can0 4F0#0000B80000121402
(1487076865.346205) can0 4F1#CCFF000000000000
(1487076865.348356) can0 220#F10300000000FF0F
(1487076865.349434) can0 164#0008000000000D05
(1487076865.350894) can0 316#059D0000002F007F
(1487076865.351976) can0 080#001700009D2F00F2
(1487076865.351978) can0 081#40000000000000A2
(1487076865.351978) can0 18F#002B000000720000
(1487076865.351978) can0 260#0500000016A75F2D
(1487076865.353121) can0 2A0#C2005D806C12A900
(1487076865.353122) can0 329#D760810E11260010
(1487076865.353122) can0 545#DF00005E57FE57FE
(1487076865.353123) can0 5F0#0100
(1487076865.353123) can0 165#66088000000007E9
(1487076865.354203) can0 2B0#63050007E9
(1487076865.354204) can0 153#200000FF00FF607E
(1487076865.354204) can0 2C0#0000000000000000
(1487076865.358351) can0 220#F10300000000E00F
(1487076865.359411) can0 164#0008000000000E06
(1487076865.359413) can0 1F1#0000000000000000
(1487076865.360579) can0 316#059D0000002F007F
(1487076865.361684) can0 080#001700009D2F00E3
(1487076865.361685) can0 081#4000000000000093
(1487076865.361685) can0 18F#002B000000720000
(1487076865.361686) can0 260#0500000016A75F3C
(1487076865.362794) can0 2A0#62005D806C12A900
(1487076865.362795) can0 329#D760810E11260010
(1487076865.362795) can0 545#DF00005E57FE57FE
(1487076865.362796) can0 165#66088000000008E6
(1487076865.362796) can0 2B0#63050007DA
(1487076865.363874) can0 153#200000FF00FF708E
(1487076865.363875) can0 2C0#0000000000000000
(1487076865.363875) can0 4B0#0000004000000000
(1487076865.365329) can0 4F0#0000BA0000121402
(1487076865.366431) can0 4F1#CCFF000000000000
(1487076865.368353) can0 220#F10300000000DA0F
(1487076865.369433) can0 164#0008000000000F07
(1487076865.370723) can0 316#059D0000002F007F
(1487076865.371756) can0 080#001700009D2F00D4
(1487076865.371757) can0 081#4000000000000084
(1487076865.371758) can0 18F#002B000000720000
(1487076865.371758) can0 260#0500000016A75F0F
(1487076865.372878) can0 2A0#02005D806C12A900
(1487076865.372879) can0 165#66088000000009E7
(1487076865.372879) can0 2B0#63050007CB
(1487076865.372880) can0 329#D760810E11260010
(1487076865.372880) can0 545#DF00005E57FE57FE
(1487076865.373959) can0 153#200000FF00FF809E
(1487076865.373960) can0 2C0#0000000000000000
(1487076865.378268) can0 220#F10300000000ED0F
(1487076865.379371) can0 164#0008000000000008
(1487076865.379372) can0 1F1#0000000000000000
(1487076865.380706) can0 316#059D0000002F007F
(1487076865.381810) can0 080#001700009D2F00C5
(1487076865.381811) can0 081#4000000000000075
(1487076865.381811) can0 18F#002B000000720000
(1487076865.381811) can0 165#6608800000000AE4
(1487076865.382913) can0 260#0500000016A75F1E
(1487076865.382914) can0 2A0#A2005D806C12A900
(1487076865.382914) can0 0A0#00400000001F0000
(1487076865.382915) can0 0A1#8080808066000000
(1487076865.382918) can0 2B0#63050007BC
(1487076865.384039) can0 329#D760810E11260010
(1487076865.384039) can0 153#200000FF00FF90AE
(1487076865.384040) can0 2C0#0000000000000000
(1487076865.384040) can0 4B0#0040004000000000
(1487076865.384040) can0 545#DF00005E57FE57FE
(1487076865.385246) can0 4F0#0000BC0000121402
(1487076865.386329) can0 4F1#CCFF000000000000
(1487076865.388245) can0 220#F10300000000ED0F
(1487076865.389370) can0 164#0008000000000109
(1487076865.390811) can0 316#059D0000002F007F
(1487076865.391872) can0 080#001700009D2F00B6
(1487076865.391873) can0 081#4000000000000066
(1487076865.391873) can0 18F#002B000000720000
(1487076865.391874) can0 260#0500000016A75F2D
(1487076865.392984) can0 2A0#C2005D806C12A900
(1487076865.392985) can0 2B0#63050007AD
(1487076865.392986) can0 165#6608800000000BE5
(1487076865.392986) can0 329#D760810E11270010
(1487076865.392986) can0 545#DF00005E57FE57FE
(1487076865.394098) can0 153#200000FF00FFA0BE
(1487076865.394099) can0 2C0#0000000000000000
(1487076865.398352) can0 220#F10300000000CD0F
(1487076865.399434) can0 164#000800000000020A
(1487076865.399435) can0 1F1#0000000000000000
(1487076865.399436) can0 5F0#0100
(1487076865.400510) can0 316#059D0000002F007F
(1487076865.401669) can0 080#001700009D2F00A7
(1487076865.401670) can0 081#4000000000000057
(1487076865.401670) can0 18F#002B000000720000
(1487076865.401671) can0 260#0500000016A75F3C
(1487076865.402766) can0 2A0#62005D806C12A900
(1487076865.402767) can0 2B0#630500079E
(1487076865.402767) can0 165#6608800000000CE2
(1487076865.402767) can0 329#D760810E11270010
(1487076865.402768) can0 545#DF00005E57FE57FE
(1487076865.403854) can0 153#200000FF00FFB0CE
(1487076865.403855) can0 2C0#0000000000000000
(1487076865.403855) can0 4B0#0080004000000000
(1487076865.405293) can0 4F0#0000BE0000121402
(1487076865.406433) can0 5E4#040000
(1487076865.406435) can0 4F1#CCFF000000000000
(1487076865.408260) can0 220#F10300000000C10F
(1487076865.409364) can0 164#000800000000030B
(1487076865.410514) can0 165#6608800000000DE3
(1487076865.410516) can0 2B0#61050007AF
(1487076865.411605) can0 316#059D0000002F007F
(1487076865.411606) can0 080#001700009D2F0098
(1487076865.411606) can0 081#4000000000000048
(1487076865.411607) can0 18F#002B000000720000
(1487076865.412685) can0 260#0500000016A75F0F
(1487076865.412686) can0 2A0#02005D806C12A900
(1487076865.412686) can0 329#0F60810E11270010
(1487076865.412686) can0 545#DF00005E57FE57FE
(1487076865.413773) can0 153#200000FF00FFC0DE
(1487076865.413774) can0 2C0#0000000000000000
(1487076865.418358) can0 220#F10300000000CD0F
(1487076865.419433) can0 164#000800000000040C
(1487076865.419434) can0 1F1#0000000000000000
(1487076865.420504) can0 165#6608800000000EE0
(1487076865.420505) can0 2B0#6305000770
(1487076865.421601) can0 316#059D0000002F007F
(1487076865.421602) can0 080#001700009D2F0089
(1487076865.421603) can0 081#4000000000000039
(1487076865.421603) can0 18F#002B000000720000
(1487076865.422710) can0 260#0500000016A75F1E
(1487076865.422711) can0 2A0#A2005D806C12A900
(1487076865.422711) can0 329#0F60810E11260010
(1487076865.422712) can0 545#DF00005E57FE57FE
(1487076865.423813) can0 153#200000FF00FFD0EE
(1487076865.423815) can0 2C0#0000000000000000
(1487076865.424893) can0 4B0#00C0004000000000
(1487076865.425937) can0 4F0#0000C00000121402
(1487076865.427045) can0 4F1#CCFF000000000000
(1487076865.427046) can0 690#4000400000200000
(1487076865.428354) can0 220#F10300000000C70F
(1487076865.429455) can0 164#000800000000050D
(1487076865.429456) can0 165#6608800000000FE1
(1487076865.430545) can0 2B0#6105000741
(1487076865.431645) can0 316#059D0000002F007F
(1487076865.431647) can0 080#001700009D2F007A
(1487076865.431647) can0 081#400000000000002A
(1487076865.431648) can0 18F#002B000000720000
(1487076865.432730) can0 260#0500000016A75F2D
(1487076865.432731) can0 2A0#C2005D806C12A900
(1487076865.432731) can0 329#0F60810E11260010
(1487076865.432732) can0 545#DF00005E57FE57FE
(1487076865.433815) can0 153#200000FF00FFE0FE
(1487076865.433816) can0 2C0#0000000000000000
(1487076865.438351) can0 220#F10300000000E60F
(1487076865.439456) can0 164#000800000000060E
(1487076865.439457) can0 1F1#0000000000000000
(1487076865.439457) can0 165#66088000000000EE
(1487076865.439458) can0 2B0#6305000752
(1487076865.440579) can0 316#059D0000002F007F
(1487076865.441597) can0 080#001700009D2F006B
(1487076865.441598) can0 081#400000000000001B
(1487076865.441599) can0 18F#002B000000720000
(1487076865.441600) can0 260#0500000016A75F3C
(1487076865.442748) can0 2A0#62005D806C12A900
(1487076865.442749) can0 329#0F60810E11260010
(1487076865.442750) can0 545#DF00005E57FE57FE
(1487076865.443836) can0 153#200000FF00FF001E
(1487076865.443837) can0 2C0#0000000000000000
(1487076865.443837) can0 4B0#0000008000000000
(1487076865.445333) can0 4F0#0000C20000121402
(1487076865.446432) can0 4F1#CCFF000000000000
(1487076865.447501) can0 5F0#0100
(1487076865.448602) can0 220#F10300000000CD0F
(1487076865.448603) can0 164#000800000000070F
(1487076865.449683) can0 2B0#6305000743
(1487076865.449684) can0 165#66088000000001EF
(1487076865.450767) can0 316#059D0000002F007F
(1487076865.451875) can0 080#001700009D2F005C
(1487076865.451876) can0 081#400000000000000C
(1487076865.451877) can0 18F#002B000000720000
(1487076865.451877) can0 260#0500000016A75F0F
(1487076865.452956) can0 2A0#02005D806C12A900
(1487076865.452957) can0 329#0F60810E11260010
(1487076865.452957) can0 545#DF00005E57FE57FE
(1487076865.454045) can0 153#200000FF00FF102E
(1487076865.454046) can0 2C0#0000000000000000
(1487076865.458060) can0 165#66088000000002EC
(1487076865.459140) can0 2B0#6305000734
(1487076865.459141) can0 220#F10300000000CD0F
(1487076865.459142) can0 164#0008000000000800
(1487076865.459142) can0 1F1#0000000000000000
(1487076865.460803) can0 316#059D0000002F007F
(1487076865.461890) can0 080#001700009D2F004D
(1487076865.461891) can0 081#40000000000000FD
(1487076865.461892) can0 18F#002B000000720000
(1487076865.461892) can0 260#0500000016A75F1E
(1487076865.462978) can0 2A0#A2005D806C12A900
(1487076865.462979) can0 329#0F60810E11270010
(1487076865.462980) can0 545#DF00005E57FE57FE
(1487076865.464009) can0 153#200000FF00FF203E
(1487076865.464010) can0 2C0#0000000000000000
(1487076865.464010) can0 4B0#0040008000000000
(1487076865.465281) can0 4F0#0000C40000121402
(1487076865.466376) can0 4F1#CCFF000000000000
(1487076865.467604) can0 165#66088000000003ED
(1487076865.468683) can0 2B0#6305000725
(1487076865.468684) can0 220#F10300000000E00F
(1487076865.468684) can0 164#0008000000000901
(1487076865.470829) can0 316#059D0000002F007F
(1487076865.471926) can0 080#001700009D2F003E
(1487076865.471928) can0 081#40000000000000EE
(1487076865.471928) can0 18F#002B000000720000
(1487076865.471928) can0 260#0500000016A75F2D
(1487076865.473016) can0 2A0#C2005D806C12A900
(1487076865.473022) can0 329#4F60810E11260010
(1487076865.473022) can0 545#DF00005E57FE57FE
(1487076865.474101) can0 153#200000FF00FF304E
(1487076865.474102) can0 2C0#0000000000000000
(1487076865.477187) can0 165#66088000000004EA
(1487076865.478246) can0 2B0#6305000716
(1487076865.479332) can0 220#F10300000000C10F
(1487076865.479333) can0 164#0008000000000A02
(1487076865.479335) can0 1F1#0000000000000000
(1487076865.480578) can0 316#059D0000002F007F
(1487076865.481671) can0 080#001700009D2F002F
(1487076865.481672) can0 081#40000000000000DF
(1487076865.481672) can0 18F#002B000000720000
(1487076865.481673) can0 260#0500000016A75F3C
(1487076865.482743) can0 2A0#62005D806C12A900
(1487076865.482744) can0 329#4F60810E11270010
(1487076865.482745) can0 545#DF00005E57FE57FE
(1487076865.483842) can0 0A0#00400000001F0000
(1487076865.483843) can0 0A1#8080808066000000
(1487076865.483844) can0 153#200000FF00FF405E
(1487076865.483844) can0 2C0#0000000000000000
(1487076865.484909) can0 4B0#0080008000000000
(1487076865.485998) can0 4F0#0000C60000121402
(1487076865.485999) can0 4F1#CCFF000000000000
(1487076865.487081) can0 165#66088000000005EB
(1487076865.487082) can0 2B0#6305000707
(1487076865.488358) can0 220#F10300000000BB0F
(1487076865.489421) can0 164#0008000000000B03
(1487076865.490685) can0 316#059D0000002F007F
(1487076865.491771) can0 080#001700009D2F0010
(1487076865.491772) can0 081#40000000000000C0
(1487076865.491773) can0 18F#002B000000720000
(1487076865.491773) can0 260#0500000016A75F0F
(1487076865.492873) can0 2A0#02005D806C12A900
(1487076865.492874) can0 329#4F60810E11270010
(1487076865.492875) can0 545#DF00005E57FE57FE
(1487076865.493935) can0 153#200000FF00FF506E
(1487076865.493936) can0 2C0#0000000000000000
(1487076865.495021) can0 5F0#0100
(1487076865.496315) can0 165#66088000000006E8
(1487076865.497393) can0 2B0#63050007F8
(1487076865.498437) can0 220#F10300000000E00F
(1487076865.499549) can0 164#0008000000000C04
(1487076865.499550) can0 1F1#0000000000000000
(1487076865.500697) can0 316#059D0000002F007F
(1487076865.501849) can0 080#001700009D2F0001
(1487076865.501850) can0 081#40000000000000B1
(1487076865.501850) can0 18F#002B000000720000
(1487076865.501851) can0 260#0500000016A75F1E
(1487076865.502961) can0 2A0#A2005D806C12A900
(1487076865.502962) can0 329#4F60810E11270010
(1487076865.502962) can0 545#DF00005E57FE57FE
(1487076865.504050) can0 153#200000FF00FF607E
(1487076865.504052) can0 2C0#0000000000000000
(1487076865.504052) can0 4B0#00C0008000000000
(1487076865.505239) can0 4F0#0000C80000121402
(1487076865.506387) can0 4F1#CCFF000000000000
(1487076865.506388) can0 5E4#040000
(1487076865.506388) can0 2B0#63050007E9
(1487076865.506389) can0 165#66088000000007E9
(1487076865.508356) can0 220#F10300000000DA0F
(1487076865.509387) can0 164#0008000000000D05
(1487076865.510875) can0 316#059D0000002F007F
(1487076865.511962) can0 080#001700009D2F00F2
(1487076865.511963) can0 081#40000000000000A2
(1487076865.511964) can0 18F#002B000000720000
(1487076865.511964) can0 260#0500000016A75F2D
(1487076865.513048) can0 2A0#C2005D806C12A900
(1487076865.513049) can0 329#4F60810E11270010
(1487076865.513050) can0 545#DF00005E57FE57FE
(1487076865.514120) can0 153#200000FF00FF708E
(1487076865.514122) can0 2C0#0000000000000000
(1487076865.515567) can0 165#66088000000008E6
(1487076865.516610) can0 2B0#61050007FA
(1487076865.518351) can0 220#F10300000000C10F
(1487076865.519434) can0 164#0008000000000E06
(1487076865.519435) can0 1F1#0000000000000000
(1487076865.520603) can0 316#059D0000002F007F
(1487076865.521689) can0 080#001700009D2F00E3
(1487076865.521690) can0 081#4000000000000093
(1487076865.521690) can0 18F#002B000000720000
(1487076865.521690) can0 260#0500000016A75F3C
(1487076865.522768) can0 2A0#62005D806C12A900
(1487076865.522769) can0 329#4F60810E11270010
(1487076865.522770) can0 545#DF00005E57FE57FE
(1487076865.523878) can0 153#200000FF00FF809E
(1487076865.523879) can0 2C0#0000000000000000
(1487076865.523879) can0 4B0#000000C000000000
(1487076865.525123) can0 165#66088000000009E7
(1487076865.526185) can0 2B0#63050007CB
(1487076865.526186) can0 4F0#0000CA0000121402
(1487076865.526186) can0 4F1#CCFF000000000000
(1487076865.527269) can0 690#4000400000200400
(1487076865.528338) can0 220#F10300000000C10F
(1487076865.529437) can0 164#0008000000000F07
(1487076865.530727) can0 316#059D0000002F007F
(1487076865.531796) can0 080#001700009D2F00D4
(1487076865.531797) can0 081#4000000000000084
(1487076865.531798) can0 18F#002B000000720000
(1487076865.531798) can0 260#0500000016A75F0F
(1487076865.532875) can0 2A0#02005D806C12A900
(1487076865.532876) can0 329#8060810E11260010
(1487076865.532876) can0 545#DF00005E57FE57FE
(1487076865.533996) can0 153#200000FF00FF90AE
(1487076865.533997) can0 2C0#0000000000000000
(1487076865.535082) can0 165#6708800000000AE5
(1487076865.535083) can0 2B0#63050007BC
(1487076865.538374) can0 220#F10300000000D40F
(1487076865.539435) can0 164#0008000000000008
(1487076865.539436) can0 1F1#0000000000000000
(1487076865.540771) can0 316#059D0000002F007F
(1487076865.541871) can0 080#001700009D2F00C5
(1487076865.541872) can0 081#4000000000000075
(1487076865.541872) can0 18F#002B000000720000
(1487076865.541873) can0 260#0500000016A75F1E
(1487076865.542980) can0 2A0#A2005D806C12A900
(1487076865.542981) can0 329#8060810E11270010
(1487076865.542981) can0 545#DF00005E57FE57FE
(1487076865.542982) can0 5F0#0100
(1487076865.544052) can0 153#200000FF00FFA0BE
(1487076865.544053) can0 2C0#0000000000000000
(1487076865.544053) can0 4B0#004000C000000000
(1487076865.545144) can0 165#6808800000000BEB
(1487076865.545145) can0 2B0#63050007AD
(1487076865.546209) can0 4F0#0000CC0000121402
(1487076865.546210) can0 4F1#CCFF000000000000
(1487076865.548379) can0 220#F10300000000D40F
(1487076865.549383) can0 164#0008000000000109
(1487076865.550855) can0 316#059D0000002F007F
(1487076865.551958) can0 080#001700009D2F00B6
(1487076865.551960) can0 081#4000000000000066
(1487076865.551960) can0 18F#002B000000720000
(1487076865.551961) can0 260#0500000016A75F2D
(1487076865.553048) can0 2A0#C2005D806C12A900
(1487076865.553049) can0 329#8060810E11270010
(1487076865.553050) can0 545#DF00005E57FE57FE
(1487076865.554124) can0 153#200000FF00FFB0CE
(1487076865.554125) can0 2C0#0000000000000000
(1487076865.554125) can0 165#6808800000000CEC
(1487076865.554126) can0 2B0#630500079E
(1487076865.558372) can0 220#F10300000000DA0F
(1487076865.559457) can0 164#000800000000020A
(1487076865.559458) can0 1F1#0000000000000000
(1487076865.560584) can0 316#059D0000002F007F
(1487076865.561672) can0 080#001700009D2F00A7
(1487076865.561673) can0 081#4000000000000057
(1487076865.561678) can0 18F#002B000000720000
(1487076865.561679) can0 260#0500000016A75F3C
(1487076865.562747) can0 2A0#62005D806C12A900
(1487076865.562748) can0 329#8060810E11260010
(1487076865.562748) can0 545#DF00005E57FE57FE
(1487076865.563835) can0 153#200000FF00FFC0DE
(1487076865.563836) can0 165#6908800000000DEC
(1487076865.563836) can0 2B0#630500078F
(1487076865.564904) can0 2C0#0000000000000000
(1487076865.564906) can0 4B0#008000C000000000
(1487076865.565982) can0 4F0#0000CE0000121402
(1487076865.565983) can0 4F1#CCFF000000000000
(1487076865.568373) can0 220#F10300000000C70F
(1487076865.569456) can0 164#000800000000030B
(1487076865.570729) can0 316#059D0000002F007F
(1487076865.571837) can0 080#001700009D2F0098
(1487076865.571838) can0 081#4000000000000048
(1487076865.571838) can0 18F#002B000000720000
(1487076865.571839) can0 260#0500000016A75F0F
(1487076865.572935) can0 2A0#02005D806C12A900
(1487076865.572936) can0 329#8060810E11270010
(1487076865.572937) can0 545#DF00005E57FE57FE
(1487076865.574018) can0 165#6908800000000EEF
(1487076865.574019) can0 2B0#6305000770
(1487076865.574019) can0 153#200000FF00FFD0EE
(1487076865.574020) can0 2C0#0000000000000000
(1487076865.578358) can0 220#F10300000000B40F
(1487076865.579438) can0 164#000800000000040C
(1487076865.579439) can0 1F1#0000000000000000
(1487076865.580769) can0 316#059D0000002F007F
(1487076865.581832) can0 080#001700009D2F0089
(1487076865.581833) can0 081#4000000000000039
(1487076865.581834) can0 18F#002B000000720000
(1487076865.581834) can0 260#0500000016A75F1E
(1487076865.582958) can0 2A0#A2005D806C12A900
(1487076865.582959) can0 329#8060810E11270010
(1487076865.582960) can0 545#DF00005E57FE57FE
(1487076865.582960) can0 165#6908800000000FEE
(1487076865.582961) can0 2B0#6305000761
(1487076865.584052) can0 153#200000FF00FFE0FE
(1487076865.584053) can0 2C0#0000000000000000
(1487076865.584053) can0 4B0#0000000000000000
(1487076865.585146) can0 0A0#00400000001F0000
(1487076865.585147) can0 0A1#8080808066000000
(1487076865.586209) can0 4F0#0000D00000121402
(1487076865.586210) can0 4F1#CCFF000000000000
(1487076865.588358) can0 220#F10300000000BB0F
(1487076865.589439) can0 164#000800000000050D
(1487076865.590854) can0 316#059D0000002F007F
(1487076865.591886) can0 080#001700009D2F007A
(1487076865.591887) can0 081#400000000000002A
(1487076865.591887) can0 18F#002B000000720000
(1487076865.591888) can0 260#0500000016A75F2D
(1487076865.593068) can0 2A0#C2005D806C12A900
(1487076865.593069) can0 165#69088000000000E1
(1487076865.593069) can0 2B0#6305000752
(1487076865.593070) can0 329#D760810E11270010
(1487076865.593070) can0 545#DF00005E57FE57FE
(1487076865.593070) can0 5F0#0100
(1487076865.594174) can0 153#200000FF00FF001E
(1487076865.594175) can0 2C0#0000000000000000
(1487076865.598373) can0 220#F10300000000BB0F
(1487076865.599458) can0 164#000800000000060E
(1487076865.599459) can0 1F1#0000000000000000
(1487076865.600589) can0 316#059D0000002F007F
(1487076865.601658) can0 080#001700009D2F006B
(1487076865.601659) can0 081#400000000000001B
(1487076865.601659) can0 18F#002B000000720000
(1487076865.601660) can0 260#0500000016A75F3C
(1487076865.602758) can0 165#69088000000001E0
(1487076865.602759) can0 2A0#62005D806C12A900
(1487076865.602760) can0 2B0#6305000743
(1487076865.602760) can0 329#D760810E11270010
(1487076865.602765) can0 545#DF00005E57FE57FE
(1487076865.603850) can0 153#200000FF00FF102E
(1487076865.603851) can0 2C0#0000000000000000
(1487076865.603852) can0 4B0#0040000000000000
(1487076865.605298) can0 4F0#0000D20000121402
(1487076865.606353) can0 4F1#CCFF000000000000
(1487076865.606354) can0 5E4#040000
(1487076865.608285) can0 220#F10300000000BB0F
(1487076865.609382) can0 164#000800000000070F
(1487076865.610697) can0 316#059D0000002F007F
(1487076865.611810) can0 080#001700009D2F005C
(1487076865.611811) can0 081#400000000000000C
(1487076865.611812) can0 18F#002B000000720000
(1487076865.611813) can0 260#0500000016A75F0F
(1487076865.612886) can0 2A0#02005D806C12A900
(1487076865.612888) can0 2B0#6305000734
(1487076865.612888) can0 165#69088000000002E3
(1487076865.612888) can0 329#D760810E11260010
(1487076865.612889) can0 545#DF00005E57FE57FE
(1487076865.614020) can0 2C0#0000000000000000
(1487076865.614021) can0 153#200000FF00FF203E
(1487076865.618380) can0 220#F10300000000DA0F
(1487076865.619455) can0 164#0008000000000800
(1487076865.619456) can0 1F1#0000000000000000
(1487076865.620680) can0 165#69088000000003E2
(1487076865.621811) can0 18F#002B000000720000
(1487076865.621812) can0 080#001700009D2F004D
(1487076865.621813) can0 081#40000000000000FD
(1487076865.621814) can0 260#0500000016A75F1E
(1487076865.622937) can0 2A0#A2005D806C12A900
(1487076865.622938) can0 2B0#6305000725
(1487076865.622939) can0 316#059D0000002F007F
(1487076865.622939) can0 329#D760810E11260010
(1487076865.622939) can0 545#DF00005E57FE57FE
(1487076865.624023) can0 153#200000FF00FF304E
(1487076865.624024) can0 2C0#0000000000000000
(1487076865.624024) can0 4B0#0080000000000000
(1487076865.625938) can0 4F0#0000D40000121402
(1487076865.626979) can0 4F1#CCFF000000000000
(1487076865.626980) can0 690#4000400000200800
(1487076865.628380) can0 220#F10300000000E60F
(1487076865.629417) can0 164#0008000000000901
(1487076865.630545) can0 165#6A088000000004E6
(1487076865.630547) can0 2B0#6305000716
(1487076865.631627) can0 316#059D0000002F007F
(1487076865.631628) can0 080#001700009D2F003E
(1487076865.631628) can0 081#40000000000000EE
(1487076865.631629) can0 18F#002B000000720000
(1487076865.632707) can0 260#0500000016A75F2D
(1487076865.632709) can0 2A0#C2005D806C12A900
(1487076865.632709) can0 329#D760810E11270010
(1487076865.632709) can0 545#DF00005E57FE57FE
(1487076865.633798) can0 153#200000FF00FF405E
(1487076865.633799) can0 2C0#0000000000000000
(1487076865.638378) can0 220#F10300000000ED0F
(1487076865.639455) can0 164#0008000000000A02
(1487076865.639457) can0 1F1#0000000000000000
(1487076865.639457) can0 5F0#0100
(1487076865.640581) can0 165#6A088000000005E7
(1487076865.640582) can0 2B0#6305000707
(1487076865.640582) can0 316#059D0000002F007F
(1487076865.641669) can0 080#001700009D2F002F
(1487076865.641671) can0 081#40000000000000DF
(1487076865.641671) can0 18F#002B000000720000
(1487076865.641671) can0 260#0500000016A75F3C
(1487076865.642726) can0 2A0#62005D806C12A900
(1487076865.642727) can0 329#D760810E11270010
(1487076865.642727) can0 545#DF00005E57FE57FE
(1487076865.643877) can0 153#200000FF00FF506E
(1487076865.643878) can0 2C0#0000000000000000
(1487076865.643878) can0 4B0#00C0000000000000
(1487076865.645320) can0 4F0#0000D60000121402
(1487076865.646423) can0 4F1#CCFF000000000000
(1487076865.648382) can0 220#F10300000000ED0F
(1487076865.649458) can0 164#0008000000000B03
(1487076865.649459) can0 165#69088000000006E7
(1487076865.650547) can0 2B0#63050007F8
(1487076865.651649) can0 316#059D0000002F007F
(1487076865.651650) can0 080#001700009D2F0010
(1487076865.651651) can0 081#40000000000000C0
(1487076865.651651) can0 18F#002B000000720000
(1487076865.652750) can0 260#0500000016A75F0F
(1487076865.652751) can0 2A0#02005D806C12A900
(1487076865.652751) can0 329#0F60810E11270010
(1487076865.652752) can0 545#DF00005E57FE57FE
(1487076865.653834) can0 153#200000FF00FF607E
(1487076865.653835) can0 2C0#0000000000000000
(1487076865.658383) can0 220#F10300000000ED0F
(1487076865.659459) can0 164#0008000000000C04
(1487076865.659460) can0 1F1#0000000000000000
(1487076865.659461) can0 165#69088000000007E6
(1487076865.659461) can0 2B0#63050007E9
(1487076865.660799) can0 316#059D0000002F007F
(1487076865.661860) can0 080#001700009D2F0001
(1487076865.661861) can0 081#40000000000000B1
(1487076865.661862) can0 18F#002B000000720000
(1487076865.661862) can0 260#0500000016A75F1E
(1487076865.662939) can0 2A0#A2005D806C12A900
(1487076865.662940) can0 329#0F60810E11270010
(1487076865.662940) can0 545#DF00005E57FE57FE
(1487076865.664052) can0 2C0#0000000000000000
(1487076865.664054) can0 153#200000FF00FF708E
(1487076865.664054) can0 4B0#0000004000000000
(1487076865.665298) can0 4F0#0000D80000121402
(1487076865.666374) can0 4F1#CCFF000000000000
(1487076865.668384) can0 220#F10300000000ED0F
(1487076865.669460) can0 164#0008000000000D05
(1487076865.669461) can0 2B0#63050007DA
(1487076865.669461) can0 165#69088000000008E9
(1487076865.670878) can0 316#059D0000002F007F
(1487076865.671962) can0 080#001700009D2F00F2
(1487076865.671964) can0 081#40000000000000A2
(1487076865.671964) can0 18F#002B000000720000
(1487076865.671964) can0 260#0500000016A75F2D
(1487076865.673048) can0 2A0#C2005D806C12A900
(1487076865.673049) can0 329#0F60810E11260010
(1487076865.673050) can0 545#DF00005E57FE57FE
(1487076865.674118) can0 2C0#0000000000000000
(1487076865.674119) can0 153#200000FF00FF809E
(1487076865.678091) can0 165#69088000000009E8
(1487076865.679187) can0 2B0#61050007EB
(1487076865.679188) can0 220#F10300000000F30F
(1487076865.679188) can0 164#0008000000000E06
(1487076865.679189) can0 1F1#0000000000000000
(1487076865.680611) can0 316#059D0000002F007F
(1487076865.681689) can0 080#001700009D2F00E3
(1487076865.681690) can0 081#4000000000000093
(1487076865.681690) can0 18F#002B000000720000
(1487076865.681691) can0 260#0500000016A75F3C
(1487076865.682752) can0 2A0#62005D806C12A900
(1487076865.682753) can0 329#0F60810E11260010
(1487076865.682753) can0 545#DF00005E57FE57FE
(1487076865.683879) can0 2C0#0000000000000000
(1487076865.683880) can0 153#200000FF00FF90AE
(1487076865.683881) can0 4B0#0040004000000000
(1487076865.685296) can0 4F0#0000DA0000121402
(1487076865.686393) can0 0A0#00400000001F0000
(1487076865.686395) can0 0A1#8080808066000000
(1487076865.686395) can0 4F1#CCFF000000000000
(1487076865.687459) can0 5F0#0100
(1487076865.688585) can0 165#6908800000000AEB
(1487076865.688586) can0 2B0#63050007BC
(1487076865.688586) can0 220#F10300000000DA0F
(1487076865.689645) can0 164#0008000000000F07
(1487076865.690732) can0 316#059D0000002F007F
(1487076865.691815) can0 080#001700009D2F00D4
(1487076865.691821) can0 081#4000000000000084
(1487076865.691821) can0 18F#002B000000720000
(1487076865.691821) can0 260#0500000016A75F0F
(1487076865.692923) can0 2A0#02005D806C12A900
(1487076865.692925) can0 329#0F60810E11270010
(1487076865.692925) can0 545#DF00005E57FE57FE
(1487076865.693976) can0 2C0#0000000000000000
(1487076865.693977) can0 153#200000FF00FFA0BE
(1487076865.697150) can0 165#6908800000000BEA
(1487076865.698232) can0 2B0#63050007AD
(1487076865.699315) can0 220#F10300000000E60F
(1487076865.699316) can0 164#0008000000000008
(1487076865.699317) can0 1F1#0000000000000000
(1487076865.700767) can0 316#059D0000002F007F
(1487076865.701798) can0 080#001700009D2F00C5
(1487076865.701799) can0 081#4000000000000075
(1487076865.701800) can0 18F#002B000000720000
(1487076865.701800) can0 260#0500000016A75F1E
(1487076865.702959) can0 2A0#A2005D806C12A900
(1487076865.702960) can0 329#0F60810E11260010
(1487076865.702960) can0 545#DF00005E57FE57FE
(1487076865.704055) can0 2C0#0000000000000000
(1487076865.704056) can0 153#200000FF00FFB0CE
(1487076865.704057) can0 4B0#0080004000000000
(1487076865.705271) can0 4F0#0000DC0000121402
(1487076865.706281) can0 4F1#CCFF000000000000
(1487076865.707437) can0 5E4#040000
(1487076865.707438) can0 165#6908800000000CED
(1487076865.707439) can0 2B0#630500079E
(1487076865.708521) can0 220#F10300000000E60F
(1487076865.709606) can0 164#0008000000000109
(1487076865.710799) can0 316#059D0000002F007F
(1487076865.711928) can0 080#001700009D2F00B6
(1487076865.711930) can0 081#4000000000000066
(1487076865.711930) can0 18F#002B000000720000
(1487076865.711930) can0 260#0500000016A75F2D
(1487076865.713000) can0 2A0#C2005D806C12A900
(1487076865.713001) can0 329#4F60810E11270010
(1487076865.713002) can0 545#DF00005E57FE57FE
(1487076865.714058) can0 2C0#0000000000000000
(1487076865.714059) can0 153#200000FF00FFC0DE
(1487076865.716380) can0 165#6908800000000DEC
(1487076865.717439) can0 2B0#630500078F
(1487076865.718521) can0 220#F10300000000ED0F
(1487076865.719609) can0 164#000800000000020A
(1487076865.719610) can0 1F1#0000000000000000
(1487076865.720686) can0 316#059D0000002F007F
(1487076865.721813) can0 080#001700009D2F00A7
(1487076865.721814) can0 081#4000000000000057
(1487076865.721815) can0 18F#002B000000720000
(1487076865.721816) can0 260#0500000016A75F3C
(1487076865.721816) can0 2A0#62005D806C12A900
(1487076865.722897) can0 329#4F60810E11260010
(1487076865.722899) can0 545#DF00005E57FE57FE
(1487076865.723983) can0 2C0#0000000000000000
(1487076865.723985) can0 153#200000FF00FFD0EE
(1487076865.723985) can0 4B0#00C0004000000000
(1487076865.725836) can0 4F0#0000DE0000121402
(1487076865.726925) can0 165#6908800000000EEF
(1487076865.726926) can0 2B0#6305000770
(1487076865.726927) can0 4F1#CCFF000000000000
(1487076865.726927) can0 690#4000400000200C00
(1487076865.728379) can0 220#F103000000000510
(1487076865.729461) can0 164#000800000000030B
(1487076865.730774) can0 316#059D0000002F007F
(1487076865.731859) can0 080#001700009D2F0098
(1487076865.731861) can0 081#4000000000000048
(1487076865.731861) can0 18F#002B000000720000
(1487076865.731861) can0 260#0500000016A75F0F
(1487076865.732939) can0 2A0#02005D806C12A900
(1487076865.732940) can0 329#4F60810E11270010
(1487076865.732940) can0 545#DF00005E57FE57FE
(1487076865.734022) can0 2C0#0000000000000000
(1487076865.734027) can0 153#200000FF00FFE0FE
(1487076865.735105) can0 5F0#0100
(1487076865.736190) can0 165#6908800000000FEE
(1487076865.736191) can0 2B0#6305000761
(1487076865.738380) can0 220#F103000000000510
(1487076865.739459) can0 164#000800000000040C
(1487076865.739460) can0 1F1#0000000000000000
(1487076865.740815) can0 316#059D0000002F007F
(1487076865.741925) can0 080#001700009D2F0089
(1487076865.741926) can0 081#4000000000000039
(1487076865.741927) can0 18F#002B000000720000
(1487076865.741927) can0 260#0500000016A75F1E
(1487076865.742997) can0 2A0#A2005D806C12A900
(1487076865.742998) can0 329#4F60810E11270010
(1487076865.742999) can0 545#DF00005E57FE57FE
(1487076865.744069) can0 2C0#0000000000000000
(1487076865.744070) can0 153#200000FF00FF001E
(1487076865.744070) can0 4B0#0000008000000000
(1487076865.745149) can0 165#69088000000000E1
(1487076865.746233) can0 2B0#6305000752
(1487076865.746234) can0 4F0#0000E00000121402
(1487076865.746235) can0 4F1#CCFF000000000000
(1487076865.748380) can0 220#F10300000000E60F
(1487076865.749457) can0 164#000800000000050D
(1487076865.750855) can0 316#059D0000002F007F
(1487076865.751942) can0 080#001700009D2F007A
(1487076865.751944) can0 081#400000000000002A
(1487076865.751945) can0 18F#002B000000720000
(1487076865.751946) can0 260#0500000016A75F2D
(1487076865.753050) can0 2A0#C2005D806C12A900
(1487076865.753051) can0 329#4F60810E11270010
(1487076865.753051) can0 545#DF00005E57FE57FE
(1487076865.754126) can0 2C0#0000000000000000
(1487076865.754127) can0 153#200000FF00FF102E
(1487076865.755188) can0 165#69088000000001E0
(1487076865.755189) can0 2B0#6305000743
(1487076865.758349) can0 220#F10300000000E60F
(1487076865.759484) can0 164#000800000000060E
(1487076865.759486) can0 1F1#0000000000000000
(1487076865.760518) can0 316#059D0000002F007F
(1487076865.761599) can0 080#001700009D2F006B
(1487076865.761600) can0 081#400000000000001B
(1487076865.761600) can0 18F#002B000000720000
(1487076865.761601) can0 260#0500000016A75F3C
(1487076865.762673) can0 2A0#62005D806C12A900
(1487076865.762675) can0 329#4F60810E11270010
(1487076865.762675) can0 545#DF00005E57FE57FE
(1487076865.763781) can0 2C0#0000000000000000
(1487076865.763783) can0 153#200000FF00FF203E
(1487076865.763783) can0 4B0#0040008000000000
(1487076865.764884) can0 165#68088000000002E2
(1487076865.764885) can0 2B0#6305000734
(1487076865.765960) can0 4F0#0000E20000121402
(1487076865.765961) can0 4F1#CCFF000000000000
(1487076865.768336) can0 220#F10300000000CD0F
(1487076865.769435) can0 164#000800000000070F
(1487076865.770712) can0 316#059D0000002F007F
(1487076865.771805) can0 080#001700009D2F005C
(1487076865.771806) can0 081#400000000000000C
(1487076865.771807) can0 18F#002B000000720000
(1487076865.771808) can0 260#0500000016A75F0F
(1487076865.772875) can0 2A0#02005D806C12A900
(1487076865.772876) can0 329#8060810E11270010
(1487076865.772876) can0 545#DF00005E57FE57FE
(1487076865.774002) can0 2C0#0000000000000000
(1487076865.774003) can0 153#200000FF00FF304E
(1487076865.774003) can0 165#68088000000003E3
(1487076865.774003) can0 2B0#6305000725
(1487076865.778384) can0 220#F10300000000CD0F
(1487076865.779485) can0 164#0008000000000800
(1487076865.779486) can0 1F1#0000000000000000
(1487076865.780775) can0 316#059D0000002F007F
(1487076865.781858) can0 080#001700009D2F004D
(1487076865.781864) can0 081#40000000000000FD
(1487076865.781865) can0 18F#002B000000720000
(1487076865.781865) can0 0A0#00400000001F0000
(1487076865.782909) can0 0A1#8080808066000000
(1487076865.782910) can0 260#0500000016A75F1E
(1487076865.782911) can0 2A0#A2005D806C12A900
(1487076865.782911) can0 329#8060810E11270010
(1487076865.782912) can0 545#DF00005E57FE57FE
(1487076865.784082) can0 5F0#0100
(1487076865.784083) can0 165#67088000000004EB
(1487076865.784083) can0 153#200000FF00FF405E
(1487076865.784084) can0 2B0#6305000716
(1487076865.784084) can0 2C0#0000000000000000
(1487076865.785156) can0 4B0#0080008000000000
(1487076865.786248) can0 4F0#0000E40000121402
(1487076865.786249) can0 4F1#CCFF000000000000
(1487076865.788384) can0 220#F10300000200C70F
(1487076865.789463) can0 164#0008000000000901
(1487076865.790766) can0 316#059D0000002F007F
(1487076865.791849) can0 080#001700009D2F003E
(1487076865.791850) can0 081#40000000000000EE
(1487076865.791851) can0 18F#002B000000720000
(1487076865.791852) can0 260#0500000016A75F2D
(1487076865.792951) can0 2A0#C2005D806C12A900
(1487076865.792952) can0 329#8060810E11270010
(1487076865.792952) can0 545#DF00005E57FE57FE
(1487076865.792952) can0 165#66088000000005EB
(1487076865.794052) can0 2B0#6305000707
(1487076865.794053) can0 2C0#0000000000000000
(1487076865.794053) can0 153#200000FF00FF506E
(1487076865.798385) can0 220#F10300000000E00F
(1487076865.799460) can0 164#0008000000000A02
(1487076865.799461) can0 1F1#0000000000000000
(1487076865.800588) can0 316#059D0000002F007F
(1487076865.801679) can0 080#001700009D2F002F
(1487076865.801680) can0 081#40000000000000DF
(1487076865.801681) can0 18F#002B000000720000
(1487076865.801681) can0 260#0500000016A75F3C
(1487076865.802695) can0 2A0#62005D806C12A900
(1487076865.802696) can0 329#8060810E11270010
(1487076865.802697) can0 545#DF00005E57FE57FE
(1487076865.802697) can0 165#66088000000006E8
(1487076865.802698) can0 2B0#63050007F8
(1487076865.803859) can0 2C0#0000000000000000
(1487076865.803860) can0 153#200000FF00FF607E
(1487076865.803860) can0 4B0#00C0008000000000
(1487076865.805301) can0 4F0#0000E60000121402
(1487076865.806375) can0 4F1#CCFF000000000000
(1487076865.807393) can0 5E4#040000
(1487076865.808464) can0 220#F10300000000E00F
(1487076865.809550) can0 164#0008000000000B03
(1487076865.810719) can0 316#059D0000002F007F
(1487076865.811853) can0 080#001700009D2F0010
(1487076865.811854) can0 081#40000000000000C0
(1487076865.811855) can0 18F#002B000000720000
(1487076865.811856) can0 260#0500000016A75F0F
(1487076865.812958) can0 2A0#02005D806C12A900
(1487076865.812959) can0 165#66088000000007E9
(1487076865.812960) can0 2B0#63050007E9
(1487076865.812960) can0 329#8060810E11270010
(1487076865.812960) can0 545#DF00005E57FE57FE
(1487076865.814053) can0 2C0#0000000000000000
(1487076865.814054) can0 153#200000FF00FF708E
(1487076865.818377) can0 220#F10300000000C70F
(1487076865.819461) can0 164#0008000000000C04
(1487076865.819462) can0 1F1#0000000000000000
(1487076865.820740) can0 316#059D0000002F007F
(1487076865.821892) can0 080#001700009D2F0001
(1487076865.821893) can0 081#40000000000000B1
(1487076865.821893) can0 18F#002B000000720000
(1487076865.821894) can0 165#65088000000008E5
(1487076865.823005) can0 260#0500000016A75F1E
(1487076865.823006) can0 2A0#A2005D806C12A900
(1487076865.823011) can0 2B0#63050007DA
(1487076865.823012) can0 329#8060810E11270010
(1487076865.823012) can0 545#DF00005E57FE57FE
(1487076865.824083) can0 2C0#0000000000000000
(1487076865.824084) can0 153#200000FF00FF809E
(1487076865.824085) can0 4B0#000000C000000000
(1487076865.825940) can0 4F0#0000E80000121402
(1487076865.827024) can0 4F1#CCFF000000000000
(1487076865.827025) can0 690#4000400000201000
(1487076865.828387) can0 220#F10300000000C70F
(1487076865.829453) can0 164#0008000000000D05
(1487076865.830855) can0 316#059D0000002F007F
(1487076865.831944) can0 080#001700009D2F00F2
(1487076865.831945) can0 081#40000000000000A2
(1487076865.831946) can0 18F#002B000000720000
(1487076865.831947) can0 260#0500000016A75F2D
(1487076865.833065) can0 2A0#C2005D806C12A900
(1487076865.833067) can0 2B0#63050007CB
(1487076865.833067) can0 165#64088000000009E5
(1487076865.833067) can0 329#D760810E11270010
(1487076865.833068) can0 545#DF00005E57FE57FE
(1487076865.834148) can0 5F0#0100
(1487076865.834149) can0 153#200000FF00FF90AE
(1487076865.834150) can0 2C0#0000000000000000
(1487076865.834150) can0 5A1#5442333046422644
(1487076865.838397) can0 220#F10300000000D40F
(1487076865.839439) can0 164#0008000000000E06
(1487076865.839440) can0 1F1#0000000000000000
(1487076865.840564) can0 316#059D0000002F007F
(1487076865.841678) can0 080#001700009D2F00E3
(1487076865.841679) can0 081#4000000000000093
(1487076865.841679) can0 18F#002B000000720000
(1487076865.841680) can0 260#0500000016A75F3C
(1487076865.842775) can0 2A0#62005D806C12A900
(1487076865.842776) can0 2B0#610500079C
(1487076865.842776) can0 165#6308800000000AE1
(1487076865.842777) can0 329#D760810E11270010
(1487076865.842777) can0 545#DF00005E57FE57FE
(1487076865.843843) can0 2C0#0000000000000000
(1487076865.843844) can0 153#200000FF00FFA0BE
(1487076865.843844) can0 4B0#004000C000000000
(1487076865.845356) can0 4F0#0000EA0000121402
(1487076865.846440) can0 4F1#CCFF000000000000
(1487076865.848405) can0 220#F10300000000C70F
(1487076865.849482) can0 164#0008000000000F07
(1487076865.850565) can0 165#6308800000000BE0
(1487076865.850566) can0 2B0#610500078D
(1487076865.851681) can0 316#059D0000002F007F
(1487076865.851682) can0 080#001700009D2F00D4
(1487076865.851682) can0 081#4000000000000084
(1487076865.851683) can0 18F#002B000000720000
(1487076865.852773) can0 260#0500000016A75F0F
(1487076865.852774) can0 2A0#02005D806C12A900
(1487076865.852774) can0 329#D760810E11270010
(1487076865.852775) can0 545#DF00005E57FE57FE
(1487076865.853857) can0 2C0#0000000000000000
(1487076865.853858) can0 153#200000FF00FFB0CE
(1487076865.858402) can0 220#F10300000000BB0F
(1487076865.859484) can0 164#0008000000000008
(1487076865.859485) can0 1F1#0000000000000000
(1487076865.860565) can0 165#6208800000000CE6
(1487076865.860566) can0 2B0#630500079E
(1487076865.861649) can0 316#059D0000002F007F
(1487076865.861650) can0 080#001700009D2F00C5
(1487076865.861650) can0 081#4000000000000075
(1487076865.861651) can0 18F#002B000000720000
(1487076865.862757) can0 260#0500000016A75F1E
(1487076865.862758) can0 2A0#A2005D806C12A900
(1487076865.862758) can0 329#D760810E11270010
(1487076865.862759) can0 545#DF00005E57FE57FE
(1487076865.863822) can0 2C0#0000000000000000
(1487076865.863823) can0 153#200000FF00FFC0DE
(1487076865.863824) can0 4B0#008000C000000000
(1487076865.865302) can0 4F0#0000EC0000121402
(1487076865.866356) can0 4F1#CCFF000000000000
(1487076865.868384) can0 220#F10300000000C70F
(1487076865.869463) can0 164#0008000000000109
(1487076865.869464) can0 165#6008800000000DE5
(1487076865.870553) can0 2B0#630500078F
(1487076865.871605) can0 316#059D0000002F007F
(1487076865.871606) can0 080#001700009D2F00B6
(1487076865.871607) can0 081#4000000000000066
(1487076865.871607) can0 18F#002B000000720000
(1487076865.872719) can0 260#0500000016A75F2D
(1487076865.872720) can0 2A0#C2005D806C12A900
(1487076865.872721) can0 329#D760810E11270010
(1487076865.872721) can0 545#DF00005E57FE57FE
(1487076865.873816) can0 2C0#0000000000000000
(1487076865.873817) can0 153#200000FF00FFD0EE
(1487076865.878402) can0 220#F10300000000C70F
(1487076865.879507) can0 164#000800000000020A
(1487076865.879508) can0 1F1#0000000000000000
(1487076865.879508) can0 165#5E08800000000ED8
(1487076865.879509) can0 2B0#6305000770
(1487076865.879509) can0 5F0#0100
(1487076865.880586) can0 316#059D0000002F007F
(1487076865.881694) can0 080#001700009D2F00A7
(1487076865.881695) can0 081#4000000000000057
(1487076865.881696) can0 18F#002B000000720000
(1487076865.881696) can0 260#0500000016A75F3C
(1487076865.882761) can0 2A0#62005D806C12A900
(1487076865.882763) can0 329#D760810E11260010
(1487076865.882763) can0 545#DF00005E57FE57FE
(1487076865.882763) can0 0A0#00400000001F0000
(1487076865.883884) can0 0A1#8080808066000000
(1487076865.883885) can0 2C0#0000000000000000
(1487076865.883886) can0 153#200000FF00FFE0FE
(1487076865.883886) can0 4B0#0000000000000000
(1487076865.885302) can0 4F0#0000EE0000121402
(1487076865.886374) can0 4F1#CCFF000000000000
(1487076865.888397) can0 220#F10300000000AE0F
(1487076865.889482) can0 164#000800000000030B
(1487076865.889483) can0 2B0#6305000761
(1487076865.889483) can0 165#5B08800000000FDC
(1487076865.890692) can0 316#059D0000002F007F
(1487076865.891782) can0 080#001700009D2F0098
(1487076865.891783) can0 081#4000000000000048
(1487076865.891784) can0 18F#002B000000720000
(1487076865.891784) can0 260#0500000016A75F0F
(1487076865.892883) can0 2A0#02005D806C12A900
(1487076865.892884) can0 329#0F60810E11270010
(1487076865.892884) can0 545#DF00005E57FE57FE
(1487076865.893942) can0 2C0#0000000000000000
(1487076865.893943) can0 153#200000FF00FF001E
(1487076865.898069) can0 165#57088000000000DF
(1487076865.899177) can0 2B0#6305000752
(1487076865.899178) can0 220#F10300000000AE0F
(1487076865.899178) can0 164#000800000000040C
(1487076865.899178) can0 1F1#0000000000000000
(1487076865.900759) can0 316#059D0000002F007F
(1487076865.901842) can0 080#001700009D2F0089
(1487076865.901843) can0 081#4000000000000039
(1487076865.901843) can0 18F#002B000000720000
(1487076865.901844) can0 260#0500000016A75F1E
(1487076865.902872) can0 2A0#A2005D806C12A900
(1487076865.902873) can0 329#0F60810E11260010
(1487076865.902874) can0 545#DF00005E57FE57FE
(1487076865.903991) can0 2C0#0000000000000000
(1487076865.903992) can0 153#200000FF00FF102E
(1487076865.903993) can0 4B0#0040000000000000
(1487076865.905303) can0 4F0#0000F00000121402
(1487076865.906377) can0 4F1#CCFF000000000000
(1487076865.907410) can0 5E4#040000
(1487076865.908582) can0 165#52088000000001DB
(1487076865.908583) can0 2B0#6305000743
(1487076865.908583) can0 220#F10300000000DA0F
(1487076865.909659) can0 164#000800000000050D
(1487076865.910869) can0 316#059D0000002F007F
(1487076865.911958) can0 080#001700009D2F007A
(1487076865.911959) can0 081#400000000000002A
(1487076865.911959) can0 18F#002B000000720000
(1487076865.911959) can0 260#0500000016A75F2D
(1487076865.913062) can0 2A0#C2005D806C12A900
(1487076865.913064) can0 329#0F60810E11270010
(1487076865.913064) can0 545#DF00005E57FE57FE
(1487076865.914137) can0 2C0#0000000000000000
(1487076865.914138) can0 153#200000FF00FF203E
(1487076865.917124) can0 165#4D088000000002C7
(1487076865.918201) can0 2B0#6305000734
(1487076865.919266) can0 220#F10300000000E60F
(1487076865.919267) can0 164#000800000000060E
(1487076865.919267) can0 1F1#0000000000000000
(1487076865.920612) can0 316#059D0000002F007F
(1487076865.921703) can0 080#001700009D2F006B
(1487076865.921704) can0 081#400000000000001B
(1487076865.921704) can0 18F#002B000000720000
(1487076865.921705) can0 260#0500000016A75F3C
(1487076865.922781) can0 2A0#62005D806C12A900
(1487076865.922782) can0 329#0F60810E11270010
(1487076865.922783) can0 545#DF00005E57FE57FE
(1487076865.923873) can0 2C0#0000000000000000
(1487076865.923874) can0 153#200000FF00FF304E
(1487076865.923874) can0 4B0#0080000000000000
(1487076865.925850) can0 4F0#0000F20000121402
(1487076865.926976) can0 4F1#CCFF000000000000
(1487076865.926977) can0 690#4000400000201400
(1487076865.926977) can0 165#47088000000003CC
(1487076865.926978) can0 2B0#6305000725
(1487076865.928038) can0 5F0#0100
(1487076865.929118) can0 220#F10300000000D40F
(1487076865.929119) can0 164#000800000000070F
(1487076865.930763) can0 316#059D0000002F007F
(1487076865.931851) can0 080#001700009D2F005C
(1487076865.931852) can0 081#400000000000000C
(1487076865.931853) can0 18F#002B000000720000
(1487076865.931853) can0 260#0500000016A75F0F
(1487076865.932940) can0 2A0#02005D806C12A900
(1487076865.932941) can0 329#0F60810E11270010
(1487076865.932942) can0 545#DF00005E57FE57FE
(1487076865.934013) can0 2C0#0000000000000000
(1487076865.934014) can0 153#200000FF00FF405E
(1487076865.936343) can0 165#41088000000004CD
(1487076865.937438) can0 2B0#6305000716
(1487076865.938516) can0 220#F10300000000D40F
(1487076865.939603) can0 164#0008000000000800
(1487076865.939604) can0 1F1#0000000000000000
(1487076865.940786) can0 316#059D0000002F007F
(1487076865.941870) can0 080#001700009D2F004D
(1487076865.941871) can0 081#40000000000000FD
(1487076865.941871) can0 18F#002B000000720000
(1487076865.941872) can0 260#0500000016A75F1E
(1487076865.942955) can0 2A0#A2005D806C12A900
(1487076865.942956) can0 329#0F60810E11270010
(1487076865.942957) can0 545#DF00005E57FE57FE
(1487076865.944042) can0 2C0#0000000000000000
(1487076865.944043) can0 153#200000FF00FF506E
(1487076865.944043) can0 4B0#00C0000000000000
(1487076865.945315) can0 4F0#0000F40000121402
(1487076865.946409) can0 4F1#CCFF000000000000
(1487076865.946410) can0 165#3C088000000005B1
(1487076865.946411) can0 2B0#6305000707
(1487076865.948417) can0 220#F10300000000D40F
(1487076865.949493) can0 164#0008000000000901
(1487076865.950851) can0 316#059D0000002F007F
(1487076865.951894) can0 080#001700009D2F003E
(1487076865.951895) can0 081#40000000000000EE
(1487076865.951895) can0 18F#002B000000720000
(1487076865.951895) can0 260#0500000016A75F2D
(1487076865.953021) can0 2A0#C2005D806C12A900
(1487076865.953026) can0 329#4F60810E11270010
(1487076865.953027) can0 545#DF00005E57FE57FE
(1487076865.954119) can0 2C0#0000000000000000
(1487076865.954120) can0 153#200000FF00FF607E
(1487076865.955521) can0 165#39088000000006B7
(1487076865.956598) can0 2B0#63050007F8
(1487076865.958411) can0 220#F10300000000C10F
(1487076865.959496) can0 164#0008000000000A02
(1487076865.959497) can0 1F1#0000000000000000
(1487076865.960600) can0 316#059D0000002F007F
(1487076865.961686) can0 080#001700009D2F002F
(1487076865.961687) can0 081#40000000000000DF
(1487076865.961687) can0 18F#002B000000720000
(1487076865.961688) can0 260#0500000016A75F3C
(1487076865.962784) can0 2A0#62005D806C12A900
(1487076865.962785) can0 329#4F60810E11270010
(1487076865.962785) can0 545#DF00005E57FE57FE
(1487076865.963874) can0 2C0#0000000000000000
(1487076865.963875) can0 153#200000FF00FF708E
(1487076865.963876) can0 4B0#0000004000000000
(1487076865.965064) can0 165#34088000000007BB
(1487076865.966157) can0 2B0#63050007E9
(1487076865.966158) can0 4F0#0000F60000121402
(1487076865.966158) can0 4F1#CCFF000000000000
(1487076865.968333) can0 220#F10300000000C10F
(1487076865.969474) can0 164#0008000000000B03
(1487076865.970731) can0 316#059D0000002F007F
(1487076865.971829) can0 080#001700009D2F0010
(1487076865.971830) can0 081#40000000000000C0
(1487076865.971830) can0 18F#002B000000720000
(1487076865.971831) can0 260#0500000016A75F0F
(1487076865.972910) can0 2A0#02005D806C12A900
(1487076865.972911) can0 329#4F60810E11270010
(1487076865.972911) can0 545#DF00005E57FE57FE
(1487076865.973997) can0 2C0#0000000000000000
(1487076865.973998) can0 153#200000FF00FF809E
(1487076865.975078) can0 165#32088000000008B2
(1487076865.975079) can0 2B0#63050007DA
(1487076865.975079) can0 5F0#0100
(1487076865.978442) can0 220#F10300000000E60F
(1487076865.979517) can0 164#0008000000000C04
(1487076865.979518) can0 1F1#0000000000000000
(1487076865.980787) can0 316#059D0000002F007F
(1487076865.981890) can0 080#001700009D2F0001
(1487076865.981891) can0 081#40000000000000B1
(1487076865.981891) can0 18F#002B000000720000
(1487076865.981892) can0 260#0500000016A75F1E
(1487076865.982887) can0 2A0#A2005D806C12A900
(1487076865.982889) can0 329#4F60810E11270010
(1487076865.982889) can0 545#DF00005E57FE57FE
(1487076865.984025) can0 2C0#0000000000000000
(1487076865.984026) can0 153#200000FF00FF90AE
(1487076865.984026) can0 4B0#0040004000000000
(1487076865.985133) can0 0A0#00400000001F0000
(1487076865.985133) can0 0A1#8080808066000000
(1487076865.985134) can0 2B0#63050007CB
(1487076865.985134) can0 165#30088000000009B1
(1487076865.986206) can0 4F0#0000F80000121402
(1487076865.986207) can0 4F1#CCFF000000000000
(1487076865.988359) can0 220#F10300000000ED0F
(1487076865.989436) can0 164#0008000000000D05
(1487076865.990778) can0 316#059D0000002F007F
(1487076865.991896) can0 080#001700009D2F00F2
(1487076865.991897) can0 081#40000000000000A2
(1487076865.991898) can0 18F#002B000000720000
(1487076865.991898) can0 260#0500000016A75F2D
(1487076865.993008) can0 2A0#C2005D806C12A900
(1487076865.993009) can0 329#4F60810E11260010
(1487076865.993010) can0 545#DF00005E57FE57FE
(1487076865.994080) can0 2C0#0000000000000000
(1487076865.994081) can0 153#200000FF00FFA0BE
(1487076865.994081) can0 165#3008800000000AB2
(1487076865.994081) can0 2B0#63050007BC
(1487076865.998381) can0 220#F10300000000E60F
(1487076865.999441) can0 164#0008000000000E06
(1487076865.999442) can0 1F1#0000000000000000
(1487076866.000526) can0 316#059D0000002F007F
(1487076866.001630) can0 080#001700009D2F00E3
(1487076866.001631) can0 081#4000000000000093
(1487076866.001631) can0 18F#002B000000720000
(1487076866.001632) can0 260#0500000016A75F3C
(1487076866.002712) can0 2A0#62005D806C12A900
(1487076866.002713) can0 329#4F60810E11270010
(1487076866.002713) can0 545#DF00005E57FE57FE
(1487076866.003775) can0 2C0#0000000000000000
(1487076866.003776) can0 153#200000FF00FFB0CE
(1487076866.003776) can0 2B0#63050007AD
(1487076866.004881) can0 165#2E08800000000BAD
(1487076866.004893) can0 4B0#0080004000000000
(1487076866.005965) can0 4F0#0000FA0000121402
(1487076866.005977) can0 4F1#CCFF000000000000
(1487076866.007797) can0 5E4#040000
(1487076866.008879) can0 220#F10300000000ED0F
(1487076866.008880) can0 164#0008000000000F07
(1487076866.010672) can0 316#059D0000002F007F
(1487076866.011769) can0 080#001700009D2F00D4
(1487076866.011770) can0 081#4000000000000084
(1487076866.011770) can0 18F#002B000000720000
(1487076866.011771) can0 260#0500000016A75F0F
(1487076866.012838) can0 2A0#02005D806C12A900
(1487076866.012839) can0 329#8060810E11260010
(1487076866.012840) can0 545#DF00005E57FE57FE
(1487076866.012850) can0 165#2D08800000000CA9
(1487076866.013923) can0 2B0#630500079E
(1487076866.013934) can0 2C0#0000000000000000
(1487076866.013935) can0 153#200000FF00FFC0DE
(1487076866.018342) can0 220#F10300000000ED0F
(1487076866.019422) can0 164#0008000000000008
(1487076866.019423) can0 1F1#0000000000000000
(1487076866.020693) can0 316#059D0000002F007F
(1487076866.021820) can0 080#001700009D2F00C5
(1487076866.021831) can0 081#4000000000000075
(1487076866.021832) can0 18F#002B000000720000
(1487076866.021832) can0 260#0500000016A75F1E
(1487076866.022943) can0 2A0#A2005D806C12A900
(1487076866.022944) can0 329#8060810E11270010
(1487076866.022945) can0 545#DF00005E57FE57FE
(1487076866.022945) can0 165#2C08800000000DA9
(1487076866.022945) can0 2B0#630500078F
(1487076866.022946) can0 5F0#0100
(1487076866.024050) can0 2C0#0000000000000000
(1487076866.024051) can0 153#200000FF00FFD0EE
(1487076866.024051) can0 4B0#00C0004000000000
(1487076866.025902) can0 4F0#0000FC0000121402
(1487076866.026995) can0 4F1#CCFF000000000000
(1487076866.026996) can0 690#4000400000201800
(1487076866.028370) can0 220#F10300000000F30F
(1487076866.029441) can0 164#0008000000000109
(1487076866.030778) can0 316#059D0000002F007F
(1487076866.031878) can0 080#001700009D2F00B6
(1487076866.031879) can0 081#4000000000000066
(1487076866.031879) can0 18F#002B000000720000
(1487076866.031880) can0 260#0500000016A75F2D
(1487076866.032992) can0 165#2C08800000000EAA
(1487076866.032992) can0 2A0#C2005D806C12A900
(1487076866.032993) can0 2B0#6305000770
(1487076866.032993) can0 329#8060810E11270010
(1487076866.032993) can0 545#DF00005D57FE57FE
(1487076866.034089) can0 2C0#0000000000000000
(1487076866.034089) can0 153#200000FF00FFE0FE
(1487076866.038345) can0 220#F10300000000F30F
(1487076866.039424) can0 164#000800000000020A
(1487076866.039425) can0 1F1#0000000000000000
(1487076866.040526) can0 316#059D0000002F007F
(1487076866.041619) can0 080#001700009D2F00A7
(1487076866.041620) can0 081#4000000000000057
(1487076866.041620) can0 18F#002B000000720000
(1487076866.041621) can0 260#0500000016A75F3C
(1487076866.042714) can0 165#2C08800000000FAB
(1487076866.042714) can0 2A0#62005D806C12A900
(1487076866.042715) can0 2B0#6305000761
(1487076866.042715) can0 329#8060810E11260010
(1487076866.042715) can0 545#DF00005E57FE57FE
(1487076866.043802) can0 2C0#0000000000000000
(1487076866.043802) can0 153#200000FF00FF001E
(1487076866.043803) can0 4B0#0000008000000000
(1487076866.045241) can0 4F0#0000FE0000121402
(1487076866.046317) can0 4F1#CCFF000000000000
(1487076866.048371) can0 220#F10300000000C70F
(1487076866.049441) can0 164#000800000000030B
(1487076866.050654) can0 316#059D0000002F007F
(1487076866.051759) can0 080#001700009D2F0098
(1487076866.051760) can0 081#4000000000000048
(1487076866.051760) can0 18F#002B000000720000
(1487076866.051761) can0 260#0500000016A75F0F
(1487076866.052869) can0 2A0#02005D806C12A900
(1487076866.052869) can0 2B0#6305000752
(1487076866.052870) can0 165#2C088000000000A4
(1487076866.052870) can0 329#8060810E11270010
(1487076866.052870) can0 545#DF00005E57FE57FE
(1487076866.053943) can0 2C0#0000000000000000
(1487076866.053943) can0 153#200000FF00FF102E
(1487076866.058370) can0 220#F10300000000CD0F
(1487076866.059444) can0 164#000800000000040C
(1487076866.059444) can0 1F1#0000000000000000
(1487076866.060633) can0 165#2C088000000001A5
(1487076866.061716) can0 260#0500000016A75F1E
(1487076866.061716) can0 18F#002B000000720000
(1487076866.061717) can0 080#001700009D2F0089
(1487076866.061718) can0 081#4000000000000039
(1487076866.062819) can0 2A0#A2005D806C12A900
(1487076866.062819) can0 2B0#6305000743
(1487076866.062820) can0 316#059D0000002F007F
(1487076866.062820) can0 329#8060810E11270010
(1487076866.062820) can0 545#DF00005E57FE57FE
(1487076866.063925) can0 2C0#0000000000000000
(1487076866.063926) can0 153#200000FF00FF203E
(1487076866.063926) can0 4B0#0040008000000000
(1487076866.065218) can0 4F0#0000000000121402
(1487076866.066306) can0 4F1#CCFF000000000000
(1487076866.068368) can0 220#F10300000000CD0F
(1487076866.069443) can0 164#000800000000050D
(1487076866.070508) can0 165#2D088000000002A7
(1487076866.070509) can0 2B0#6305000734
(1487076866.071622) can0 316#059D0000002F007F
(1487076866.071623) can0 080#001700009D2F007A
(1487076866.071623) can0 081#400000000000002A
(1487076866.071623) can0 18F#002B000000720000
(1487076866.072712) can0 260#0500000016A75F2D
(1487076866.072713) can0 2A0#C2005D806C12A900
(1487076866.072713) can0 329#D760810E11270010
(1487076866.072713) can0 545#DF00005E57FE57FE
(1487076866.072714) can0 5F0#0100
(1487076866.073800) can0 2C0#0000000000000000
(1487076866.073800) can0 153#200000FF00FF304E
(1487076866.078384) can0 220#F10300000000C70F
(1487076866.079445) can0 164#000800000000060E
(1487076866.079446) can0 1F1#0000000000000000
(1487076866.080548) can0 165#2D088000000003A6
(1487076866.080549) can0 2B0#6305000725
(1487076866.080550) can0 316#059D0000002F007F
(1487076866.081653) can0 080#001700009D2F006B
(1487076866.081654) can0 081#400000000000001B
(1487076866.081654) can0 18F#002B000000720000
(1487076866.081654) can0 260#0500000016A75F3C
(1487076866.082746) can0 2A0#62005D806C12A900
(1487076866.082746) can0 329#D760810E11270010
(1487076866.082747) can0 545#DF00005E57FE57FE
(1487076866.083822) can0 2C0#0000000000000000
(1487076866.083823) can0 153#200000FF00FF405E
(1487076866.083823) can0 4B0#0080008000000000
(1487076866.085196) can0 0A0#00400000001F0000
(1487076866.086299) can0 0A1#8080808066000000
(1487076866.086300) can0 4F0#0000020000121402
(1487076866.086300) can0 4F1#CCFF000000000000
(1487076866.088344) can0 220#F10300000000C70F
(1487076866.089446) can0 164#000800000000070F
(1487076866.089446) can0 165#2E088000000004A2
(1487076866.089447) can0 2B0#6305000716
(1487076866.090654) can0 316#059D0000002F007F
(1487076866.091745) can0 080#001700009D2F005C
(1487076866.091749) can0 081#400000000000000C
(1487076866.091750) can0 18F#002B000000720000
(1487076866.091750) can0 260#0500000016A75F0F
(1487076866.092818) can0 2A0#02005D806C12A900
(1487076866.092818) can0 329#D760810E11270010
(1487076866.092819) can0 545#DF00005E57FE57FE
(1487076866.093902) can0 2C0#0000000000000000
(1487076866.093903) can0 153#200000FF00FF506E
(1487076866.098345) can0 220#F10300000000F30F
(1487076866.099444) can0 164#0008000000000800
(1487076866.099444) can0 165#2E088000000005A3
(1487076866.099445) can0 1F1#0000000000000000
(1487076866.099445) can0 2B0#6305000707
(1487076866.100716) can0 316#059D0000002F007F
(1487076866.101801) can0 080#001700009D2F004D
(1487076866.101801) can0 081#40000000000000FD
(1487076866.101802) can0 18F#002B000000720000
(1487076866.101802) can0 260#0500000016A75F1E
(1487076866.102883) can0 2A0#A2005D806C12A900
(1487076866.102884) can0 329#D760810E11260010
(1487076866.102884) can0 545#DF00005E57FE57FE
(1487076866.103972) can0 2C0#0000000000000000
(1487076866.103972) can0 153#200000FF00FF607E
(1487076866.103973) can0 4B0#00C0008000000000
(1487076866.105242) can0 4F0#0000040000121402
(1487076866.106319) can0 4F1#CCFF000000000000
(1487076866.108372) can0 220#F10300000000F30F
(1487076866.109443) can0 164#0008000000000901
(1487076866.109444) can0 2B0#63050007F8
(1487076866.109444) can0 5E4#040000
(1487076866.109444) can0 165#30088000000006BE
(1487076866.110757) can0 316#059D0000002F007F
(1487076866.111871) can0 080#001700009D2F003E
(1487076866.111872) can0 081#40000000000000EE
(1487076866.111872) can0 18F#002B000000720000
(1487076866.111873) can0 260#0500000016A75F2D
(1487076866.112943) can0 2A0#C2005D806C12A900
(1487076866.112944) can0 329#D760810E11270010
(1487076866.112944) can0 545#DF00005E57FE57FE
(1487076866.114027) can0 2C0#0000000000000000
(1487076866.114028) can0 153#200000FF00FF708E
(1487076866.117923) can0 165#31088000000007BE
(1487076866.119028) can0 2B0#63050007E9
(1487076866.119028) can0 220#F10300000000CD0F
(1487076866.119029) can0 164#0008000000000A02
(1487076866.119029) can0 1F1#0000000000000000
(1487076866.119030) can0 5F0#0100
(1487076866.120535) can0 316#059D0000002F007F
(1487076866.121620) can0 080#001700009D2F002F
(1487076866.121621) can0 081#40000000000000DF
(1487076866.121621) can0 18F#002B000000720000
(1487076866.121622) can0 260#0500000016A75F3C
(1487076866.122712) can0 2A0#62005D806C12A900
(1487076866.122713) can0 329#D760810E11270010
(1487076866.122714) can0 545#DF00005E57FE57FE
(1487076866.123831) can0 2C0#0000000000000000
(1487076866.123832) can0 153#200000FF00FF809E
(1487076866.123832) can0 4B0#000000C000000000
(1487076866.125862) can0 4F0#0000060000121402
(1487076866.126944) can0 4F1#CCFF000000000000
(1487076866.126945) can0 690#4000400000201C00
(1487076866.128033) can0 165#34088000000008B4
(1487076866.128034) can0 2B0#63050007DA
(1487076866.129115) can0 220#F10300000000DA0F
(1487076866.129116) can0 164#0008000000000B03
(1487076866.130712) can0 316#059D0000002F007F
(1487076866.131866) can0 080#001700009D2F0010
(1487076866.131867) can0 081#40000000000000C0
(1487076866.131868) can0 18F#002B000000720000
(1487076866.131868) can0 260#0500000016A75F0F
(1487076866.132931) can0 2A0#02005D806C12A900
(1487076866.132932) can0 329#0F60810E11270010
(1487076866.132932) can0 545#DF00005E57FE57FE
(1487076866.134027) can0 2C0#0000000000000000
(1487076866.134028) can0 153#200000FF00FF90AE
(1487076866.134029) can0 5A0#0000000000000000
(1487076866.134029) can0 5A2#04029103
(1487076866.137114) can0 165#38088000000009B9
(1487076866.138195) can0 2B0#63050007CB
(1487076866.139280) can0 220#F10300000000BB0F
(1487076866.139281) can0 164#0008000000000C04
(1487076866.139281) can0 1F1#0000000000000000
(1487076866.140784) can0 316#059D0000002F007F
(1487076866.141858) can0 080#001700009D2F0001
(1487076866.141859) can0 081#40000000000000B1
(1487076866.141860) can0 18F#002B000000720000
(1487076866.141860) can0 260#0500000016A75F1E
(1487076866.142944) can0 2A0#A2005D806C12A900
(1487076866.142946) can0 329#0F60810E11270010
(1487076866.142946) can0 545#DF00005E57FE57FE
(1487076866.144046) can0 2C0#0000000000000000
(1487076866.144047) can0 153#200000FF00FFA0BE
(1487076866.144047) can0 4B0#004000C000000000
(1487076866.145321) can0 4F0#0000080000121402
(1487076866.146383) can0 4F1#CCFF000000000000
(1487076866.147456) can0 165#3B08800000000AB9
(1487076866.147457) can0 2B0#63050007BC
(1487076866.148557) can0 220#F10300000000C10F
(1487076866.149632) can0 164#0008000000000D05
(1487076866.150884) can0 316#059D0000002F007F
(1487076866.151973) can0 080#001700009D2F00F2
(1487076866.151974) can0 081#40000000000000A2
(1487076866.151975) can0 18F#002B000000720000
(1487076866.151976) can0 260#0500000016A75F2D
(1487076866.153070) can0 2A0#C2005D806C12A900
(1487076866.153071) can0 329#0F60810E11270010
(1487076866.153071) can0 545#DF00005E57FE57FE
(1487076866.154130) can0 2C0#0000000000000000
(1487076866.154132) can0 153#200000FF00FFB0CE
(1487076866.156260) can0 165#3E08800000000BBD
(1487076866.157321) can0 2B0#63050007AD
(1487076866.158431) can0 220#F10300000000C10F
(1487076866.159508) can0 164#0008000000000E06
(1487076866.159509) can0 1F1#0000000000000000
(1487076866.160572) can0 316#059D0000002F007F
(1487076866.161695) can0 080#001700009D2F00E3
(1487076866.161696) can0 081#4000000000000093
(1487076866.161696) can0 18F#002B000000720000
(1487076866.161697) can0 260#0500000016A75F3C
(1487076866.162780) can0 2A0#62005D806C12A900
(1487076866.162781) can0 329#0F60810E11260010
(1487076866.162781) can0 545#DF00005E57FE57FE
(1487076866.163853) can0 2C0#0000000000000000
(1487076866.163854) can0 153#200000FF00FFC0DE
(1487076866.163855) can0 4B0#008000C000000000
(1487076866.165323) can0 4F0#00000A0000121402
(1487076866.166410) can0 4F1#CCFF000000000000
(1487076866.166411) can0 165#4208800000000CC6
(1487076866.166411) can0 2B0#630500079E
(1487076866.167491) can0 5F0#0100
(1487076866.168569) can0 220#F10300000000D40F
(1487076866.169632) can0 164#0008000000000F07
(1487076866.170718) can0 316#059D0000002F007F
(1487076866.171809) can0 080#001700009D2F00D4
(1487076866.171810) can0 081#4000000000000084
(1487076866.171811) can0 18F#002B000000720000
(1487076866.171811) can0 260#0500000016A75F0F
(1487076866.172903) can0 2A0#02005D806C12A900
(1487076866.172904) can0 329#0F60810E11260010
(1487076866.172904) can0 545#DF00005E57FE57FE
(1487076866.173988) can0 2C0#0000000000000000
(1487076866.173989) can0 153#200000FF00FFD0EE
(1487076866.175467) can0 165#4608800000000DC3
(1487076866.176558) can0 2B0#630500078F
(1487076866.178420) can0 220#F10300000000D40F
(1487076866.179491) can0 164#0008000000000008
(1487076866.179495) can0 1F1#0000000000000000
(1487076866.180783) can0 316#059D0000002F007F
(1487076866.181863) can0 080#001700009D2F00C5
(1487076866.181864) can0 081#4000000000000075
(1487076866.181864) can0 18F#002B000000720000
(1487076866.181864) can0 260#0500000016A75F1E
(1487076866.182933) can0 0A0#00400000001F0000
(1487076866.182934) can0 0A1#8080808066000000
(1487076866.182935) can0 2A0#A2005D806C12A900
(1487076866.182935) can0 329#0F60810E11270010
(1487076866.182935) can0 545#DF00005E57FE57FE
(1487076866.184014) can0 2C0#0000000000000000
(1487076866.184015) can0 153#200000FF00FFE0FE
(1487076866.184016) can0 4B0#0000000000000000
(1487076866.185124) can0 165#4A08800000000ECC
(1487076866.186196) can0 2B0#6305000770
(1487076866.186197) can0 4F0#00000C0000121402
(1487076866.186197) can0 4F1#CCFF000000000000
(1487076866.188373) can0 220#F10300000000E60F
(1487076866.189447) can0 164#0008000000000109
(1487076866.190748) can0 316#059D0000002F007F
(1487076866.191843) can0 080#001700009D2F00B6
(1487076866.191843) can0 081#4000000000000066
(1487076866.191844) can0 18F#002B000000720000
(1487076866.191844) can0 260#0500000016A75F2D
(1487076866.192930) can0 2A0#C2005D806C12A900
(1487076866.192931) can0 329#4F60810E11270010
(1487076866.192931) can0 545#DF00005E57FE57FE
(1487076866.194010) can0 2C0#0000000000000000
(1487076866.194011) can0 153#200000FF00FF001E
(1487076866.195094) can0 165#4C08800000000FCB
(1487076866.195095) can0 2B0#6305000761
(1487076866.198371) can0 220#F10300000000CD0F
(1487076866.199446) can0 164#000800000000020A
(1487076866.199447) can0 1F1#0000000000000000
(1487076866.200531) can0 316#059D0000002F007F
(1487076866.201635) can0 080#001700009D2F00A7
(1487076866.201636) can0 081#4000000000000057
(1487076866.201636) can0 18F#002B000000720000
(1487076866.201637) can0 260#0500000016A75F3C
(1487076866.202716) can0 2A0#62005D806C12A900
(1487076866.202717) can0 329#4F60810E11270010
(1487076866.202717) can0 545#DF00005E57FE57FE
(1487076866.203804) can0 2C0#0000000000000000
(1487076866.203805) can0 153#200000FF00FF102E
(1487076866.203805) can0 4B0#0040000000000000
(1487076866.204881) can0 165#4C088000000000C4
(1487076866.204882) can0 2B0#6305000752
(1487076866.205965) can0 4F0#00000E0000121402
(1487076866.205966) can0 4F1#CCFF000000000000
(1487076866.208361) can0 220#F10300000000DA0F
(1487076866.209469) can0 164#000800000000030B
(1487076866.209470) can0 5E4#040000
(1487076866.210657) can0 316#059D0000002F007F
(1487076866.211760) can0 080#001700009D2F0098
(1487076866.211761) can0 081#4000000000000048
(1487076866.211761) can0 18F#002B000000720000
(1487076866.211762) can0 260#0500000016A75F0F
(1487076866.212842) can0 2A0#02005D806C12A900
(1487076866.212843) can0 329#4F60810E11270010
(1487076866.212843) can0 545#DF00005E57FE57FE
(1487076866.213925) can0 2C0#0000000000000000
(1487076866.213925) can0 153#200000FF00FF203E
(1487076866.213926) can0 165#4E088000000001C7
(1487076866.213926) can0 2B0#6305000743
(1487076866.215009) can0 5F0#0100
(1487076866.218387) can0 220#F10300000000DA0F
(1487076866.219472) can0 164#000800000000040C
(1487076866.219472) can0 1F1#0000000000000000
(1487076866.220720) can0 316#059D0000002F007F
(1487076866.221820) can0 080#001700009D2F0089
(1487076866.221821) can0 081#4000000000000039
(1487076866.221821) can0 18F#002B000000720000
(1487076866.221825) can0 260#0500000016A75F1E
(1487076866.222905) can0 2A0#A2005D806C12A900
(1487076866.222906) can0 329#4F60810E11270010
(1487076866.222906) can0 545#DF00005E57FE57FE
(1487076866.223998) can0 2C0#0000000000000000
(1487076866.223999) can0 153#200000FF00FF304E
(1487076866.223999) can0 2B0#6305000734
(1487076866.224000) can0 165#4F088000000002C5
(1487076866.225070) can0 4B0#0080000000000000
(1487076866.226155) can0 4F0#0000100000121402
(1487076866.226156) can0 4F1#CCFF000000000000
(1487076866.227248) can0 690#4000400000202000
(1487076866.228386) can0 220#F10300000000DA0F
(1487076866.229448) can0 164#000800000000050D
(1487076866.230826) can0 316#059D0000002F007F
(1487076866.231884) can0 080#001700009D2F007A
(1487076866.231885) can0 081#400000000000002A
(1487076866.231886) can0 18F#002B000000720000
(1487076866.231886) can0 260#0500000016A75F2D
(1487076866.233009) can0 2A0#C2005D806C12A900
(1487076866.233010) can0 329#4F60810E11270010
(1487076866.233011) can0 545#DF00005E57FE57FE
(1487076866.233011) can0 165#51088000000003DA
(1487076866.233012) can0 2B0#6305000725
(1487076866.234094) can0 2C0#0000000000000000
(1487076866.234095) can0 153#200000FF00FF405E
(1487076866.238375) can0 220#F10300000000E60F
(1487076866.239446) can0 164#000800000000060E
(1487076866.239446) can0 1F1#0000000000000000
(1487076866.240551) can0 316#059D0000002F007F
(1487076866.241635) can0 080#001700009D2F006B
(1487076866.241636) can0 081#400000000000001B
(1487076866.241637) can0 18F#002B000000720000
(1487076866.241637) can0 260#0500000016A75F3C
(1487076866.242745) can0 2A0#62005D806C12A900
(1487076866.242746) can0 329#4F60810E11270010
(1487076866.242746) can0 545#DF00005E57FE57FE
(1487076866.242747) can0 165#52088000000004DE
(1487076866.242747) can0 2B0#6305000716
(1487076866.243821) can0 2C0#0000000000000000
(1487076866.243822) can0 153#200000FF00FF506E
(1487076866.243822) can0 4B0#00C0000000000000
(1487076866.245222) can0 4F0#0000120000121402
(1487076866.246303) can0 4F1#CCFF000000000000
(1487076866.248374) can0 220#F10300000000E60F
(1487076866.249447) can0 164#000800000000070F
(1487076866.250678) can0 316#059D0000002F007F
(1487076866.251784) can0 080#001700009D2F005C
(1487076866.251785) can0 081#400000000000000C
(1487076866.251786) can0 18F#002B000000720000
(1487076866.251786) can0 260#0500000016A75F0F
(1487076866.252885) can0 2A0#02005D806C12A900
(1487076866.252886) can0 165#55088000000005D8
(1487076866.252886) can0 2B0#6305000707
(1487076866.252887) can0 329#8060810E11270010
(1487076866.252887) can0 545#DF00005E57FE57FE
(1487076866.253965) can0 2C0#0000000000000000
(1487076866.253966) can0 153#200000FF00FF607E
(1487076866.258390) can0 220#F10300000000DA0F
(1487076866.259472) can0 164#0008000000000800
(1487076866.259473) can0 1F1#0000000000000000
(1487076866.260701) can0 316#059D0000002F007F
(1487076866.261802) can0 080#001700009D2F004D
(1487076866.261803) can0 081#40000000000000FD
(1487076866.261803) can0 18F#002B000000720000
(1487076866.261804) can0 165#58088000000006D6
(1487076866.262927) can0 260#0500000016A75F1E
(1487076866.262927) can0 2A0#A2005D806C12A900
(1487076866.262928) can0 2B0#63050007F8
(1487076866.262928) can0 329#8060810E11260010
(1487076866.262929) can0 545#DF00005E57FE57FE
(1487076866.262929) can0 5F0#0100
(1487076866.264033) can0 2C0#0000000000000000
(1487076866.264034) can0 153#200000FF00FF708E
(1487076866.264035) can0 4B0#0000004000000000
(1487076866.265216) can0 4F0#0000140000121402
(1487076866.266285) can0 4F1#CCFF000000000000
(1487076866.268373) can0 220#F10300000000C10F
(1487076866.269447) can0 164#0008000000000901
(1487076866.270783) can0 316#059D0000002F007F
(1487076866.271874) can0 080#001700009D2F003E
(1487076866.271875) can0 081#40000000000000EE
(1487076866.271875) can0 18F#002B000000720000
(1487076866.271875) can0 260#0500000016A75F2D
(1487076866.272996) can0 2A0#C2005D806C12A900
(1487076866.272997) can0 2B0#63050007E9
(1487076866.272997) can0 165#5B088000000007D4
(1487076866.272998) can0 329#8060810E11270010
(1487076866.272998) can0 545#DF00005E57FE57FE
(1487076866.274047) can0 2C0#0000000000000000
(1487076866.274048) can0 153#200000FF00FF809E
(1487076866.278392) can0 220#F10300000000C10F
(1487076866.279472) can0 164#0008000000000A02
(1487076866.279473) can0 1F1#0000000000000000
(1487076866.280530) can0 316#059D0000002F007F
(1487076866.281657) can0 080#001700009D2F002F
(1487076866.281658) can0 081#40000000000000DF
(1487076866.281658) can0 18F#002B000000720000
(1487076866.281658) can0 260#0500000016A75F3C
(1487076866.282762) can0 2A0#62005D806C12A900
(1487076866.282762) can0 2B0#63050007DA
(1487076866.282763) can0 0A0#00400000001F0000
(1487076866.282763) can0 0A1#8080808066000000
(1487076866.282763) can0 165#60088000000008E0
(1487076866.283885) can0 329#8060810E11270010
(1487076866.283886) can0 545#DF00005E57FE57FE
(1487076866.283886) can0 2C0#0000000000000000
(1487076866.283887) can0 153#200000FF00FF90AE
(1487076866.283887) can0 4B0#0040004000000000
(1487076866.285198) can0 4F0#0000160000121402
(1487076866.286281) can0 4F1#CCFF000000000000
(1487076866.288373) can0 220#F10300000000DA0F
(1487076866.289447) can0 164#0008000000000B03
(1487076866.290533) can0 165#63088000000009E2
(1487076866.290534) can0 2B0#63050007CB
(1487076866.291657) can0 316#059D0000002F007F
(1487076866.291658) can0 080#001700009D2F0010
(1487076866.291658) can0 081#40000000000000C0
(1487076866.291659) can0 18F#002B000000720000
(1487076866.291659) can0 260#0500000016A75F0F
(1487076866.292747) can0 2A0#02005D806C12A900
(1487076866.292748) can0 329#8060810E11260010
(1487076866.292748) can0 545#DF00005E57FE57FE
(1487076866.293823) can0 2C0#0000000000000000
(1487076866.293824) can0 153#200000FF00FFA0BE
(1487076866.298383) can0 220#F10300000000DA0F
(1487076866.299472) can0 164#0008000000000C04
(1487076866.299473) can0 1F1#0000000000000000
(1487076866.300552) can0 165#6608800000000AE4
(1487076866.300553) can0 2B0#63050007BC
(1487076866.301679) can0 316#059D0000002F007F
(1487076866.301680) can0 080#001700009D2F0001
(1487076866.301680) can0 081#40000000000000B1
(1487076866.301681) can0 18F#002B000000720000
(1487076866.301681) can0 260#0500000016A75F1E
(1487076866.302759) can0 2A0#A2005D806C12A900
(1487076866.302760) can0 329#8060810E11270010
(1487076866.302760) can0 545#DF00005E57FE57FE
(1487076866.303845) can0 2C0#0000000000000000
(1487076866.303845) can0 153#200000FF00FFB0CE
(1487076866.303846) can0 4B0#0080004000000000
(1487076866.305220) can0 4F0#0000180000121402
(1487076866.306301) can0 4F1#CCFF000000000000
(1487076866.308387) can0 220#F10300000000FF0F
(1487076866.309496) can0 164#0008000000000D05
(1487076866.309497) can0 5E4#040000
(1487076866.309498) can0 165#6608800000000BE5
(1487076866.310550) can0 2B0#63050007AD
(1487076866.311659) can0 316#059D0000002F007F
(1487076866.311659) can0 080#001700009D2F00F2
(1487076866.311660) can0 081#40000000000000A2
(1487076866.311663) can0 18F#002B000000720000
(1487076866.312759) can0 260#0500000016A75F2D
(1487076866.312760) can0 2A0#C2005D806C12A900
(1487076866.312761) can0 329#D760810E11270010
(1487076866.312761) can0 545#DF00005E57FE57FE
(1487076866.312761) can0 5F0#0100
(1487076866.313845) can0 2C0#0000000000000000
(1487076866.313846) can0 153#200000FF00FFC0DE
(1487076866.318385) can0 220#F10300000000FF0F
(1487076866.319500) can0 164#0008000000000E06
(1487076866.319501) can0 165#6808800000000CEC
(1487076866.319501) can0 1F1#0000000000000000
(1487076866.319501) can0 2B0#630500079E
(1487076866.320550) can0 316#059D0000002F007F
(1487076866.321656) can0 080#001700009D2F00E3
(1487076866.321657) can0 081#4000000000000093
(1487076866.321657) can0 18F#002B000000720000
(1487076866.321657) can0 260#0500000016A75F3C
(1487076866.322747) can0 2A0#62005D806C12A900
(1487076866.322748) can0 329#D760810E11270010
(1487076866.322748) can0 545#DF00005E57FE57FE
(1487076866.323823) can0 2C0#0000000000000000
(1487076866.323824) can0 153#200000FF00FFD0EE
(1487076866.323824) can0 4B0#00C0004000000000
(1487076866.325762) can0 4F0#00001A0000121402
(1487076866.326843) can0 4F1#CCFF000000000000
(1487076866.326843) can0 690#4000400000202400
(1487076866.328326) can0 165#6908800000000DEC
(1487076866.329407) can0 220#F10300000000D40F
(1487076866.329407) can0 164#0008000000000F07
(1487076866.329408) can0 2B0#630500078F
(1487076866.330657) can0 316#059D0000002F007F
(1487076866.331752) can0 080#001700009D2F00D4
(1487076866.331753) can0 081#4000000000000084
(1487076866.331753) can0 18F#002B000000720000
(1487076866.331753) can0 260#0500000016A75F0F
(1487076866.332821) can0 2A0#02005D806C12A900
(1487076866.332822) can0 329#D760810E11270010
(1487076866.332822) can0 545#DF00005E57FE57FE
(1487076866.333907) can0 2C0#0000000000000000
(1487076866.333907) can0 153#200000FF00FFE0FE
(1487076866.337907) can0 165#6C08800000000EEA
(1487076866.339000) can0 2B0#6305000770
(1487076866.339001) can0 220#F10300000000E00F
(1487076866.339001) can0 164#0008000000000008
(1487076866.339002) can0 1F1#0000000000000000
(1487076866.340704) can0 316#059D0000002F007F
(1487076866.341785) can0 080#001700009D2F00C5
(1487076866.341785) can0 081#4000000000000075
(1487076866.341786) can0 18F#002B000000720000
(1487076866.341786) can0 260#0500000016A75F1E
(1487076866.342887) can0 2A0#A2005D806C12A900
(1487076866.342888) can0 329#D760810E11270010
(1487076866.342889) can0 545#DF00005E57FE57FE
(1487076866.343972) can0 2C0#0000000000000000
(1487076866.343973) can0 153#200000FF00FF001E
(1487076866.343974) can0 4B0#0000008000000000
(1487076866.345250) can0 4F0#00001C0000121402
(1487076866.346322) can0 4F1#CCFF000000000000
(1487076866.347533) can0 165#6F08800000000FE8
(1487076866.348658) can0 2B0#6305000761
(1487076866.348659) can0 220#F10300000000E00F
(1487076866.348660) can0 164#0008000000000109
(1487076866.350785) can0 316#059D0000002F007F
(1487076866.351888) can0 080#001700009D2F00B6
(1487076866.351889) can0 081#4000000000000066
(1487076866.351889) can0 18F#002B000000720000
(1487076866.351890) can0 260#0500000016A75F2D
(1487076866.352970) can0 2A0#C2005D806C12A900
(1487076866.352971) can0 329#D760810E11270010
(1487076866.352972) can0 545#DF00005E57FE57FE
(1487076866.354055) can0 2C0#0000000000000000
(1487076866.354055) can0 153#200000FF00FF102E
(1487076866.357037) can0 165#73088000000000FB
(1487076866.358093) can0 2B0#6305000752
(1487076866.359199) can0 220#F10300000000E60F
(1487076866.359200) can0 164#000800000000020A
(1487076866.359200) can0 1F1#0000000000000000
(1487076866.359201) can0 5F0#0100
(1487076866.360517) can0 316#059D0000002F007F
(1487076866.361622) can0 080#001700009D2F00A7
(1487076866.361623) can0 081#4000000000000057
(1487076866.361623) can0 18F#002B000000720000
(1487076866.361624) can0 260#0500000016A75F3C
(1487076866.362696) can0 2A0#62005D806C12A900
(1487076866.362697) can0 329#D760810E11260010
(1487076866.362697) can0 545#DF00005E57FE57FE
(1487076866.363786) can0 2C0#0000000000000000
(1487076866.363787) can0 153#200000FF00FF203E
(1487076866.363787) can0 4B0#0040008000000000
(1487076866.365286) can0 4F0#00001E0000121402
(1487076866.366346) can0 4F1#CCFF000000000000
(1487076866.367429) can0 165#76088000000001FF
(1487076866.367430) can0 2B0#6305000743
(1487076866.368511) can0 220#F10300000000E60F
(1487076866.369594) can0 164#000800000000030B
(1487076866.370678) can0 316#059D0000002F007F
(1487076866.371764) can0 18F#002B000000720000
(1487076866.371765) can0 080#001700009D2F0098
(1487076866.371766) can0 081#4000000000000048
(1487076866.371766) can0 260#0500000016A75F0F
(1487076866.372846) can0 2A0#02005D806C12A900
(1487076866.372846) can0 329#0F60810E11270010
(1487076866.372847) can0 545#DF00005E57FE57FE
(1487076866.373979) can0 2C0#0000000000000000
(1487076866.373980) can0 153#200000FF00FF304E
(1487076866.376314) can0 165#7A088000000002F0
(1487076866.377384) can0 2B0#6105000714
(1487076866.378469) can0 220#F10300000000DA0F
(1487076866.379517) can0 164#000800000000040C
(1487076866.379518) can0 1F1#0000000000000000
(1487076866.380811) can0 316#059D0000002F007F
(1487076866.381906) can0 080#001700009D2F0089
(1487076866.381907) can0 081#4000000000000039
(1487076866.381908) can0 18F#002B000000720000
(1487076866.381908) can0 260#0500000016A75F1E
(1487076866.382967) can0 2A0#A2005D806C12A900
(1487076866.382968) can0 329#0F60810E11270010
(1487076866.382968) can0 545#DF00005D57FE57FE
(1487076866.384079) can0 2C0#0000000000000000
(1487076866.384081) can0 153#200000FF00FF405E
(1487076866.384081) can0 0A0#00400000001F0000
(1487076866.384081) can0 0A1#8080808066000000
(1487076866.385136) can0 4B0#0080008000000000
(1487076866.386243) can0 4F0#0000200000121402
(1487076866.386244) can0 4F1#CCFF000000000000
(1487076866.386244) can0 165#7C088000000003F7
(1487076866.386245) can0 2B0#6305000725
(1487076866.388399) can0 220#F10300000000DA0F
(1487076866.389532) can0 164#000800000000050D
(1487076866.390810) can0 316#059D0000002F007F
(1487076866.391909) can0 080#001700009D2F007A
(1487076866.391911) can0 081#400000000000002A
(1487076866.391911) can0 18F#002B000000720000
(1487076866.391911) can0 260#0500000016A75F2D
(1487076866.392957) can0 2A0#C2005D806C12A900
(1487076866.392958) can0 329#0F60810E11270010
(1487076866.392958) can0 545#DF00005E57FE57FE
(1487076866.394077) can0 2C0#0000000000000000
(1487076866.394078) can0 153#200000FF00FF506E
(1487076866.395473) can0 165#7F088000000004F3
(1487076866.396561) can0 2B0#6105000736
(1487076866.398467) can0 220#F10300000000F30F
(1487076866.399537) can0 164#000800000000060E
(1487076866.399538) can0 1F1#0000000000000000
(1487076866.400615) can0 316#059D0000002F007F
(1487076866.401741) can0 080#001700009D2F006B
(1487076866.401742) can0 081#400000000000001B
(1487076866.401743) can0 18F#002B000000720000
(1487076866.401743) can0 260#0500000016A75F3C
(1487076866.402805) can0 2A0#62005D806C12A900
(1487076866.402807) can0 329#0F60810E11270010
(1487076866.402807) can0 545#DF00005E57FE57FE
(1487076866.403913) can0 2C0#0000000000000000
(1487076866.403914) can0 153#200000FF00FF607E
(1487076866.403914) can0 4B0#00C0008000000000
(1487076866.404958) can0 165#810880000000050C
(1487076866.406116) can0 2B0#6105000727
(1487076866.406117) can0 4F0#0000220000121402
(1487076866.406117) can0 4F1#CCFF000000000000
(1487076866.407200) can0 5F0#0100
(1487076866.408404) can0 220#F10300000000F30F
(1487076866.409492) can0 164#000800000000070F
(1487076866.410578) can0 5E4#040000
(1487076866.411741) can0 316#059D0000002F007F
(1487076866.411742) can0 080#001700009D2F005C
(1487076866.411743) can0 081#400000000000000C
(1487076866.411743) can0 18F#002B000000720000
(1487076866.411744) can0 260#0500000016A75F0F
(1487076866.412820) can0 2A0#02005D806C12A900
(1487076866.412821) can0 329#0F60810E11270010
(1487076866.412822) can0 545#DF00005E57FE57FE
(1487076866.413904) can0 2C0#0000000000000000
(1487076866.413905) can0 153#200000FF00FF708E
(1487076866.414988) can0 165#810880000000060F
(1487076866.414989) can0 2B0#61050007D8
(1487076866.418452) can0 220#F10300000000E60F
(1487076866.419533) can0 164#0008000000000800
(1487076866.419534) can0 1F1#0000000000000000
(1487076866.420776) can0 316#059D0000002F007F
(1487076866.421859) can0 080#001700009D2F004D
(1487076866.421860) can0 081#40000000000000FD
(1487076866.421860) can0 18F#002B000000720000
(1487076866.421861) can0 260#0500000016A75F1E
(1487076866.422971) can0 2A0#A2005D806C12A900
(1487076866.422972) can0 329#0F60810E11260010
(1487076866.422973) can0 545#DF00005E57FE57FE
(1487076866.424082) can0 2C0#0000000000000000
(1487076866.424083) can0 153#200000FF00FF809E
(1487076866.424084) can0 4B0#000000C000000000
(1487076866.425161) can0 165#810880000000070E
(1487076866.425162) can0 2B0#63050007E9
(1487076866.426222) can0 4F0#0000240000121402
(1487076866.426224) can0 4F1#CCFF000000000000
(1487076866.427324) can0 690#4000400000202800
(1487076866.428456) can0 220#F10300000000CD0F
(1487076866.429533) can0 164#0008000000000901
(1487076866.430828) can0 316#059D0000002F007F
(1487076866.431953) can0 080#001700009D2F003E
(1487076866.431955) can0 081#40000000000000EE
(1487076866.431955) can0 18F#002B000000720000
(1487076866.431956) can0 260#0500000016A75F2D
(1487076866.433034) can0 2A0#C2005D806C12A900
(1487076866.433035) can0 329#4F60810E11270010
(1487076866.433036) can0 545#DF00005E57FE57FE
(1487076866.434120) can0 2C0#0000000000000000
(1487076866.434121) can0 153#200000FF00FF90AE
(1487076866.434122) can0 165#8108800000000801
(1487076866.434122) can0 2B0#61050007FA
(1487076866.438448) can0 220#F10300000000CD0F
(1487076866.439536) can0 164#0008000000000A02
(1487076866.439537) can0 1F1#0000000000000000
(1487076866.440616) can0 316#059D0000002F007F
(1487076866.441734) can0 080#001700009D2F002F
(1487076866.441735) can0 081#40000000000000DF
(1487076866.441735) can0 18F#002B000000720000
(1487076866.441736) can0 260#0500000016A75F3C
(1487076866.442806) can0 2A0#62005D806C12A900
(1487076866.442808) can0 329#4F60810E11270010
(1487076866.442808) can0 545#DF00005E57FE57FE
(1487076866.443939) can0 2C0#0000000000000000
(1487076866.443940) can0 153#200000FF00FFA0BE
(1487076866.443940) can0 2B0#63050007CB
(1487076866.443945) can0 165#8108800000000900
(1487076866.445011) can0 4B0#004000C000000000
(1487076866.446079) can0 4F0#0000260000121402
(1487076866.446080) can0 4F1#CCFF000000000000
(1487076866.448452) can0 220#F10300000000C70F
(1487076866.449532) can0 164#0008000000000B03
(1487076866.450723) can0 316#059D0000002F007F
(1487076866.451815) can0 18F#002B000000720000
(1487076866.451817) can0 080#001700009D2F0010
(1487076866.451817) can0 081#40000000000000C0
(1487076866.451818) can0 260#0500000016A75F0F
(1487076866.452906) can0 2A0#02005D806C12A900
(1487076866.452907) can0 329#4F60810E11270010
(1487076866.452908) can0 545#DF00005E57FE57FE
(1487076866.452908) can0 165#8108800000000A03
(1487076866.453992) can0 2B0#63050007BC
(1487076866.453993) can0 2C0#0000000000000000
(1487076866.453993) can0 153#200000FF00FFB0CE
(1487076866.455076) can0 5F0#0100
(1487076866.458474) can0 220#F10300000000C70F
(1487076866.459564) can0 164#0008000000000C04
(1487076866.459565) can0 1F1#0000000000000000
(1487076866.460811) can0 316#059D0000002F007F
(1487076866.461887) can0 080#001700009D2F0001
(1487076866.461888) can0 081#40000000000000B1
(1487076866.461888) can0 18F#002B000000720000
(1487076866.461889) can0 260#0500000016A75F1E
(1487076866.462974) can0 2A0#A2005D806C12A900
(1487076866.462975) can0 329#4F60810E11270010
(1487076866.462976) can0 165#8108800000000B02
(1487076866.462976) can0 2B0#63050007AD
(1487076866.462977) can0 545#DF00005E57FE57FE
(1487076866.464102) can0 2C0#0000000000000000
(1487076866.464103) can0 153#200000FF00FFC0DE
(1487076866.464103) can0 4B0#008000C000000000
(1487076866.465287) can0 4F0#0000280000121402
(1487076866.466345) can0 4F1#CCFF000000000000
(1487076866.468479) can0 220#F10300000000E00F
(1487076866.469524) can0 164#0008000000000D05
(1487076866.470847) can0 316#059D0000002F007F
(1487076866.471939) can0 080#001700009D2F00F2
(1487076866.471940) can0 081#40000000000000A2
(1487076866.471942) can0 18F#002B000000720000
(1487076866.471942) can0 260#0500000016A75F2D
(1487076866.473063) can0 165#8008800000000C04
(1487076866.473064) can0 2A0#C2005D806C12A900
(1487076866.473064) can0 2B0#61050007BE
(1487076866.473065) can0 329#4F60810E11270010
(1487076866.473065) can0 545#DF00005E57FE57FE
(1487076866.474119) can0 2C0#0000000000000000
(1487076866.474120) can0 153#200000FF00FFD0EE
(1487076866.478476) can0 220#F10300000000E60F
(1487076866.479566) can0 164#0008000000000E06
(1487076866.479567) can0 1F1#0000000000000000
(1487076866.480617) can0 316#059D0000002F007F
(1487076866.481745) can0 080#001700009D2F00E3
(1487076866.481746) can0 081#4000000000000093
(1487076866.481747) can0 18F#002B000000720000
(1487076866.481747) can0 165#8008800000000D05
(1487076866.482828) can0 260#0500000016A75F3C
(1487076866.482829) can0 2A0#62005D806C12A900
(1487076866.482829) can0 2B0#630500078F
(1487076866.482830) can0 329#4F60810E11260010
(1487076866.482830) can0 545#DF00005E57FE57FE
(1487076866.483940) can0 2C0#0000000000000000
(1487076866.483941) can0 153#200000FF00FFE0FE
(1487076866.483942) can0 4B0#0000000000000000
(1487076866.485000) can0 0A0#00400000001F0000
(1487076866.485001) can0 0A1#8080808066000000
(1487076866.486094) can0 4F0#00002A0000121402
(1487076866.486095) can0 4F1#CCFF000000000000
(1487076866.488474) can0 220#F10300000000CD0F
(1487076866.489534) can0 164#0008000000000F07
(1487076866.490701) can0 316#059D0000002F007F
(1487076866.491789) can0 080#001700009D2F00D4
(1487076866.491791) can0 081#4000000000000084
(1487076866.491791) can0 18F#002B000000720000
(1487076866.491791) can0 260#0500000016A75F0F
