(1487086751.507218) can0 2C0#0000000000000000
(1487086751.508328) can0 316#452F08123035007F
(1487086751.509448) can0 080#001708122F3530A7
(1487086751.509449) can0 081#7F00000000000037
(1487086751.509449) can0 18F#FE59300000720000
(1487086751.509449) can0 260#05300030FFB87337
(1487086751.509450) can0 2A0#62005D986D12A900
(1487086751.510570) can0 329#D760810C112F0010
(1487086751.510572) can0 545#D82F0089CFFFD4FF
(1487086751.511675) can0 220#F70300000000C10F
(1487086751.511676) can0 164#000800000000060E
(1487086751.511677) can0 165#07F87F0000000E8E
(1487086751.511677) can0 1F1#0000000000000000
(1487086751.512756) can0 2B0#1E00000780
(1487086751.515875) can0 153#200000FF00FF607E
(1487086751.516984) can0 4B0#00C0008000000000
(1487086751.517998) can0 2C0#0000000000000000
(1487086751.517999) can0 316#452F04123035007F
(1487086751.519114) can0 080#001704122F3530D8
(1487086751.519114) can0 081#7F00000000000028
(1487086751.519115) can0 18F#FE59300000720000
(1487086751.519116) can0 260#05300030FFB97309
(1487086751.519118) can0 2A0#02005D986D12A900
(1487086751.520205) can0 329#0F60810C112F0010
(1487086751.520206) can0 545#D82F008BCFFFD4FF
(1487086751.521294) can0 165#0808800000000F8F
(1487086751.521295) can0 220#F70300000000DA0F
(1487086751.521295) can0 164#000800000000070F
(1487086751.522387) can0 2B0#1E00000791
(1487086751.522388) can0 4F0#0000600000121402
(1487086751.522389) can0 4F1#CCFF000000000000
(1487086751.525848) can0 153#200000FF00FF708E
(1487086751.527196) can0 2C0#0000000000000000
(1487086751.528288) can0 316#452FF6113035007F
(1487086751.528289) can0 080#0017F6112F3530C9
(1487086751.529399) can0 081#7F00000000000019
(1487086751.529400) can0 18F#FE59300000720000
(1487086751.529400) can0 0A0#5F41F61100270001
(1487086751.529401) can0 0A1#808080802E000000
(1487086751.530551) can0 260#05300030FFB97318
(1487086751.530552) can0 2A0#A2005D986D12A900
(1487086751.530552) can0 329#0F60810C112F0010
(1487086751.530553) can0 545#D82F008ACFFFD5FF
(1487086751.530553) can0 165#0808800000000080
(1487086751.531633) can0 2B0#1D00000792
(1487086751.531634) can0 220#F70300000000C70F
(1487086751.531634) can0 164#0008000000000800
(1487086751.531640) can0 1F1#0000000000000000
(1487086751.535850) can0 153#200000FF00FF809E
(1487086751.536996) can0 4B0#000000C000000000
(1487086751.538109) can0 2C0#0000000000000000
(1487086751.539141) can0 316#452FFA113035007F
(1487086751.539142) can0 080#0017FA112F35307A
(1487086751.539143) can0 081#7F0000000000000A
(1487086751.539143) can0 18F#FE59300000720000
(1487086751.539143) can0 260#05300030FFB97327
(1487086751.540303) can0 2A0#C2005D986D12A900
(1487086751.540304) can0 329#0F60810C112F0010
(1487086751.540304) can0 545#D825008BCFFFD5FF
(1487086751.540305) can0 165#0808800000000181
(1487086751.540305) can0 2B0#1E000007B3
(1487086751.541415) can0 220#F70300000000C70F
(1487086751.541416) can0 164#0008000000000901
(1487086751.541417) can0 4F0#0000620000121402
(1487086751.542497) can0 4F1#CCFF000000000000
(1487086751.543496) can0 5F0#0100
(1487086751.545909) can0 153#200000FF00FF90AE
(1487086751.547314) can0 2C0#0000000000000000
(1487086751.548387) can0 316#452FFA113035007F
(1487086751.548388) can0 080#0017FA112F35306B
(1487086751.548388) can0 081#7F000000000000FB
(1487086751.549466) can0 18F#FE59300000720000
(1487086751.549467) can0 260#05300030FFB97336
(1487086751.549467) can0 2A0#62005D986D12A900
(1487086751.549468) can0 329#0F60810C112F0010
(1487086751.550562) can0 165#0808800000000282
(1487086751.550563) can0 2B0#1D000007F4
(1487086751.550564) can0 545#D825008ACFFFD5FF
(1487086751.551687) can0 220#F70300000000C10F
(1487086751.551688) can0 164#0008000000000A02
(1487086751.551689) can0 1F1#0000000000000000
(1487086751.555853) can0 153#200000FF00FFA0BE
(1487086751.556998) can0 4B0#004000C000000000
(1487086751.558081) can0 2C0#0000000000000000
(1487086751.558082) can0 316#452F0A122F35007F
(1487086751.559208) can0 329#0F60810C112F0010
(1487086751.559209) can0 260#052F0030FFB9730B
(1487086751.559209) can0 18F#FE592F0000720000
(1487086751.559210) can0 080#00170A122F352F5C
(1487086751.559210) can0 081#7F000000000000EC
(1487086751.560293) can0 2A0#02005D986D12A900
(1487086751.560294) can0 2B0#1E000007D5
(1487086751.560294) can0 165#0808800000000383
(1487086751.560295) can0 545#D825008BCFFFD1FF
(1487086751.561415) can0 4F0#0000640000121402
(1487086751.561416) can0 220#F40300000000CD0F
(1487086751.561416) can0 164#0008000000000B03
(1487086751.562498) can0 4F1#CCFF000000000000
(1487086751.562499) can0 690#4000400000202800
(1487086751.565857) can0 153#200000FF00FFB0CE
(1487086751.567314) can0 2C0#0000000000000000
(1487086751.568399) can0 316#452F06122F35007F
(1487086751.568400) can0 080#001706122F352F8D
(1487086751.569470) can0 081#7F000000000000DD
(1487086751.569471) can0 18F#FE592F0000720000
(1487086751.569472) can0 260#052F0030FFB9731A
(1487086751.569472) can0 2A0#A2005D986D12A900
(1487086751.570611) can0 2B0#1D000007D6
(1487086751.570612) can0 165#08F87F000000048B
(1487086751.570613) can0 329#0F60810C112F0010
(1487086751.570613) can0 545#D825008BCFFFD1FF
(1487086751.571690) can0 220#F10300000000E60F
(1487086751.571691) can0 164#0008000000000C04
(1487086751.571691) can0 1F1#0000000000000000
(1487086751.575920) can0 153#200000FF00FFC0DE
(1487086751.576998) can0 4B0#008000C000000000
(1487086751.578109) can0 2C0#0000000000000000
(1487086751.578110) can0 165#0808800000000585
(1487086751.579208) can0 2B0#1E000007F7
(1487086751.579209) can0 316#452FF2113035007F
(1487086751.579213) can0 080#0017F2112F3530BE
(1487086751.580247) can0 081#7F000000000000CE
(1487086751.580249) can0 18F#FE59300000720000
(1487086751.580250) can0 260#05300030FFB97327
(1487086751.580250) can0 2A0#C2005D986D12A900
(1487086751.580252) can0 329#4F60810C112F0010
(1487086751.581456) can0 545#D8250089D0FFD6FF
(1487086751.581458) can0 4F0#0000660000121402
(1487086751.581458) can0 220#F10300000000E60F
(1487086751.581458) can0 164#0008000000000D05
(1487086751.582458) can0 4F1#CCFF000000000000
(1487086751.585940) can0 153#200000FF00FFD0EE
(1487086751.587270) can0 2C0#0000000000000000
(1487086751.588380) can0 165#0808800000000686
(1487086751.588381) can0 2B0#1E00000708
(1487086751.588381) can0 2A0#62005D986D12A900
(1487086751.588382) can0 080#0017F4112F35308F
(1487086751.589499) can0 081#7F000000000000BF
(1487086751.589500) can0 18F#FE59300000720000
(1487086751.589501) can0 260#05300030FFB97336
(1487086751.589501) can0 316#452FF4113035007F
(1487086751.590582) can0 329#4F60810C112F0010
(1487086751.590583) can0 545#D825008BCFFFD5FF
(1487086751.591665) can0 220#F10300000000CD0F
(1487086751.591666) can0 164#0008000000000E06
(1487086751.591667) can0 1F1#0000000000000000
(1487086751.591667) can0 5F0#0100
(1487086751.592747) can0 5E4#000000
(1487086751.595934) can0 153#200000FF00FFE0FE
(1487086751.596998) can0 4B0#0000000000000000
(1487086751.598107) can0 2C0#0000000000000000
(1487086751.598108) can0 165#0708800000000788
(1487086751.598109) can0 2B0#1D00000729
(1487086751.598109) can0 316#452FF4113035007F
(1487086751.599246) can0 080#0017F4112F353070
(1487086751.599247) can0 081#7F000000000000A0
(1487086751.599248) can0 18F#FE59300000720000
(1487086751.599248) can0 260#05300030FFB97309
(1487086751.599248) can0 2A0#02005D986D12A900
(1487086751.600315) can0 329#4F60810C112F0010
(1487086751.600316) can0 545#D825008BCFFFD5FF
(1487086751.601412) can0 4F0#0000680000121402
(1487086751.601413) can0 220#F40300000000B40F
(1487086751.601414) can0 164#0008000000000F07
(1487086751.602484) can0 4F1#CCFF000000000000
(1487086751.605938) can0 153#200000FF00FF001E
(1487086751.607041) can0 165#08F87F0000000887
(1487086751.608148) can0 2B0#1E0000072A
(1487086751.608149) can0 2C0#0000000000000000
(1487086751.608149) can0 316#4530FC113035007F
(1487086751.609224) can0 080#0017FC11303530C1
(1487086751.609225) can0 081#7F00000000000091
(1487086751.609225) can0 18F#FE59300000720000
(1487086751.609226) can0 260#05300030FFB97516
(1487086751.610360) can0 2A0#A2005D986D12A900
(1487086751.610361) can0 329#4F60810C112F0010
(1487086751.610361) can0 545#D825008BD8FFD7FF
(1487086751.611433) can0 220#F70300000000CD0F
(1487086751.611434) can0 164#0008000000000008
(1487086751.611434) can0 1F1#0000000000000000
(1487086751.615866) can0 153#200000FF00FF102E
(1487086751.617020) can0 4B0#0040000000000000
(1487086751.617021) can0 165#0708800000000986
(1487086751.617021) can0 2B0#1E0000073B
(1487086751.618124) can0 2C0#0000000000000000
(1487086751.619234) can0 316#4530F8113035007F
(1487086751.619235) can0 080#0017F811303530F2
(1487086751.619235) can0 081#7F00000000000082
(1487086751.619236) can0 18F#FE59300000720000
(1487086751.619236) can0 260#05300030FFB97525
(1487086751.620300) can0 2A0#C2005D986D12A900
(1487086751.620301) can0 329#4F60810C112F0010
(1487086751.620302) can0 545#D825008BD8FFD7FF
(1487086751.621360) can0 220#F70300000000C10F
(1487086751.621361) can0 164#0008000000000109
(1487086751.621361) can0 4F0#00006A0000121402
(1487086751.622429) can0 4F1#CCFF000000000000
(1487086751.625880) can0 153#200000FF00FF203E
(1487086751.626958) can0 165#0808800000000A8A
(1487086751.626959) can0 2B0#1D0000077C
(1487086751.628025) can0 2C0#0000000000000000
(1487086751.629141) can0 316#4530F8113035007F
(1487086751.629142) can0 080#0017F811303530E3
(1487086751.629142) can0 081#7F00000000000073
(1487086751.629143) can0 18F#FE59300000720000
(1487086751.630239) can0 260#05300030FFB97534
(1487086751.630239) can0 2A0#62005D986D12A900
(1487086751.630240) can0 329#4F60810C112F0010
(1487086751.630240) can0 545#D8250089D8FFD7FF
(1487086751.631343) can0 0A0#5F41F61100270001
(1487086751.631344) can0 0A1#808080802E000000
(1487086751.631344) can0 220#F70300000000B40F
(1487086751.631345) can0 164#000800000000020A
(1487086751.632426) can0 1F1#0000000000000000
(1487086751.635501) can0 165#0808800000000B8B
(1487086751.636591) can0 2B0#1E0000075D
(1487086751.636593) can0 153#200000FF00FF304E
(1487086751.636594) can0 4B0#0080000000000000
(1487086751.637664) can0 2C0#0000000000000000
(1487086751.638762) can0 316#4530E2113135007F
(1487086751.638763) can0 080#0017E21130353134
(1487086751.638764) can0 081#7F00000000000064
(1487086751.639864) can0 18F#FE59310000720000
(1487086751.639865) can0 260#05310030FFB97506
(1487086751.639865) can0 2A0#02005D986D12A900
(1487086751.639866) can0 329#8460810C112F0010
(1487086751.639866) can0 545#D82F008BD9FFDCFF
(1487086751.640944) can0 5F0#0100
(1487086751.640945) can0 220#F70300000000C70F
(1487086751.642024) can0 164#000800000000030B
(1487086751.642025) can0 4F0#00006C0000121402
(1487086751.642025) can0 4F1#CCFF000000000000
(1487086751.645054) can0 165#0708800000000C83
(1487086751.646149) can0 2B0#1D0000075E
(1487086751.646150) can0 153#200000FF00FF405E
(1487086751.647223) can0 2C0#0000000000000000
(1487086751.648306) can0 316#4530DC113135007F
(1487086751.648307) can0 080#0017DC1130353195
(1487086751.649415) can0 081#7F00000000000055
(1487086751.649415) can0 18F#FE59310000720000
(1487086751.649416) can0 260#05310030FFB97515
(1487086751.649416) can0 2A0#A2005D986D12A900
(1487086751.650524) can0 329#8460810C112F0010
(1487086751.650524) can0 545#D82F008BD9FFDCFF
(1487086751.651591) can0 220#F70300000000D40F
(1487086751.651592) can0 164#000800000000040C
(1487086751.651592) can0 1F1#0000000000000000
(1487086751.654625) can0 165#0718800000000D92
(1487086751.655704) can0 2B0#1E0000077F
(1487086751.656785) can0 153#200000FF00FF506E
(1487086751.656786) can0 4B0#00C0000000000000
(1487086751.657868) can0 2C0#0000000000000000
(1487086751.658979) can0 316#4531DC113135007F
(1487086751.658980) can0 080#0017DC1131353176
(1487086751.658980) can0 081#7F00000000000046
(1487086751.658980) can0 18F#FE59310000720000
(1487086751.660078) can0 260#05310030FFB97722
(1487086751.660079) can0 2A0#C2005D986D12A900
(1487086751.660079) can0 329#8460810C112F0010
(1487086751.660079) can0 545#D82F008AE1FFE1FF
(1487086751.661165) can0 4F0#00006E0000121402
(1487086751.661165) can0 220#F40300000000E60F
(1487086751.661166) can0 164#000800000000050D
(1487086751.662248) can0 4F1#CCFF000000000000
(1487086751.662248) can0 690#4000400000202C00
(1487086751.664191) can0 165#08F87F0000000E81
(1487086751.665277) can0 2B0#1E00000780
(1487086751.666356) can0 153#200000FF00FF607E
(1487086751.667436) can0 2C0#0000000000000000
(1487086751.668541) can0 316#4531DC113135007F
(1487086751.668541) can0 080#0017DC1131353167
(1487086751.668542) can0 081#7F00000000000037
(1487086751.669652) can0 18F#FE5A310000720000
(1487086751.669653) can0 260#05310030FFB87732
(1487086751.669656) can0 2A0#62005D986D12A900
(1487086751.669656) can0 329#8460810C112F0010
(1487086751.669657) can0 545#D82F008BE1FFE1FF
(1487086751.670852) can0 220#F10300000000ED0F
(1487086751.671936) can0 164#000800000000060E
(1487086751.671937) can0 1F1#0000000000000000
(1487086751.673749) can0 165#0808800000000F8F
(1487086751.674813) can0 2B0#1E00000791
(1487086751.675943) can0 153#200000FF00FF708E
(1487086751.677001) can0 4B0#0000004000000000
(1487086751.678165) can0 2C0#0000000000000000
(1487086751.678166) can0 316#4531DC113135007F
(1487086751.679226) can0 080#0017DC1131353158
(1487086751.679227) can0 081#7F00000000000028
(1487086751.679228) can0 18F#FE5A310000720000
(1487086751.679228) can0 260#05310030FFB87705
(1487086751.679228) can0 2A0#02005D986D12A900
(1487086751.680274) can0 329#8460810C112F0010
(1487086751.680276) can0 545#D82F008AE1FFE1FF
(1487086751.681350) can0 4F0#0000700000121402
(1487086751.681351) can0 4F1#CCFF000000000000
(1487086751.681352) can0 220#F10300000000DA0F
(1487086751.681353) can0 164#000800000000070F
(1487086751.683339) can0 165#071880000000009F
(1487086751.684423) can0 2B0#1E000007A2
(1487086751.685865) can0 153#200000FF00FF809E
(1487086751.687175) can0 2C0#0000000000000000
(1487086751.688257) can0 5F0#0100
(1487086751.688258) can0 316#4531DA113135007F
(1487086751.688258) can0 080#0017DA1131353169
(1487086751.689387) can0 081#7F00000000000019
(1487086751.689388) can0 18F#FE5A310000720000
(1487086751.689389) can0 260#05310030FFB87714
(1487086751.689389) can0 2A0#A2005D986D12A900
(1487086751.690456) can0 329#8460810C112F0010
(1487086751.690457) can0 545#D82F008BE0FFE2FF
(1487086751.691549) can0 220#F10300000000CD0F
(1487086751.691550) can0 164#0008000000000800
(1487086751.691550) can0 1F1#0000000000000000
(1487086751.692840) can0 5E4#000000
(1487086751.693922) can0 165#070880000000018E
(1487086751.693923) can0 2B0#1E000007B3
(1487086751.695864) can0 153#200000FF00FF90AE
(1487086751.696991) can0 4B0#0040004000000000
(1487086751.698111) can0 2C0#0000000000000000
(1487086751.699205) can0 316#4531DE113135007F
(1487086751.699206) can0 080#0017DE113135311A
(1487086751.699206) can0 081#7F0000000000000A
(1487086751.699206) can0 18F#FE5A310000720000
(1487086751.699206) can0 260#05310030FFB87723
(1487086751.700276) can0 2A0#C2005D986D12A900
(1487086751.700277) can0 329#D760810C112F0010
(1487086751.700277) can0 545#D82F008BE0FFE2FF
(1487086751.701377) can0 4F0#0000720000121402
(1487086751.701378) can0 220#F20300000000C70F
(1487086751.701378) can0 164#0008000000000901
(1487086751.702456) can0 4F1#CCFF000000000000
(1487086751.703477) can0 165#071880000000029D
(1487086751.703478) can0 2B0#1D000007F4
(1487086751.705882) can0 153#200000FF00FFA0BE
(1487086751.707163) can0 2C0#0000000000000000
(1487086751.708531) can0 316#4530DE113135007F
(1487086751.709638) can0 080#0017DE113035311B
(1487086751.709639) can0 081#7F000000000000FB
(1487086751.709640) can0 18F#FE5A310000720000
(1487086751.709640) can0 260#05310030FFB87534
(1487086751.710712) can0 2A0#62005D986D12A900
(1487086751.710713) can0 329#D760810C112F0010
(1487086751.710714) can0 545#D82F008AD8FFE2FF
(1487086751.711798) can0 220#F70300000000E00F
(1487086751.711798) can0 164#0008000000000A02
(1487086751.711799) can0 1F1#0000000000000000
(1487086751.712888) can0 165#0808800000000383
(1487086751.712889) can0 2B0#1E000007D5
(1487086751.715839) can0 153#200000FF00FFB0CE
(1487086751.716921) can0 4B0#0080004000000000
(1487086751.718013) can0 2C0#0000000000000000
(1487086751.718014) can0 316#4530F4113035007F
(1487086751.719149) can0 080#0017F4113035309C
(1487086751.719149) can0 081#7F000000000000EC
(1487086751.719150) can0 18F#FE5A300000720000
(1487086751.719150) can0 260#05300030FFB87508
(1487086751.719151) can0 2A0#02005D986D12A900
(1487086751.720237) can0 329#D760810C112F0010
(1487086751.720238) can0 545#D82F0089D8FFDAFF
(1487086751.721340) can0 220#F70300000000DA0F
(1487086751.721341) can0 164#0008000000000B03
(1487086751.722421) can0 4F0#0000740000121402
(1487086751.722422) can0 165#0808800000000484
(1487086751.722422) can0 2B0#1E000007E6
(1487086751.722424) can0 4F1#CCFF000000000000
(1487086751.725841) can0 153#200000FF00FFC0DE
(1487086751.727160) can0 2C0#0000000000000000
(1487086751.728260) can0 316#4530F4113035007F
(1487086751.729382) can0 080#0017F4113035308D
(1487086751.729382) can0 081#7F000000000000DD
(1487086751.729383) can0 18F#FE5A300000720000
(1487086751.729383) can0 260#05300030FFB87517
(1487086751.729383) can0 2A0#A2005D986D12A900
(1487086751.730447) can0 329#D760810C112F0010
(1487086751.730448) can0 545#D82F008AD8FFDAFF
(1487086751.731547) can0 220#F70300000000ED0F
(1487086751.731547) can0 164#0008000000000C04
(1487086751.731547) can0 165#070880000000058A
(1487086751.732659) can0 1F1#0000000000000000
(1487086751.732660) can0 2B0#1D000007C7
(1487086751.732660) can0 0A0#5F41DA1100270001
(1487086751.732660) can0 0A1#808080802E000000
(1487086751.735337) can0 5F0#0100
(1487086751.736420) can0 153#200000FF00FFD0EE
(1487086751.736421) can0 4B0#00C0004000000000
(1487086751.737511) can0 2C0#0000000000000000
(1487086751.738588) can0 316#4530EC113035007F
(1487086751.738588) can0 080#0017EC113035300E
(1487086751.738588) can0 081#7F000000000000CE
(1487086751.739711) can0 18F#FE5A300000720000
(1487086751.739712) can0 260#05300030FFB87526
(1487086751.739712) can0 2A0#C2005D986D12A900
(1487086751.739713) can0 329#D760810C112F0010
(1487086751.739713) can0 545#D82F008BD8FFDBFF
(1487086751.740785) can0 165#0708800000000689
(1487086751.741914) can0 220#F70300000000CD0F
(1487086751.741915) can0 164#0008000000000D05
(1487086751.741915) can0 2B0#1D00000738
(1487086751.741915) can0 4F0#0000760000121402
(1487086751.741915) can0 4F1#CCFF000000000000
(1487086751.745836) can0 153#200000FF00FFE0FE
(1487086751.747150) can0 2C0#0000000000000000
(1487086751.748289) can0 316#4530E8113035007F
(1487086751.748289) can0 080#0017E8113035303F
(1487086751.749373) can0 081#7F000000000000BF
(1487086751.749373) can0 18F#FE5A300000720000
(1487086751.749373) can0 260#05300030FFB87535
(1487086751.749373) can0 2A0#62005D986D12A900
(1487086751.749374) can0 329#D760810C112F0010
(1487086751.750474) can0 545#D82F008BD8FFDBFF
(1487086751.750475) can0 165#0808800000000787
(1487086751.750475) can0 2B0#1E00000719
(1487086751.751557) can0 220#F70300000000C70F
(1487086751.751557) can0 164#0008000000000E06
(1487086751.751557) can0 1F1#0000000000000000
(1487086751.755871) can0 153#200000FF00FF001E
(1487086751.756954) can0 4B0#0000008000000000
(1487086751.758045) can0 2C0#0000000000000000
(1487086751.758046) can0 316#4530E8113035007F
(1487086751.759183) can0 080#0017E81130353020
(1487086751.759183) can0 081#7F000000000000A0
(1487086751.759184) can0 18F#FE5A300000720000
(1487086751.759184) can0 260#05300030FFB87508
(1487086751.759184) can0 2A0#02005D986D12A900
(1487086751.760248) can0 329#0F60810C112F0010
(1487086751.760249) can0 545#D82F0089D8FFDBFF
(1487086751.760250) can0 165#0808800000000888
(1487086751.760250) can0 2B0#1D0000071A
(1487086751.761435) can0 4F0#0000780000121402
(1487086751.761435) can0 220#F70300000000C10F
(1487086751.761436) can0 164#0008000000000F07
(1487086751.761436) can0 4F1#CCFF000000000000
(1487086751.762519) can0 690#4000400000203000
(1487086751.765942) can0 153#200000FF00FF102E
(1487086751.767271) can0 2C0#0000000000000000
(1487086751.768458) can0 316#4530E6113135007F
(1487086751.769494) can0 260#05310030FFB97515
(1487086751.769495) can0 080#0017E61130353121
(1487086751.769496) can0 081#7F00000000000091
(1487086751.769496) can0 18F#FE5A310000720000
(1487086751.770645) can0 165#0808800000000989
(1487086751.770645) can0 2A0#A2005D986D12A900
(1487086751.770646) can0 2B0#1D0000070B
(1487086751.770646) can0 329#0F60810C112F0010
(1487086751.770646) can0 545#D82F008AD8FFDCFF
(1487086751.771727) can0 220#F40300000000E60F
(1487086751.771738) can0 164#0008000000000008
(1487086751.771738) can0 1F1#0000000000000000
(1487086751.775866) can0 153#200000FF00FF203E
(1487086751.777022) can0 4B0#0040008000000000
(1487086751.778123) can0 2C0#0000000000000000
(1487086751.778124) can0 316#4530E4113135007F
(1487086751.779237) can0 080#0017E41130353132
(1487086751.779237) can0 081#7F00000000000082
(1487086751.779238) can0 18F#FE5A310000720000
(1487086751.779238) can0 165#0808800000000A8A
(1487086751.780321) can0 260#05310030FFB97524
(1487086751.780321) can0 2A0#C2005D986D12A900
(1487086751.780322) can0 2B0#1D0000077C
(1487086751.780326) can0 329#0F60810C112F0010
(1487086751.780326) can0 545#D82F008BD8FFDCFF
(1487086751.781458) can0 4F0#00007A0000121402
(1487086751.781459) can0 220#F20300000000E60F
(1487086751.781459) can0 164#0008000000000109
(1487086751.782520) can0 4F1#CCFF000000000000
(1487086751.783613) can0 5F0#0100
(1487086751.785938) can0 153#200000FF00FF304E
(1487086751.787236) can0 2C0#0000000000000000
(1487086751.788300) can0 316#4531D8113135007F
(1487086751.789420) can0 080#0017D811313531E3
(1487086751.789420) can0 081#7F00000000000073
(1487086751.789421) can0 18F#FE5A310000720000
(1487086751.789421) can0 260#05310030FFB97731
(1487086751.789421) can0 2A0#62005D986D12A900
(1487086751.790521) can0 2B0#1E0000075D
(1487086751.790522) can0 165#0708800000000B84
(1487086751.790522) can0 329#0F60810C112F0010
(1487086751.790522) can0 545#D82F008BE1FFE2FF
(1487086751.791611) can0 220#F20300000000E00F
(1487086751.791612) can0 164#000800000000020A
(1487086751.791613) can0 1F1#0000000000000000
(1487086751.793313) can0 5E4#000000
(1487086751.795853) can0 153#200000FF00FF405E
(1487086751.797019) can0 4B0#0080008000000000
(1487086751.798114) can0 2C0#0000000000000000
(1487086751.798114) can0 316#4531DC113135007F
(1487086751.799217) can0 080#0017DC1131353194
(1487086751.799218) can0 081#7F00000000000064
(1487086751.799218) can0 18F#FE5A310000720000
(1487086751.799218) can0 260#05310030FFB97704
(1487086751.799219) can0 2A0#02005D986D12A900
(1487086751.800302) can0 2B0#1D0000075E
(1487086751.800303) can0 165#0808800000000C8C
(1487086751.800303) can0 329#0F60810C112F0010
(1487086751.800303) can0 545#D82F008AE1FFE2FF
(1487086751.801435) can0 4F0#00007C0000121402
(1487086751.801436) can0 220#F20300000000BB0F
(1487086751.801437) can0 164#000800000000030B
(1487086751.802497) can0 4F1#CCFF000000000000
(1487086751.805939) can0 153#200000FF00FF506E
(1487086751.807207) can0 2C0#0000000000000000
(1487086751.808291) can0 165#0718800000000D92
(1487086751.808292) can0 2B0#1E0000077F
(1487086751.808292) can0 316#4531DC113135007F
(1487086751.809438) can0 080#0017DC1131353185
(1487086751.809439) can0 081#7F00000000000055
(1487086751.809439) can0 18F#FE5A310000720000
(1487086751.809439) can0 260#05310030FFB97713
(1487086751.809440) can0 2A0#A2005D986D12A900
(1487086751.810521) can0 329#0F60810C112F0010
(1487086751.810522) can0 545#D82F008AE1FFE2FF
(1487086751.811611) can0 220#F40300000000BB0F
(1487086751.811612) can0 164#000800000000040C
(1487086751.811613) can0 1F1#0000000000000000
(1487086751.815959) can0 153#200000FF00FF607E
(1487086751.817019) can0 4B0#00C0008000000000
(1487086751.818143) can0 2C0#0000000000000000
(1487086751.818144) can0 165#0708800000000E81
(1487086751.818145) can0 2B0#1D000007B0
(1487086751.818145) can0 316#4530F2113035007F
(1487086751.819271) can0 080#0017F21130353016
(1487086751.819272) can0 081#7F00000000000046
(1487086751.819272) can0 18F#FE5A300000720000
(1487086751.819272) can0 260#05300030FFB87526
(1487086751.820365) can0 2A0#C2005D986D12A900
(1487086751.820366) can0 329#4F60810C112F0010
(1487086751.820366) can0 545#D82F008BD8FFD9FF
(1487086751.821377) can0 4F0#00007E0000121402
(1487086751.821388) can0 220#F70300000000DA0F
(1487086751.821388) can0 164#000800000000050D
(1487086751.822453) can0 4F1#CCFF000000000000
(1487086751.825893) can0 153#200000FF00FF708E
(1487086751.826954) can0 165#0708800000000F80
(1487086751.826955) can0 2B0#1D000007A1
(1487086751.828080) can0 2C0#0000000000000000
(1487086751.828081) can0 316#4530F6113035007F
(1487086751.828081) can0 080#0017F611303530C7
(1487086751.829182) can0 081#7F00000000000037
(1487086751.829183) can0 18F#FE5A300000720000
(1487086751.829183) can0 260#05300030FFB87535
(1487086751.829184) can0 2A0#62005D986D12A900
(1487086751.830267) can0 329#4F60810C112F0010
(1487086751.830268) can0 0A0#5F41DA1100270001
(1487086751.830268) can0 0A1#808080802E000000
(1487086751.830269) can0 545#D82F008BD8FFD9FF
(1487086751.831395) can0 220#F70300000000E00F
(1487086751.831396) can0 164#000800000000060E
(1487086751.831396) can0 1F1#0000000000000000
(1487086751.832478) can0 5F0#0100
(1487086751.835893) can0 153#200000FF00FF809E
(1487086751.836973) can0 4B0#000000C000000000
(1487086751.836974) can0 165#070880000000008F
(1487086751.836974) can0 2B0#1E000007A2
(1487086751.838057) can0 2C0#0000000000000000
(1487086751.839168) can0 316#4530F6113035007F
(1487086751.839169) can0 2A0#02005D986D12A900
(1487086751.839170) can0 329#4F60810C112F0010
(1487086751.839170) can0 260#05300030FFB87508
(1487086751.840270) can0 080#0017F611303530B8
(1487086751.840271) can0 081#7F00000000000028
(1487086751.840272) can0 18F#FE5A300000720000
(1487086751.840272) can0 545#D832008BD8FFD9FF
(1487086751.841368) can0 220#F70300000000C10F
(1487086751.841369) can0 164#000800000000070F
(1487086751.841370) can0 4F0#0000800000121402
(1487086751.842452) can0 4F1#CCFF000000000000
(1487086751.845892) can0 153#200000FF00FF90AE
(1487086751.846967) can0 165#0808800000000181
(1487086751.846968) can0 2B0#1E000007B3
(1487086751.848043) can0 2C0#0000000000000000
(1487086751.849143) can0 316#4530F4113035007F
(1487086751.849144) can0 18F#FE5A300000720000
(1487086751.849145) can0 080#0017F411303530C9
(1487086751.849145) can0 081#7F00000000000019
(1487086751.850226) can0 260#05300030FFB87517
(1487086751.850227) can0 2A0#A2005D986D12A900
(1487086751.850227) can0 329#4F60810C112F0010
(1487086751.850228) can0 545#D8320088D8FFD7FF
(1487086751.851384) can0 220#F70300000000C70F
(1487086751.851384) can0 164#0008000000000800
(1487086751.852462) can0 1F1#0000000000000000
(1487086751.855583) can0 165#0808800000000282
(1487086751.856657) can0 2B0#1E000007C4
(1487086751.856658) can0 153#200000FF00FFA0BE
(1487086751.856659) can0 4B0#004000C000000000
(1487086751.857750) can0 2C0#0000000000000000
(1487086751.858862) can0 316#4530EE113035007F
(1487086751.858862) can0 080#0017EE113035302A
(1487086751.858863) can0 081#7F0000000000000A
(1487086751.858863) can0 18F#FE5A300000720000
(1487086751.859959) can0 260#05300030FFB87526
(1487086751.859960) can0 2A0#C2005D986D12A900
(1487086751.859961) can0 329#4F60810C112F0010
(1487086751.859961) can0 545#D832008AD8FFD7FF
(1487086751.861038) can0 4F0#0000820000121402
(1487086751.861038) can0 220#F70300000000E60F
(1487086751.862125) can0 164#0008000000000901
(1487086751.862125) can0 4F1#CCFF000000000000
(1487086751.862126) can0 690#4000400000203400
(1487086751.865131) can0 165#070880000000038C
(1487086751.866208) can0 2B0#1D000007E5
(1487086751.866209) can0 153#200000FF00FFB0CE
(1487086751.867292) can0 2C0#0000000000000000
(1487086751.868401) can0 316#4530DE113135007F
(1487086751.868402) can0 080#0017DE113035311B
(1487086751.869481) can0 081#7F000000000000FB
(1487086751.869482) can0 18F#FE5A310000720000
(1487086751.869482) can0 260#05310030FFB97533
(1487086751.869482) can0 2A0#62005D986D12A900
(1487086751.869482) can0 329#4F60810C112F0010
(1487086751.870585) can0 545#D832008BD7FFDDFF
(1487086751.871667) can0 220#F50300000000DA0F
(1487086751.871668) can0 164#0008000000000A02
(1487086751.871668) can0 1F1#0000000000000000
(1487086751.874685) can0 165#0808800000000484
(1487086751.875762) can0 2B0#1E000007E6
(1487086751.876859) can0 153#200000FF00FFC0DE
(1487086751.876860) can0 4B0#008000C000000000
(1487086751.877891) can0 2C0#0000000000000000
(1487086751.879052) can0 316#4530DA113135007F
(1487086751.879054) can0 080#0017DA113035314C
(1487086751.879054) can0 081#7F000000000000EC
(1487086751.879054) can0 18F#FE5A310000720000
(1487086751.879055) can0 260#05310030FFB97506
(1487086751.880163) can0 2A0#02005D986D12A900
(1487086751.880164) can0 329#8460810C112F0010
(1487086751.880165) can0 545#D832008BD7FFDDFF
(1487086751.880165) can0 5F0#0100
(1487086751.881239) can0 4F0#0000840000121402
(1487086751.881241) can0 220#F20300000000E00F
(1487086751.881241) can0 164#0008000000000B03
(1487086751.882304) can0 4F1#CCFF000000000000
(1487086751.884266) can0 165#0808800000000585
(1487086751.885325) can0 2B0#1E000007F7
(1487086751.886409) can0 153#200000FF00FFD0EE
(1487086751.887456) can0 2C0#0000000000000000
(1487086751.888530) can0 316#4530DA113135007F
(1487086751.888532) can0 080#0017DA113035313D
(1487086751.888532) can0 081#7F000000000000DD
(1487086751.889701) can0 18F#FE5A310000720000
(1487086751.889702) can0 260#05310030FFB97515
(1487086751.889702) can0 2A0#A2005D986D12A900
(1487086751.889703) can0 329#8460810C112F0010
(1487086751.890763) can0 545#D832008BD7FFDDFF
(1487086751.891861) can0 220#F20300000000E00F
(1487086751.891862) can0 164#0008000000000C04
(1487086751.891863) can0 1F1#0000000000000000
(1487086751.893737) can0 5E4#000000
(1487086751.894806) can0 2B0#1E00000708
(1487086751.894807) can0 165#0708800000000689
(1487086751.895952) can0 153#200000FF00FFE0FE
(1487086751.897033) can0 4B0#0000000000000000
(1487086751.898115) can0 2C0#0000000000000000
(1487086751.899228) can0 316#4531D6113135007F
(1487086751.899229) can0 080#0017D6113135315E
(1487086751.899229) can0 081#7F000000000000CE
(1487086751.899230) can0 18F#FE5A310000720000
(1487086751.899230) can0 260#05310030FFB97722
(1487086751.900334) can0 2A0#C2005D986D12A900
(1487086751.900335) can0 329#8460810C112F0010
(1487086751.900335) can0 545#D8320089DFFFE2FF
(1487086751.901451) can0 4F0#0000860000121402
(1487086751.901452) can0 220#F20300000000E60F
(1487086751.901452) can0 164#0008000000000D05
(1487086751.902510) can0 4F1#CCFF000000000000
(1487086751.903612) can0 165#0808800000000787
(1487086751.903613) can0 2B0#1D00000729
(1487086751.905955) can0 153#200000FF00FF001E
(1487086751.907200) can0 2C0#0000000000000000
(1487086751.908288) can0 316#4531D4113135007F
(1487086751.908289) can0 080#0017D4113135316F
(1487086751.909389) can0 081#7F000000000000BF
(1487086751.909390) can0 18F#FE5A310000720000
(1487086751.909391) can0 260#05310030FFB97731
(1487086751.909391) can0 2A0#62005D986D12A900
(1487086751.909391) can0 329#8460810C112F0010
(1487086751.910479) can0 545#D832008BDFFFE2FF
(1487086751.911554) can0 220#F20300000000C70F
(1487086751.911555) can0 164#0008000000000E06
(1487086751.911560) can0 1F1#0000000000000000
(1487086751.912997) can0 165#0708800000000887
(1487086751.914074) can0 2B0#1E0000072A
(1487086751.915956) can0 153#200000FF00FF102E
(1487086751.917035) can0 4B0#0040000000000000
(1487086751.918104) can0 2C0#0000000000000000
(1487086751.919181) can0 316#4531D4113135007F
(1487086751.919182) can0 080#0017D41131353150
(1487086751.919182) can0 081#7F000000000000A0
(1487086751.920330) can0 18F#FE5A310000720000
(1487086751.920331) can0 260#05310030FFB87705
(1487086751.920332) can0 2A0#02005D986D12A900
(1487086751.920332) can0 329#8460810C112F0010
(1487086751.920333) can0 545#D832008BE0FFE2FF
(1487086751.921430) can0 4F0#0000880000121402
(1487086751.921431) can0 220#F70300000000DA0F
(1487086751.921432) can0 164#0008000000000F07
(1487086751.922513) can0 4F1#CCFF000000000000
(1487086751.922515) can0 165#0808800000000989
(1487086751.923616) can0 2B0#1D0000070B
(1487086751.925958) can0 153#200000FF00FF203E
(1487086751.927199) can0 2C0#0000000000000000
(1487086751.928309) can0 5F0#0100
(1487086751.928310) can0 316#4531CC113235007F
(1487086751.929409) can0 080#0017CC11313532C1
(1487086751.929411) can0 081#7F00000000000091
(1487086751.929411) can0 18F#FE5A320000720000
(1487086751.929411) can0 260#05320030FFB87713
(1487086751.929412) can0 2A0#A2005D986D12A900
(1487086751.930493) can0 329#8460810C112F0010
(1487086751.930494) can0 545#D832008AE0FFE6FF
(1487086751.931576) can0 220#F70300000000F30F
(1487086751.931577) can0 164#0008000000000008
(1487086751.931577) can0 1F1#0000000000000000
(1487086751.932663) can0 0A0#5F41D61100260001
(1487086751.932664) can0 0A1#808080802E000000
(1487086751.932664) can0 2B0#1D0000077C
(1487086751.932665) can0 165#0708800000000A85
(1487086751.935953) can0 153#200000FF00FF304E
(1487086751.937002) can0 4B0#0080000000000000
(1487086751.938117) can0 2C0#0000000000000000
(1487086751.938119) can0 316#4531CC113235007F
(1487086751.939244) can0 080#0017CC11313532B2
(1487086751.939245) can0 081#7F00000000000082
(1487086751.939245) can0 18F#FE5A320000720000
(1487086751.939246) can0 260#05320030FFB87722
(1487086751.940329) can0 2A0#C2005D986D12A900
(1487086751.940330) can0 329#D760810C112F0010
(1487086751.940330) can0 545#D82F008AE0FFE6FF
(1487086751.941431) can0 220#F70300000000F30F
(1487086751.941432) can0 164#0008000000000109
(1487086751.941433) can0 4F0#00008A0000121402
(1487086751.942535) can0 165#0708800000000B84
(1487086751.942536) can0 2B0#1D0000076D
(1487086751.942537) can0 4F1#CCFF000000000000
(1487086751.945984) can0 153#200000FF00FF405E
(1487086751.947232) can0 2C0#0000000000000000
(1487086751.948332) can0 316#4532C6113235007F
(1487086751.948333) can0 080#0017C611323532F3
(1487086751.949430) can0 081#7F00000000000073
(1487086751.949431) can0 18F#FE5A320000720000
(1487086751.949431) can0 260#05320030FFB8793F
(1487086751.949431) can0 2A0#62005D986D12A900
(1487086751.949432) can0 329#D760810C112F0010
(1487086751.950495) can0 545#D82F0089E7FFEAFF
(1487086751.951604) can0 220#F70300000000DA0F
(1487086751.951605) can0 164#000800000000020A
(1487086751.951606) can0 165#08F87F0000000C83
(1487086751.952667) can0 1F1#0000000000000000
(1487086751.952668) can0 2B0#1E0000076E
(1487086751.955903) can0 153#200000FF00FF506E
(1487086751.957034) can0 4B0#00C0000000000000
(1487086751.958116) can0 2C0#0000000000000000
(1487086751.958122) can0 316#4532CA113235007F
(1487086751.959227) can0 080#0017CA11323532A4
(1487086751.959228) can0 081#7F00000000000064
(1487086751.959229) can0 18F#FE5A320000720000
(1487086751.959229) can0 260#05320030FFB87902
(1487086751.959229) can0 2A0#02005D986D12A900
(1487086751.960316) can0 329#D760810C112F0010
(1487086751.960317) can0 545#D82F008CE7FFEAFF
(1487086751.961429) can0 4F0#00008C0000121402
(1487086751.961430) can0 165#0808800000000D8D
(1487086751.961431) can0 220#F70300000000E00F
(1487086751.961431) can0 164#000800000000030B
(1487086751.962496) can0 2B0#1D0000074F
(1487086751.962497) can0 4F1#CCFF000000000000
(1487086751.962498) can0 690#4000400000203800
(1487086751.965957) can0 153#200000FF00FF607E
(1487086751.967203) can0 2C0#0000000000000000
(1487086751.968309) can0 316#4532CA113235007F
(1487086751.969365) can0 080#0017CA1132353295
(1487086751.969366) can0 081#7F00000000000055
(1487086751.969366) can0 18F#FE5A320000720000
(1487086751.969366) can0 260#05320030FFB87911
(1487086751.969367) can0 2A0#A2005D986D12A900
(1487086751.970513) can0 329#D760810C112F0010
(1487086751.970515) can0 545#D82F008AE7FFEAFF
(1487086751.970515) can0 165#08F87F0000000E81
(1487086751.970515) can0 2B0#1D000007B0
(1487086751.971605) can0 220#F70300000000E00F
(1487086751.971606) can0 164#000800000000040C
(1487086751.971606) can0 1F1#0000000000000000
(1487086751.975434) can0 5F0#0100
(1487086751.976537) can0 153#200000FF00FF708E
(1487086751.976538) can0 4B0#0000004000000000
(1487086751.977605) can0 2C0#0000000000000000
(1487086751.978680) can0 316#4531D2113235007F
(1487086751.978681) can0 260#05320030FFB87722
(1487086751.979808) can0 080#0017D21131353206
(1487086751.979809) can0 081#7F00000000000046
(1487086751.979809) can0 18F#FE5A320000720000
(1487086751.979809) can0 2A0#C2005D986D12A900
(1487086751.979810) can0 329#D760810C112F0010
(1487086751.980932) can0 165#0718800000000F90
(1487086751.980932) can0 2B0#1D000007A1
(1487086751.980933) can0 545#D82F008BE0FFE6FF
(1487086751.980933) can0 4F0#00008E0000121402
(1487086751.982015) can0 220#F20300000000DA0F
(1487086751.982016) can0 164#000800000000050D
(1487086751.982016) can0 4F1#CCFF000000000000
(1487086751.985946) can0 153#200000FF00FF809E
(1487086751.987182) can0 2C0#0000000000000000
(1487086751.988269) can0 316#4531D2113235007F
(1487086751.988270) can0 080#0017D211313532F7
(1487086751.989358) can0 081#7F00000000000037
(1487086751.989359) can0 18F#FE5A320000720000
(1487086751.989359) can0 260#05320030FFB87731
(1487086751.989360) can0 2A0#62005D986D12A900
(1487086751.989360) can0 329#D760810C112F0010
(1487086751.990403) can0 165#070880000000008F
(1487086751.990404) can0 2B0#1E000007A2
(1487086751.990404) can0 545#D82F008BE0FFE6FF
(1487086751.991538) can0 220#F10300000000D40F
(1487086751.991539) can0 164#000800000000060E
(1487086751.991540) can0 1F1#0000000000000000
(1487086751.994144) can0 5E4#000000
(1487086751.995956) can0 153#200000FF00FF90AE
(1487086751.997033) can0 4B0#0040004000000000
(1487086751.998116) can0 2C0#0000000000000000
(1487086751.999231) can0 316#4531CE113235007F
(1487086751.999232) can0 260#05320030FFB87704
(1487086751.999232) can0 080#0017CE1131353238
(1487086751.999233) can0 081#7F00000000000028
(1487086752.000345) can0 18F#FE5A320000720000
(1487086752.000346) can0 2A0#02005D986D12A900
(1487086752.000351) can0 2B0#1D00000783
(1487086752.000352) can0 165#0808800000000181
(1487086752.000352) can0 329#0F60810C112F0010
(1487086752.001481) can0 545#D82F0089E0FFE6FF
(1487086752.001482) can0 4F0#0000900000121402
(1487086752.001482) can0 4F1#CCFF000000000000
(1487086752.001482) can0 220#F10300000000D40F
(1487086752.001483) can0 164#000800000000070F
(1487086752.005984) can0 153#200000FF00FFA0BE
(1487086752.007183) can0 2C0#0000000000000000
(1487086752.008291) can0 316#4531CC113235007F
(1487086752.009410) can0 080#0017CC1131353249
(1487086752.009411) can0 081#7F00000000000019
(1487086752.009411) can0 18F#FE5A320000720000
(1487086752.009412) can0 260#05320030FFB87713
(1487086752.009412) can0 2A0#A2005D986D12A900
(1487086752.010492) can0 2B0#1D000007F4
(1487086752.010494) can0 165#0808800000000282
(1487086752.010494) can0 329#0F60810C112F0010
(1487086752.010494) can0 545#D82F008BE0FFE6FF
(1487086752.011577) can0 220#F10300000000DA0F
(1487086752.011578) can0 164#0008000000000800
(1487086752.011578) can0 1F1#0000000000000000
(1487086752.015983) can0 153#200000FF00FFB0CE
(1487086752.017055) can0 4B0#0080004000000000
(1487086752.018130) can0 2C0#0000000000000000
(1487086752.018131) can0 165#07F87F0000000383
(1487086752.019264) can0 2B0#1E000007D5
(1487086752.019265) can0 080#0017CC113135323A
(1487086752.019266) can0 081#7F0000000000000A
(1487086752.019266) can0 18F#FE5A320000720000
(1487086752.020374) can0 260#05320030FFB87722
(1487086752.020375) can0 2A0#C2005D986D12A900
(1487086752.020375) can0 316#4531CC113235007F
(1487086752.020376) can0 329#0F60810C112F0010
(1487086752.020376) can0 545#D82F008BE0FFE6FF
(1487086752.021396) can0 220#F50300000000D40F
(1487086752.021397) can0 164#0008000000000901
(1487086752.021398) can0 4F0#0000920000121402
(1487086752.022469) can0 4F1#CCFF000000000000
(1487086752.023559) can0 5F0#0100
(1487086752.025895) can0 153#200000FF00FFC0DE
(1487086752.027124) can0 2C0#0000000000000000
(1487086752.028207) can0 165#0808800000000484
(1487086752.028208) can0 2B0#1E000007E6
(1487086752.028208) can0 316#4532C8113235007F
(1487086752.029330) can0 080#0017C8113235325B
(1487086752.029331) can0 081#7F000000000000FB
(1487086752.029331) can0 0A0#5F41D61100260001
(1487086752.029332) can0 0A1#808080802E000000
(1487086752.029332) can0 18F#FE5A320000720000
(1487086752.030422) can0 260#05320030FFB8793F
(1487086752.030423) can0 2A0#62005D986D12A900
(1487086752.030423) can0 329#0F60810C112F0010
(1487086752.030424) can0 545#D82F0089E7FFEAFF
(1487086752.031504) can0 220#F70300000000DA0F
(1487086752.031505) can0 164#0008000000000A02
(1487086752.031506) can0 1F1#0000000000000000
(1487086752.035925) can0 153#200000FF00FFD0EE
(1487086752.037000) can0 4B0#00C0004000000000
(1487086752.038102) can0 2C0#0000000000000000
(1487086752.038103) can0 165#0808800000000585
(1487086752.038103) can0 2B0#1D000007C7
(1487086752.038104) can0 316#4532C8113235007F
(1487086752.039205) can0 080#0017C8113235324C
(1487086752.039206) can0 081#7F000000000000EC
(1487086752.039206) can0 18F#FE5A320000720000
(1487086752.039207) can0 260#05320030FFB87902
(1487086752.039207) can0 2A0#02005D986D12A900
(1487086752.040298) can0 329#0F60810C112F0010
(1487086752.040299) can0 545#D831008AE7FFEAFF
(1487086752.041395) can0 220#F70300000000C10F
(1487086752.041396) can0 164#0008000000000B03
(1487086752.041400) can0 4F0#0000940000121402
(1487086752.042476) can0 4F1#CCFF000000000000
(1487086752.045895) can0 153#200000FF00FFE0FE
(1487086752.046976) can0 165#0708800000000689
(1487086752.046976) can0 2B0#1D00000738
(1487086752.048060) can0 2C0#0000000000000000
(1487086752.049143) can0 316#4532C8113235007F
(1487086752.049144) can0 260#05320030FFB87911
(1487086752.049144) can0 080#0017C8113235323D
(1487086752.049145) can0 081#7F000000000000DD
(1487086752.050222) can0 18F#FE5A320000720000
(1487086752.050222) can0 2A0#A2005D986D12A900
(1487086752.050223) can0 329#0F60810C112F0010
(1487086752.050223) can0 545#D831008AE7FFEAFF
(1487086752.051406) can0 220#F70300000000B40F
(1487086752.051408) can0 164#0008000000000C04
(1487086752.052485) can0 1F1#0000000000000000
(1487086752.055985) can0 153#200000FF00FF001E
(1487086752.057054) can0 4B0#0000008000000000
(1487086752.057055) can0 165#0808800000000787
(1487086752.057055) can0 2B0#1E00000719
(1487086752.058138) can0 2C0#0000000000000000
(1487086752.059231) can0 316#4532C8113235007F
(1487086752.059232) can0 260#05320030FFB87920
(1487086752.059233) can0 080#0017C8113235322E
(1487086752.059233) can0 081#7F000000000000CE
(1487086752.060316) can0 18F#FE5A320000720000
(1487086752.060318) can0 2A0#C2005D986D12A900
(1487086752.060318) can0 329#4F60810C112F0010
(1487086752.060319) can0 545#D831008BE8FFEBFF
(1487086752.061426) can0 4F0#0000960000121402
(1487086752.061427) can0 220#F40300000000DA0F
(1487086752.061427) can0 164#0008000000000D05
(1487086752.062516) can0 4F1#CCFF000000000000
(1487086752.062517) can0 690#4000400000203C00
(1487086752.065957) can0 165#0808800000000888
(1487086752.066988) can0 153#200000FF00FF102E
(1487086752.066990) can0 2B0#1D0000071A
(1487086752.068165) can0 2C0#0000000000000000
(1487086752.068166) can0 316#4532C4113235007F
(1487086752.069246) can0 080#0017C4113235325F
(1487086752.069247) can0 081#7F000000000000BF
(1487086752.069247) can0 18F#FE5A320000720000
(1487086752.069247) can0 260#05320030FFB8793F
(1487086752.069248) can0 2A0#62005D986D12A900
(1487086752.070324) can0 329#4F60810C112F0010
(1487086752.070326) can0 545#D831008BE8FFEBFF
(1487086752.071452) can0 220#EF0300000000E60F
(1487086752.071454) can0 164#0008000000000E06
(1487086752.072486) can0 1F1#0000000000000000
(1487086752.072487) can0 5F0#0100
(1487086752.075518) can0 165#0708800000000986
(1487086752.076623) can0 2B0#1D0000070B
(1487086752.076624) can0 153#200000FF00FF203E
(1487086752.076624) can0 4B0#0040008000000000
(1487086752.077668) can0 2C0#0000000000000000
(1487086752.078787) can0 316#4533B0113335007F
(1487086752.078788) can0 080#0017B01133353370
(1487086752.078789) can0 081#7F000000000000A0
(1487086752.079897) can0 18F#FE5A330000720000
(1487086752.079898) can0 260#05330030FFB87B0F
(1487086752.079898) can0 2A0#02005D986D12A900
(1487086752.079899) can0 329#4F60810C112F0010
(1487086752.079899) can0 545#D831008BF0FFF2FF
(1487086752.080978) can0 4F0#0000980000121402
(1487086752.080980) can0 220#EC0300000000ED0F
(1487086752.082058) can0 164#0008000000000F07
(1487086752.082059) can0 4F1#CCFF000000000000
(1487086752.085122) can0 165#0808800000000A8A
(1487086752.086184) can0 2B0#1E0000074C
(1487086752.086185) can0 153#200000FF00FF304E
(1487086752.087286) can0 2C0#0000000000000000
(1487086752.088372) can0 316#4533B0113335007F
(1487086752.088378) can0 080#0017B01133353361
(1487086752.089482) can0 081#7F00000000000091
(1487086752.089483) can0 18F#FE5A330000720000
(1487086752.089484) can0 260#05330030FFB87B1E
(1487086752.089484) can0 2A0#A2005D986D12A900
(1487086752.090561) can0 329#4F60810C112F0010
(1487086752.090563) can0 545#D831008BF0FFF2FF
(1487086752.091641) can0 220#EF0300000000DA0F
(1487086752.091642) can0 164#0008000000000008
(1487086752.091642) can0 1F1#0000000000000000
(1487086752.094497) can0 5E4#000000
(1487086752.095579) can0 165#0708800000000B84
(1487086752.095580) can0 2B0#1E0000075D
(1487086752.096649) can0 153#200000FF00FF405E
(1487086752.096650) can0 4B0#0080008000000000
(1487086752.097745) can0 2C0#0000000000000000
(1487086752.098870) can0 316#4533B0113335007F
(1487086752.098871) can0 080#0017B01133353352
(1487086752.098871) can0 081#7F00000000000082
(1487086752.098872) can0 18F#FE5A330000720000
(1487086752.099908) can0 260#05330030FFB87B2D
(1487086752.099909) can0 2A0#C2005D986D12A900
(1487086752.099909) can0 329#4F60810C112F0010
(1487086752.099910) can0 545#D831008AF0FFF2FF
(1487086752.101036) can0 4F0#00009A0000121402
(1487086752.101037) can0 220#F40300000000C70F
(1487086752.102118) can0 164#0008000000000109
(1487086752.102119) can0 4F1#CCFF000000000000
(1487086752.104250) can0 165#0808800000000C8C
(1487086752.105329) can0 2B0#1E0000076E
(1487086752.106393) can0 153#200000FF00FF506E
(1487086752.107482) can0 2C0#0000000000000000
(1487086752.108587) can0 316#4533C0113335007F
(1487086752.108588) can0 080#0017C01133353333
(1487086752.108589) can0 081#7F00000000000073
(1487086752.109683) can0 18F#FE5A330000720000
(1487086752.109684) can0 260#05330030FFB87B3C
(1487086752.109685) can0 2A0#62005D986D12A900
(1487086752.109685) can0 329#4F60810C112F0010
(1487086752.109685) can0 545#D831008BF0FFEFFF
(1487086752.110979) can0 220#F40300000000C10F
(1487086752.112058) can0 164#000800000000020A
(1487086752.112059) can0 1F1#0000000000000000
(1487086752.113789) can0 165#0718800000000D92
(1487086752.114869) can0 2B0#1E0000077F
(1487086752.115902) can0 153#200000FF00FF607E
(1487086752.117037) can0 4B0#00C0008000000000
(1487086752.118142) can0 2C0#0000000000000000
(1487086752.118143) can0 316#4533CC113335007F
(1487086752.119245) can0 080#0017CC1133353364
(1487086752.119246) can0 081#7F00000000000064
(1487086752.119246) can0 18F#FE5A330000720000
(1487086752.119247) can0 260#05330030FFB87B0F
(1487086752.119247) can0 2A0#02005D986D12A900
(1487086752.120361) can0 329#8460810C112F0010
(1487086752.120362) can0 545#D831008CF0FFEFFF
(1487086752.120363) can0 5F0#0100
(1487086752.121415) can0 4F0#00009C0000121402
(1487086752.121416) can0 220#F40300000000BB0F
(1487086752.121416) can0 164#000800000000030B
(1487086752.122515) can0 4F1#CCFF000000000000
(1487086752.123610) can0 165#0708800000000E81
(1487086752.123611) can0 2B0#1E00000780
(1487086752.125954) can0 153#200000FF00FF708E
(1487086752.127163) can0 2C0#0000000000000000
(1487086752.128790) can0 316#4531CC113335007F
(1487086752.129894) can0 080#0017CC1131353375
(1487086752.129895) can0 081#7F00000000000055
(1487086752.129895) can0 18F#FE5A330000720000
(1487086752.129895) can0 260#05330030FFB87712
(1487086752.130993) can0 2A0#A2005D986D12A900
(1487086752.130994) can0 329#8460810C112F0010
(1487086752.130995) can0 545#D831008AE0FFEFFF
(1487086752.131000) can0 0A0#5F41B01100260001
(1487086752.131001) can0 0A1#808080802E000000
(1487086752.132033) can0 220#F40300000000B40F
(1487086752.132035) can0 164#000800000000040C
(1487086752.132035) can0 1F1#0000000000000000
(1487086752.133177) can0 165#0808800000000F8F
(1487086752.133178) can0 2B0#1E00000791
(1487086752.135987) can0 153#200000FF00FF809E
(1487086752.137054) can0 4B0#000000C000000000
(1487086752.138160) can0 2C0#0000000000000000
(1487086752.139264) can0 316#4531EA113135007F
(1487086752.139265) can0 260#05310030FFB87723
(1487086752.139266) can0 080#0017EA1131353186
(1487086752.139266) can0 081#7F00000000000046
(1487086752.140355) can0 18F#FE5A310000720000
(1487086752.140356) can0 2A0#C2005D986D12A900
(1487086752.140357) can0 329#8460810C112F0010
(1487086752.140357) can0 545#D8230088E0FFDFFF
(1487086752.141497) can0 220#F40300000000C70F
(1487086752.141498) can0 164#000800000000050D
(1487086752.141498) can0 4F0#00009E0000121402
(1487086752.142557) can0 4F1#CCFF000000000000
(1487086752.142558) can0 165#0808800000000080
(1487086752.143639) can0 2B0#1D00000792
(1487086752.145958) can0 153#200000FF00FF90AE
(1487086752.147162) can0 2C0#0000000000000000
(1487086752.148256) can0 5A0#0000000000000000
(1487086752.148257) can0 5A2#0400A503
(1487086752.148257) can0 316#4531EC113135007F
(1487086752.148258) can0 080#0017EC1131353157
(1487086752.149362) can0 081#7F00000000000037
(1487086752.149363) can0 18F#FE5A310000720000
(1487086752.149363) can0 260#05310030FFB87732
(1487086752.149363) can0 2A0#62005D986D12A900
(1487086752.149364) can0 329#8460810C112F0010
(1487086752.150452) can0 545#D8230089E0FFDFFF
(1487086752.151537) can0 220#F40300000000C70F
(1487086752.151538) can0 164#000800000000060E
(1487086752.151539) can0 1F1#0000000000000000
(1487086752.152625) can0 165#0808800000000181
(1487086752.152626) can0 2B0#1D00000783
(1487086752.155987) can0 153#200000FF00FFA0BE
(1487086752.157074) can0 4B0#004000C000000000
(1487086752.158181) can0 2C0#0000000000000000
(1487086752.158182) can0 316#4530E2113135007F
(1487086752.159264) can0 080#0017E211303531F8
(1487086752.159265) can0 081#7F00000000000028
(1487086752.159266) can0 18F#FE5A310000720000
(1487086752.159266) can0 260#05310030FFB87507
(1487086752.159267) can0 2A0#02005D986D12A900
(1487086752.160341) can0 329#8460810C112F0010
(1487086752.160342) can0 545#D823008CD8FFDDFF
(1487086752.161449) can0 4F0#0000A00000121402
(1487086752.161451) can0 4F1#CCFF000000000000
(1487086752.161451) can0 220#F40300000000DA0F
(1487086752.161451) can0 164#000800000000070F
(1487086752.162536) can0 165#070880000000028D
(1487086752.162537) can0 2B0#1D000007F4
(1487086752.162538) can0 690#4000400000200000
(1487086752.165982) can0 153#200000FF00FFB0CE
(1487086752.167161) can0 2C0#0000000000000000
(1487086752.168247) can0 5F0#0100
(1487086752.168248) can0 316#4530E4113135007F
(1487086752.169371) can0 080#0017E411303531C9
(1487086752.169372) can0 081#7F00000000000019
(1487086752.169373) can0 18F#FE5A310000720000
(1487086752.169373) can0 260#05310030FFB97515
(1487086752.169373) can0 2A0#A2005D986D12A900
(1487086752.170450) can0 329#8460810C112F0010
(1487086752.170451) can0 545#D823008CD8FFDDFF
(1487086752.171537) can0 220#F40300000000E00F
(1487086752.171539) can0 164#0008000000000800
(1487086752.171539) can0 1F1#0000000000000000
(1487086752.172626) can0 2B0#1E000007D5
(1487086752.172627) can0 165#0808800000000383
(1487086752.175998) can0 153#200000FF00FFC0DE
(1487086752.177095) can0 4B0#008000C000000000
(1487086752.178182) can0 2C0#0000000000000000
(1487086752.178184) can0 316#4530E4113135007F
(1487086752.179290) can0 080#0017E411303531BA
(1487086752.179291) can0 081#7F0000000000000A
(1487086752.179292) can0 18F#FE5A310000720000
(1487086752.179292) can0 260#05310030FFB97524
(1487086752.179292) can0 2A0#C2005D986D12A900
(1487086752.180396) can0 329#D760810C112F0010
(1487086752.180397) can0 545#D823008AD8FFDDFF
(1487086752.181471) can0 4F0#0000A20000121402
(1487086752.181472) can0 165#0808800000000484
(1487086752.181473) can0 220#F40300000000ED0F
(1487086752.181473) can0 164#0008000000000901
(1487086752.182563) can0 2B0#1E000007E6
(1487086752.182564) can0 4F1#CCFF000000000000
(1487086752.185986) can0 153#200000FF00FFD0EE
(1487086752.187143) can0 2C0#0000000000000000
(1487086752.188238) can0 316#4530F4113034007F
(1487086752.189332) can0 329#D760810C112F0010
(1487086752.189334) can0 545#D823008AD9FFD9FF
(1487086752.189334) can0 080#0017F411303430BB
(1487086752.189334) can0 081#7F000000000000FB
(1487086752.189335) can0 18F#FE5A300000720000
(1487086752.190413) can0 260#05300030FFB97534
(1487086752.190414) can0 2A0#62005D986D12A900
(1487086752.190414) can0 165#08F87F000000058A
(1487086752.191496) can0 2B0#1D000007C7
(1487086752.191497) can0 220#F40300000000D40F
(1487086752.191498) can0 164#0008000000000A02
(1487086752.191498) can0 1F1#0000000000000000
(1487086752.194998) can0 5E4#000000
(1487086752.196080) can0 153#200000FF00FFE0FE
(1487086752.197117) can0 4B0#0000000000000000
(1487086752.197118) can0 2C0#0000000000000000
(1487086752.198269) can0 316#4530F8113034007F
(1487086752.198270) can0 080#0017F8113034306C
(1487086752.199351) can0 081#7F000000000000EC
(1487086752.199352) can0 18F#FE5A300000720000
(1487086752.199353) can0 260#05300030FFB97507
(1487086752.199353) can0 2A0#02005D986D12A900
(1487086752.200484) can0 329#D760810C112F0010
(1487086752.200485) can0 545#D823008BD9FFD9FF
(1487086752.200485) can0 165#0708800000000689
(1487086752.200486) can0 2B0#1E00000708
(1487086752.201562) can0 4F0#0000A40000121402
(1487086752.201563) can0 4F1#CCFF000000000000
(1487086752.201563) can0 220#F40300000000CD0F
(1487086752.201564) can0 164#0008000000000B03
(1487086752.205989) can0 153#200000FF00FF001E
(1487086752.207120) can0 2C0#0000000000000000
(1487086752.208614) can0 316#4530EE113034007F
(1487086752.209702) can0 080#0017EE113034300D
(1487086752.209703) can0 081#7F000000000000DD
(1487086752.209704) can0 18F#FE5A300000720000
(1487086752.209704) can0 165#07F87F0000000787
(1487086752.210806) can0 260#05300030FFB97516
(1487086752.210807) can0 2A0#A2005D986D12A900
(1487086752.210808) can0 2B0#1D00000729
(1487086752.210808) can0 329#D760810C112F0010
(1487086752.210809) can0 545#D823008BDAFFD8FF
(1487086752.211895) can0 220#F40300000000E00F
(1487086752.211896) can0 164#0008000000000C04
(1487086752.211897) can0 1F1#0000000000000000
(1487086752.215435) can0 5F0#0100
(1487086752.216519) can0 153#200000FF00FF102E
(1487086752.216520) can0 4B0#0040000000000000
(1487086752.217610) can0 2C0#0000000000000000
(1487086752.218688) can0 316#4530EE113034007F
(1487086752.218689) can0 080#0017EE11303430FE
(1487086752.218695) can0 081#7F000000000000CE
(1487086752.219791) can0 18F#FE5A300000720000
(1487086752.219793) can0 165#0808800000000888
(1487086752.219793) can0 260#05300030FFB97525
(1487086752.219793) can0 2A0#C2005D986D12A900
(1487086752.219794) can0 2B0#1D0000071A
(1487086752.220889) can0 329#D760810C112F0010
(1487086752.220890) can0 545#D823008ADAFFD8FF
(1487086752.220891) can0 4F0#0000A60000121402
(1487086752.221963) can0 220#F40300000000ED0F
(1487086752.221964) can0 164#0008000000000D05
(1487086752.221964) can0 4F1#CCFF000000000000
(1487086752.225988) can0 153#200000FF00FF203E
(1487086752.227120) can0 2C0#0000000000000000
(1487086752.228209) can0 316#4530EE113034007F
(1487086752.228210) can0 080#0017EE11303430EF
(1487086752.229282) can0 081#7F000000000000BF
(1487086752.229283) can0 165#0708800000000986
(1487086752.229284) can0 18F#FE5A300000720000
(1487086752.229284) can0 260#05300030FFB97534
(1487086752.229284) can0 2A0#62005D986D12A900
(1487086752.230414) can0 2B0#1D0000070B
(1487086752.230415) can0 329#D760810C112F0010
(1487086752.230415) can0 545#D823008ADAFFD8FF
(1487086752.231421) can0 220#F40300000000D40F
(1487086752.231422) can0 164#0008000000000E06
(1487086752.231422) can0 1F1#0000000000000000
(1487086752.232504) can0 0A0#5F41B01100260001
(1487086752.232505) can0 0A1#808080802E000000
(1487086752.235988) can0 153#200000FF00FF304E
(1487086752.237084) can0 4B0#0080000000000000
(1487086752.238208) can0 2C0#0000000000000000
(1487086752.238209) can0 316#452FFE113034007F
(1487086752.238210) can0 080#0017FE112F3430E0
(1487086752.239328) can0 081#7F000000000000A0
(1487086752.239330) can0 18F#FE5A300000720000
(1487086752.239330) can0 260#05300030FFB97309
(1487086752.239330) can0 2A0#02005D986D12A900
(1487086752.239331) can0 2B0#1D0000077C
(1487086752.240402) can0 165#0808800000000A8A
(1487086752.240403) can0 329#0F60810C112F0010
(1487086752.240404) can0 545#D82F008BD1FFD4FF
(1487086752.241517) can0 220#F40300000000C70F
(1487086752.241518) can0 164#0008000000000F07
(1487086752.241518) can0 4F0#0000A80000121402
(1487086752.242580) can0 4F1#CCFF000000000000
(1487086752.245998) can0 153#200000FF00FF405E
(1487086752.247143) can0 2C0#0000000000000000
(1487086752.248154) can0 165#0808800000000B8B
(1487086752.248155) can0 2B0#1E0000075D
(1487086752.248155) can0 316#452F00123034007F
(1487086752.249282) can0 080#001700122F343091
(1487086752.249283) can0 081#7F00000000000091
(1487086752.249284) can0 18F#FE5A300000720000
(1487086752.249284) can0 260#05300030FFB97318
(1487086752.249285) can0 2A0#A2005D986D12A900
(1487086752.250356) can0 329#0F60810C112F0010
(1487086752.250357) can0 545#D82F008BD1FFD4FF
(1487086752.251457) can0 220#F40300000000D40F
(1487086752.251458) can0 164#0008000000000008
(1487086752.251458) can0 1F1#0000000000000000
(1487086752.255987) can0 153#200000FF00FF506E
(1487086752.257079) can0 4B0#00C0000000000000
(1487086752.258184) can0 2C0#0000000000000000
(1487086752.258185) can0 165#0708800000000C83
(1487086752.258186) can0 2B0#1E0000076E
(1487086752.259268) can0 316#452F00123034007F
(1487086752.259269) can0 260#05300030FFB97327
(1487086752.259269) can0 2A0#C2005D986D12A900
(1487086752.259270) can0 329#0F60810C112F0010
(1487086752.260375) can0 080#001700122F343082
(1487086752.260376) can0 081#7F00000000000082
(1487086752.260377) can0 18F#FE5A300000720000
(1487086752.260382) can0 545#D82F008AD1FFD4FF
(1487086752.261437) can0 4F0#0000AA0000121402
(1487086752.261438) can0 220#F40300000000ED0F
(1487086752.261438) can0 164#0008000000000109
(1487086752.261439) can0 4F1#CCFF000000000000
(1487086752.262562) can0 690#4000400000200400
(1487086752.263594) can0 5F0#0100
(1487086752.266002) can0 153#200000FF00FF607E
(1487086752.267061) can0 165#08F87F0000000D82
(1487086752.267062) can0 2B0#1D0000074F
(1487086752.268149) can0 2C0#0000000000000000
(1487086752.269232) can0 316#452FFE112F34007F
(1487086752.269233) can0 080#0017FE112F342FD3
(1487086752.269233) can0 081#7F00000000000073
(1487086752.269234) can0 18F#FE5B2F0000720000
(1487086752.269234) can0 260#052F0030FFB97338
(1487086752.270358) can0 2A0#62005D986D12A900
(1487086752.270359) can0 329#0F60810C112F0010
(1487086752.270359) can0 545#D82F0088D1FFD1FF
(1487086752.271459) can0 220#F40300000000DA0F
(1487086752.271460) can0 164#000800000000020A
(1487086752.272523) can0 1F1#0000000000000000
(1487086752.275987) can0 153#200000FF00FF708E
(1487086752.277120) can0 4B0#0000004000000000
(1487086752.277121) can0 165#0708800000000E81
(1487086752.277121) can0 2B0#1D000007B0
(1487086752.278194) can0 2C0#0000000000000000
(1487086752.278195) can0 5A1#5442333046422644
(1487086752.278195) can0 316#452FFA112F34007F
(1487086752.278196) can0 080#0017FA112F342F04
(1487086752.279317) can0 081#7F00000000000064
(1487086752.279319) can0 18F#FE5B2F0000720000
(1487086752.279319) can0 260#052F0030FFB9730B
(1487086752.279319) can0 2A0#02005D986D12A900
(1487086752.280402) can0 329#0F60810C112F0010
(1487086752.280403) can0 545#D82F008BD1FFD1FF
(1487086752.281497) can0 4F0#0000AC0000121402
(1487086752.281498) can0 4F1#CCFF000000000000
(1487086752.281498) can0 220#F40300000000D40F
(1487086752.281499) can0 164#000800000000030B
(1487086752.285963) can0 165#0708800000000F80
(1487086752.287058) can0 153#200000FF00FF809E
(1487086752.287060) can0 2B0#1D000007A1
(1487086752.288168) can0 2C0#0000000000000000
(1487086752.288169) can0 316#452FF4113034007F
(1487086752.289289) can0 080#0017F4112F343035
(1487086752.289290) can0 081#7F00000000000055
(1487086752.289291) can0 18F#FE5B300000720000
(1487086752.289291) can0 260#05300030FFB97318
(1487086752.289292) can0 2A0#A2005D986D12A900
(1487086752.290374) can0 329#0F60810C112F0010
(1487086752.290375) can0 545#D82F008BD1FFD4FF
(1487086752.291484) can0 220#F40300000000C10F
(1487086752.291485) can0 164#000800000000040C
(1487086752.292529) can0 1F1#0000000000000000
(1487086752.295358) can0 5E4#000000
(1487086752.296440) can0 165#08F87F000000008F
(1487086752.296441) can0 2B0#1D00000792
(1487086752.296441) can0 153#200000FF00FF90AE
(1487086752.296442) can0 4B0#0040004000000000
(1487086752.297518) can0 2C0#0000000000000000
(1487086752.298620) can0 316#452FF4113034007F
(1487086752.298621) can0 080#0017F4112F343026
(1487086752.298621) can0 081#7F00000000000046
(1487086752.299742) can0 18F#FE5B300000720000
(1487086752.299744) can0 260#05300030FFB97327
(1487086752.299744) can0 2A0#C2005D986D12A900
(1487086752.299744) can0 329#4F60810C112F0010
(1487086752.300828) can0 545#D82F008BD1FFD4FF
(1487086752.300829) can0 4F0#0000AE0000121402
(1487086752.301914) can0 220#F40300000000DA0F
(1487086752.301915) can0 164#000800000000050D
(1487086752.301915) can0 4F1#CCFF000000000000
(1487086752.305097) can0 165#08F87F000000018E
(1487086752.306170) can0 2B0#1E000007B3
(1487086752.306171) can0 153#200000FF00FFA0BE
(1487086752.307247) can0 2C0#0000000000000000
(1487086752.308366) can0 316#452FF4113034007F
(1487086752.308367) can0 080#0017F4112F343017
(1487086752.309459) can0 081#7F00000000000037
(1487086752.309460) can0 18F#FE5A300000720000
(1487086752.309461) can0 260#05300030FFB97336
(1487086752.309461) can0 2A0#62005D986D12A900
(1487086752.309461) can0 329#4F60810C112F0010
(1487086752.310539) can0 545#D82F008BD1FFD4FF
(1487086752.311665) can0 220#F40300000000ED0F
(1487086752.311666) can0 164#000800000000060E
(1487086752.311666) can0 1F1#0000000000000000
(1487086752.311667) can0 5F0#0100
(1487086752.314626) can0 165#070880000000028D
(1487086752.315706) can0 2B0#1E000007C4
(1487086752.316789) can0 153#200000FF00FFB0CE
(1487086752.316790) can0 4B0#0080004000000000
(1487086752.317870) can0 2C0#0000000000000000
(1487086752.318982) can0 316#452FF6113034007F
(1487086752.318983) can0 080#0017F6112F3430E8
(1487086752.318984) can0 081#7F00000000000028
(1487086752.318984) can0 18F#FE5A300000720000
(1487086752.318985) can0 260#05300030FFB97309
(1487086752.320067) can0 2A0#02005D986D12A900
(1487086752.320068) can0 329#4F60810C112F0010
(1487086752.320069) can0 545#D82F008AD1FFD4FF
(1487086752.321167) can0 4F0#0000B00000121402
(1487086752.322250) can0 220#F40300000000CD0F
(1487086752.322251) can0 164#000800000000070F
(1487086752.322252) can0 4F1#CCFF000000000000
(1487086752.324124) can0 165#0808800000000383
(1487086752.325206) can0 2B0#1D000007E5
(1487086752.326290) can0 153#200000FF00FFC0DE
(1487086752.327293) can0 2C0#0000000000000000
(1487086752.328425) can0 316#452FF8113034007F
(1487086752.328426) can0 080#0017F8112F3430B9
(1487086752.329565) can0 081#7F00000000000019
(1487086752.329566) can0 18F#FE5B300000720000
(1487086752.329566) can0 260#05300030FFB97318
(1487086752.329567) can0 0A0#5F41F41100260001
(1487086752.329568) can0 0A1#808080802E000000
(1487086752.330644) can0 2A0#A2005D986D12A900
(1487086752.330645) can0 329#4F60810C112F0010
(1487086752.330645) can0 545#D82F008BD1FFD4FF
(1487086752.331734) can0 220#F40300000000D40F
(1487086752.331736) can0 164#0008000000000800
(1487086752.331736) can0 1F1#0000000000000000
(1487086752.333809) can0 165#070880000000048B
(1487086752.334894) can0 2B0#1E000007E6
(1487086752.336002) can0 153#200000FF00FFD0EE
(1487086752.337110) can0 4B0#00C0004000000000
(1487086752.337111) can0 2C0#0000000000000000
(1487086752.338771) can0 316#452FF8113034007F
(1487086752.339845) can0 080#0017F8112F3430AA
(1487086752.339846) can0 081#7F0000000000000A
(1487086752.339847) can0 18F#FE5B300000720000
(1487086752.339847) can0 260#05300030FFB97327
(1487086752.341018) can0 2A0#C2005D986D12A900
(1487086752.341019) can0 329#4F61810C112F0010
(1487086752.341020) can0 545#D832008BD0FFD4FF
(1487086752.341020) can0 220#F40300000000E60F
(1487086752.342110) can0 164#0008000000000901
(1487086752.342111) can0 4F0#0000B20000121402
(1487086752.342112) can0 4F1#CCFF000000000000
(1487086752.343348) can0 165#0808800000000585
(1487086752.344456) can0 2B0#1D000007C7
(1487086752.345996) can0 153#200000FF00FFE0FE
(1487086752.347123) can0 2C0#0000000000000000
(1487086752.348210) can0 316#452FFE112F34007F
(1487086752.348211) can0 080#0017FE112F342F5B
(1487086752.349311) can0 081#7F000000000000FB
(1487086752.349317) can0 18F#FE5B2F0000720000
(1487086752.349317) can0 260#052F0030FFB97338
(1487086752.349318) can0 2A0#62005D986D12A900
(1487086752.350391) can0 329#4F61810C112F0010
(1487086752.350392) can0 545#D832008AD0FFD0FF
(1487086752.351498) can0 220#F40300000000F30F
(1487086752.351499) can0 164#0008000000000A02
(1487086752.351499) can0 1F1#0000000000000000
(1487086752.352940) can0 165#08F87F0000000689
(1487086752.353997) can0 2B0#1D00000738
(1487086752.356003) can0 153#200000FF00FF001E
(1487086752.357110) can0 4B0#0000008000000000
(1487086752.358210) can0 2C0#0000000000000000
(1487086752.358211) can0 316#452FFE112F34007F
(1487086752.358212) can0 080#0017FE112F342F4C
(1487086752.359264) can0 081#7F000000000000EC
(1487086752.359265) can0 18F#FE5B2F0000720000
(1487086752.359265) can0 260#052F0030FFB9730B
(1487086752.359266) can0 2A0#02005D986D12A900
(1487086752.360417) can0 329#8461810C112F0010
(1487086752.360418) can0 545#D832008BD1FFD1FF
(1487086752.360418) can0 5F0#0100
(1487086752.361483) can0 4F0#0000B40000121402
(1487086752.361484) can0 4F1#CCFF000000000000
(1487086752.361484) can0 220#F40300000000D40F
(1487086752.361484) can0 164#0008000000000B03
(1487086752.362579) can0 690#4000400000200800
(1487086752.362580) can0 165#07F87F0000000787
(1487086752.363663) can0 2B0#1E00000719
(1487086752.365994) can0 153#200000FF00FF102E
(1487086752.367125) can0 2C0#0000000000000000
(1487086752.368209) can0 316#452FF6112F34007F
(1487086752.369309) can0 080#0017F6112F342FBD
(1487086752.369311) can0 081#7F000000000000DD
(1487086752.369311) can0 18F#FE5B2F0000720000
(1487086752.369311) can0 260#052F0030FFB9731A
(1487086752.369312) can0 2A0#A2005D986D12A900
(1487086752.370379) can0 329#8461810C112F0010
(1487086752.370380) can0 545#D832008AD2FFD3FF
(1487086752.371500) can0 220#F40300000000CD0F
(1487086752.371501) can0 164#0008000000000C04
(1487086752.371501) can0 1F1#0000000000000000
(1487086752.372586) can0 165#0808800000000888
(1487086752.372587) can0 2B0#1D0000071A
(1487086752.375991) can0 153#200000FF00FF203E
(1487086752.377110) can0 4B0#0040008000000000
(1487086752.377111) can0 2C0#0000000000000000
(1487086752.378185) can0 316#452FF8112F34007F
(1487086752.379294) can0 080#0017F8112F342F8E
(1487086752.379295) can0 081#7F000000000000CE
(1487086752.379296) can0 18F#FE5B2F0000720000
(1487086752.379296) can0 260#052F0030FFB97329
(1487086752.379296) can0 2A0#C2005D986D12A900
(1487086752.380398) can0 329#8461810C112F0010
(1487086752.380399) can0 545#D832008CD2FFD3FF
(1487086752.381485) can0 4F0#0000B60000121402
(1487086752.381486) can0 4F1#CCFF000000000000
(1487086752.381486) can0 220#F40300000000C70F
(1487086752.381487) can0 164#0008000000000D05
(1487086752.382567) can0 165#0808800000000989
(1487086752.382568) can0 2B0#1E0000073B
(1487086752.386003) can0 153#200000FF00FF304E
(1487086752.387081) can0 2C0#0000000000000000
(1487086752.388169) can0 316#452FF8112F34007F
(1487086752.389291) can0 2A0#62005D986D12A900
(1487086752.389292) can0 260#052F0030FFB97338
(1487086752.389292) can0 080#0017F8112F342F7F
(1487086752.389292) can0 081#7F000000000000BF
(1487086752.390374) can0 18F#FE5B2F0000720000
(1487086752.390375) can0 329#8461810C112F0010
(1487086752.390376) can0 545#D832008BD2FFD3FF
(1487086752.391498) can0 220#F40300000000CD0F
(1487086752.391499) can0 164#0008000000000E06
(1487086752.391504) can0 1F1#0000000000000000
(1487086752.392586) can0 2B0#1D0000077C
(1487086752.392587) can0 165#08F87F0000000A85
(1487086752.395771) can0 5E4#000000
(1487086752.396858) can0 153#200000FF00FF405E
(1487086752.396859) can0 4B0#0080008000000000
(1487086752.397935) can0 2C0#0000000000000000
(1487086752.399019) can0 316#452FFE112F34007F
(1487086752.399021) can0 18F#FE5B2F0000720000
(1487086752.399021) can0 080#0017FE112F342F00
(1487086752.400128) can0 081#7F000000000000A0
(1487086752.400129) can0 260#052F0030FFB9730B
(1487086752.400129) can0 2A0#02005D986D12A900
(1487086752.400129) can0 329#8461810C112F0010
(1487086752.400130) can0 545#D832008AD1FFD0FF
(1487086752.401218) can0 165#0708800000000B84
(1487086752.401219) can0 2B0#1E0000075D
(1487086752.401220) can0 220#F40300000000E00F
(1487086752.402313) can0 164#0008000000000F07
(1487086752.402314) can0 4F0#0000B80000121402
(1487086752.402314) can0 4F1#CCFF000000000000
(1487086752.406006) can0 153#200000FF00FF506E
(1487086752.407079) can0 2C0#0000000000000000
(1487086752.408119) can0 5F0#0100
(1487086752.408120) can0 316#452FFE112F34007F
(1487086752.409288) can0 080#0017FE112F342FF1
(1487086752.409289) can0 081#7F00000000000091
(1487086752.409289) can0 18F#FE5B2F0000720000
(1487086752.409290) can0 260#052F0030FFB9731A
(1487086752.409290) can0 2A0#A2005D986D12A900
(1487086752.410393) can0 329#8461810C112F0010
(1487086752.410394) can0 545#D832008BD1FFD0FF
(1487086752.410394) can0 165#0808800000000C8C
(1487086752.411499) can0 2B0#1E0000076E
(1487086752.411500) can0 220#F40300000000ED0F
(1487086752.411501) can0 164#0008000000000008
(1487086752.411501) can0 1F1#0000000000000000
(1487086752.416006) can0 153#200000FF00FF607E
(1487086752.417109) can0 4B0#00C0008000000000
(1487086752.417110) can0 2C0#0000000000000000
(1487086752.418169) can0 316#452FF6112F34007F
(1487086752.419291) can0 080#0017F6112F342F62
(1487086752.419292) can0 081#7F00000000000082
(1487086752.419292) can0 18F#FE5B2F0000720000
(1487086752.419293) can0 260#052F0030FFB97329
(1487086752.419293) can0 2A0#C2005D986D12A900
(1487086752.420392) can0 329#D761810C112F0010
(1487086752.420393) can0 545#D832008AD1FFD2FF
(1487086752.420394) can0 165#0808800000000D8D
(1487086752.420394) can0 2B0#1D0000074F
(1487086752.421468) can0 4F0#0000BA0000121402
(1487086752.421469) can0 220#F40300000000F30F
(1487086752.421469) can0 164#0008000000000109
(1487086752.422545) can0 4F1#CCFF000000000000
(1487086752.425998) can0 153#200000FF00FF708E
(1487086752.427110) can0 2C0#0000000000000000
(1487086752.428170) can0 316#452FF6112F34007F
(1487086752.428171) can0 080#0017F6112F342F53
(1487086752.429289) can0 081#7F00000000000073
(1487086752.429291) can0 18F#FE5B2F0000720000
(1487086752.429291) can0 260#052F0030FFB97338
(1487086752.429291) can0 2A0#62005D986D12A900
(1487086752.430395) can0 329#D761810C112F0010
(1487086752.430396) can0 165#0808800000000E8E
(1487086752.430397) can0 2B0#1E00000780
(1487086752.430397) can0 545#D832008BD1FFD2FF
(1487086752.431484) can0 220#F40300000000E00F
(1487086752.431485) can0 0A0#5F41F41100260001
(1487086752.431485) can0 0A1#808080802E000000
(1487086752.432583) can0 164#000800000000020A
(1487086752.432585) can0 1F1#0000000000000000
(1487086752.436001) can0 153#200000FF00FF809E
(1487086752.437111) can0 4B0#000000C000000000
(1487086752.437117) can0 2C0#0000000000000000
(1487086752.438187) can0 316#452FF6112F34007F
(1487086752.438188) can0 080#0017F6112F342F44
(1487086752.439292) can0 081#7F00000000000064
(1487086752.439293) can0 18F#FE5B2F0000720000
(1487086752.439293) can0 260#052F0030FFB9730B
(1487086752.439294) can0 165#0708800000000F80
(1487086752.440346) can0 2A0#02005D986D12A900
(1487086752.440347) can0 2B0#1E00000791
(1487086752.440348) can0 329#D761810C112F0010
(1487086752.440348) can0 545#D82F008BD0FFD1FF
(1487086752.441496) can0 4F0#0000BC0000121402
(1487086752.441498) can0 220#F40300000000ED0F
(1487086752.441498) can0 164#000800000000030B
(1487086752.442562) can0 4F1#CCFF000000000000
(1487086752.445999) can0 153#200000FF00FF90AE
(1487086752.447044) can0 2C0#0000000000000000
(1487086752.448138) can0 316#452FFC112F34007F
(1487086752.449254) can0 080#0017FC112F342FD5
(1487086752.449255) can0 081#7F00000000000055
(1487086752.449255) can0 18F#FE5B2F0000720000
(1487086752.449256) can0 260#052F0030FFB9731A
(1487086752.449256) can0 2A0#A2005D986D12A900
(1487086752.450345) can0 2B0#1E000007A2
(1487086752.450346) can0 165#0808800000000080
(1487086752.450347) can0 329#D761810C112F0010
(1487086752.450347) can0 545#D82F008BD0FFD1FF
(1487086752.451517) can0 220#F40300000000E00F
(1487086752.451518) can0 164#000800000000040C
(1487086752.451519) can0 1F1#0000000000000000
(1487086752.455460) can0 5F0#0100
(1487086752.456473) can0 153#200000FF00FFA0BE
(1487086752.456474) can0 4B0#004000C000000000
(1487086752.457612) can0 2C0#0000000000000000
(1487086752.458705) can0 165#0808800000000181
(1487086752.458706) can0 260#052F0030FFB97329
(1487086752.458706) can0 18F#FE5B2F0000720000
(1487086752.459835) can0 080#0017FA112F342FE6
(1487086752.459836) can0 081#7F00000000000046
(1487086752.459837) can0 2A0#C2005D986D12A900
(1487086752.459837) can0 2B0#1D00000783
(1487086752.459837) can0 316#452FFA112F34007F
(1487086752.460889) can0 329#D761810C112F0010
(1487086752.460890) can0 545#D82F008CD0FFD1FF
(1487086752.460890) can0 4F0#0000BE0000121402
(1487086752.462041) can0 220#F40300000000DA0F
(1487086752.462043) can0 164#000800000000050D
(1487086752.462043) can0 4F1#CCFF000000000000
(1487086752.462044) can0 690#4000400000200C00
(1487086752.465999) can0 153#200000FF00FFB0CE
(1487086752.467080) can0 2C0#0000000000000000
(1487086752.468173) can0 165#0808800000000282
(1487086752.468174) can0 2B0#1D000007F4
(1487086752.469280) can0 316#452FFA112F34007F
(1487086752.469281) can0 080#0017FA112F342FD7
(1487086752.469282) can0 081#7F00000000000037
(1487086752.470395) can0 18F#FE5B2F0000720000
(1487086752.470396) can0 260#052F0030FFB97338
(1487086752.470397) can0 2A0#62005D986D12A900
(1487086752.470397) can0 329#D761810C112F0010
(1487086752.470397) can0 545#D82F008AD0FFD1FF
(1487086752.471502) can0 220#F40300000000D40F
(1487086752.471503) can0 164#000800000000060E
(1487086752.471503) can0 1F1#0000000000000000
(1487086752.476027) can0 153#200000FF00FFC0DE
(1487086752.477111) can0 4B0#008000C000000000
(1487086752.477112) can0 2C0#0000000000000000
(1487086752.478155) can0 165#0808800000000383
(1487086752.478156) can0 2B0#1D000007E5
(1487086752.478157) can0 316#452FF4112F34007F
(1487086752.478157) can0 080#0017F4112F342F28
(1487086752.479333) can0 081#7F00000000000028
(1487086752.479334) can0 18F#FE5B2F0000720000
(1487086752.479339) can0 260#052F0030FFB9730B
(1487086752.479340) can0 2A0#02005D986D12A900
(1487086752.480422) can0 329#0F61810C112F0010
(1487086752.480423) can0 545#D82F008AD0FFD2FF
(1487086752.481502) can0 4F0#0000C00000121402
(1487086752.481503) can0 4F1#CCFF000000000000
(1487086752.481503) can0 220#F40300000000E00F
(1487086752.481503) can0 164#000800000000070F
(1487086752.486007) can0 153#200000FF00FFD0EE
(1487086752.487122) can0 165#0808800000000484
(1487086752.487123) can0 2B0#1D000007D6
(1487086752.488191) can0 2C0#0000000000000000
(1487086752.488192) can0 316#452FF4112F35007F
(1487086752.489298) can0 080#0017F4112F352F09
(1487086752.489299) can0 081#7F00000000000019
(1487086752.489299) can0 18F#FE5B2F0000720000
(1487086752.489301) can0 260#052F0030FFB9731A
(1487086752.489301) can0 2A0#A2005D986D12A900
(1487086752.490395) can0 329#0F61810C112F0010
(1487086752.490396) can0 545#D82F008BCEFFD0FF
(1487086752.491499) can0 220#F40300000000CD0F
(1487086752.491500) can0 164#0008000000000800
(1487086752.492563) can0 1F1#0000000000000000
(1487086752.496005) can0 153#200000FF00FFE0FE
(1487086752.497125) can0 4B0#0000000000000000
(1487086752.497126) can0 5E4#000000
(1487086752.497126) can0 2B0#1D000007C7
(1487086752.497126) can0 165#0808800000000585
(1487086752.497127) can0 2C0#0000000000000000
(1487086752.498208) can0 316#4530E6113035007F
(1487086752.499332) can0 080#0017E611303530AA
(1487086752.499333) can0 081#7F0000000000000A
(1487086752.499333) can0 18F#FE5B300000720000
(1487086752.499333) can0 260#05300030FFB97525
(1487086752.499334) can0 2A0#C2005D986D12A900
(1487086752.500398) can0 329#0F61810C112F0010
(1487086752.500399) can0 545#D82F008BD5FFD7FF
(1487086752.501517) can0 4F0#0000C20000121402
(1487086752.501518) can0 220#F40300000000E00F
(1487086752.501519) can0 164#0008000000000901
(1487086752.501519) can0 4F1#CCFF000000000000
(1487086752.503460) can0 5F0#0100
(1487086752.505891) can0 165#0808800000000686
(1487086752.507044) can0 153#200000FF00FF001E
(1487086752.507045) can0 2B0#1E00000708
(1487086752.508121) can0 2C0#0000000000000000
(1487086752.508122) can0 316#4530E4113034007F
(1487086752.508122) can0 080#0017E411303430CB
(1487086752.509271) can0 081#7F000000000000FB
(1487086752.509272) can0 18F#FE5B300000720000
(1487086752.509272) can0 260#05300030FFB97534
(1487086752.509273) can0 2A0#62005D986D12A900
(1487086752.510360) can0 329#0F61810C112F0010
(1487086752.510361) can0 545#D82F008CD8FFDAFF
(1487086752.511462) can0 220#F40300000000CD0F
(1487086752.511463) can0 164#0008000000000A02
(1487086752.512547) can0 1F1#0000000000000000
(1487086752.515502) can0 165#0708800000000788
(1487086752.516588) can0 2B0#1D00000729
(1487086752.516589) can0 153#200000FF00FF102E
(1487086752.516589) can0 4B0#0040000000000000
(1487086752.517668) can0 2C0#0000000000000000
(1487086752.518748) can0 316#4530E4113034007F
(1487086752.518750) can0 080#0017E411303430BC
(1487086752.518750) can0 081#7F000000000000EC
(1487086752.518751) can0 18F#FE5B300000720000
(1487086752.519849) can0 260#05300030FFB97507
(1487086752.519850) can0 2A0#02005D986D12A900
(1487086752.519850) can0 329#0F61810C112F0010
(1487086752.519851) can0 545#D82F0089D8FFDAFF
(1487086752.520920) can0 4F0#0000C40000121402
(1487086752.521955) can0 220#F40300000000D40F
(1487086752.521956) can0 164#0008000000000B03
(1487086752.521960) can0 4F1#CCFF000000000000
(1487086752.525073) can0 165#0808800000000888
(1487086752.526146) can0 2B0#1D0000071A
(1487086752.526147) can0 153#200000FF00FF203E
(1487086752.527237) can0 2C0#0000000000000000
(1487086752.528407) can0 316#4530E6113034007F
(1487086752.529451) can0 260#05300030FFB97516
(1487086752.529452) can0 080#0017E6113034308D
(1487086752.529452) can0 081#7F000000000000DD
(1487086752.529453) can0 0A0#5E41F41100260001
(1487086752.530613) can0 0A1#808080802E000000
(1487086752.530614) can0 18F#FE5B300000720000
(1487086752.530615) can0 2A0#A2005D986D12A900
(1487086752.530615) can0 329#0F61810C112F0010
(1487086752.530615) can0 545#D82F008BD7FFDAFF
(1487086752.531694) can0 220#F40300000000C70F
(1487086752.531695) can0 164#0008000000000C04
(1487086752.531696) can0 1F1#0000000000000000
(1487086752.534649) can0 165#0708800000000986
(1487086752.535737) can0 2B0#1E0000073B
(1487086752.536798) can0 153#200000FF00FF304E
(1487086752.536799) can0 4B0#0080000000000000
(1487086752.537864) can0 2C0#0000000000000000
(1487086752.538979) can0 316#4530E8113034007F
(1487086752.538981) can0 080#0017E8113034305E
(1487086752.538981) can0 081#7F000000000000CE
(1487086752.538981) can0 18F#FE5B300000720000
(1487086752.540087) can0 260#05300030FFB97525
(1487086752.540088) can0 2A0#C2005D986D12A900
(1487086752.540089) can0 329#4F61810C112F0010
(1487086752.540089) can0 545#D831008BD7FFDAFF
(1487086752.541189) can0 220#F40300000000CD0F
(1487086752.542295) can0 164#0008000000000D05
(1487086752.542296) can0 4F0#0000C60000121402
(1487086752.542296) can0 4F1#CCFF000000000000
(1487086752.544211) can0 165#0718800000000A95
(1487086752.545271) can0 2B0#1E0000074C
(1487086752.546363) can0 153#200000FF00FF405E
(1487086752.547424) can0 2C0#0000000000000000
(1487086752.548522) can0 316#4530F4113034007F
(1487086752.548523) can0 080#0017F4113034307F
(1487086752.549648) can0 081#7F000000000000BF
(1487086752.549649) can0 18F#FE5B300000720000
(1487086752.549649) can0 260#05300030FFB97534
(1487086752.549650) can0 2A0#62005D986D12A900
(1487086752.549650) can0 329#4F61810C112F0010
(1487086752.550706) can0 545#D831008AD7FFD6FF
(1487086752.551817) can0 220#F40300000000D40F
(1487086752.551819) can0 164#0008000000000E06
(1487086752.551819) can0 1F1#0000000000000000
(1487086752.551819) can0 5F0#0100
(1487086752.553772) can0 165#0808800000000B8B
(1487086752.554843) can0 2B0#1D0000076D
(1487086752.556024) can0 153#200000FF00FF506E
(1487086752.557113) can0 4B0#00C0000000000000
(1487086752.557114) can0 2C0#0000000000000000
(1487086752.558211) can0 316#4530FA113034007F
(1487086752.559312) can0 080#0017FA1130343000
(1487086752.559313) can0 081#7F000000000000A0
(1487086752.559313) can0 18F#FE5B300000720000
(1487086752.559314) can0 260#05300030FFB97507
(1487086752.559314) can0 2A0#02005D986D12A900
(1487086752.560400) can0 329#4F61810C112F0010
(1487086752.560401) can0 545#D831008BD7FFD6FF
(1487086752.561488) can0 4F0#0000C80000121402
(1487086752.561489) can0 4F1#CCFF000000000000
(1487086752.561489) can0 220#F40300000000D40F
(1487086752.561490) can0 164#0008000000000F07
(1487086752.562565) can0 690#4000400000201000
(1487086752.563647) can0 165#0808800000000C8C
(1487086752.563648) can0 2B0#1D0000075E
(1487086752.566021) can0 153#200000FF00FF607E
(1487086752.567113) can0 2C0#0000000000000000
(1487086752.568174) can0 316#4530FA113034007F
(1487086752.569290) can0 080#0017FA11303430F1
(1487086752.569292) can0 081#7F00000000000091
(1487086752.569292) can0 18F#FE5B300000720000
(1487086752.569292) can0 260#05300030FFB97516
(1487086752.570347) can0 2A0#A2005D986D12A900
(1487086752.570348) can0 329#4F61810C112F0010
(1487086752.570349) can0 545#D831008AD7FFD6FF
(1487086752.571483) can0 220#F40300000000E00F
(1487086752.571484) can0 164#0008000000000008
(1487086752.572566) can0 1F1#0000000000000000
(1487086752.573647) can0 165#0808800000000D8D
(1487086752.573649) can0 2B0#1D0000074F
(1487086752.576024) can0 153#200000FF00FF708E
(1487086752.577107) can0 4B0#0000004000000000
(1487086752.577108) can0 2C0#0000000000000000
(1487086752.578192) can0 316#452F0A122F34007F
(1487086752.579313) can0 080#00170A122F342F02
(1487086752.579315) can0 081#7F00000000000082
(1487086752.579315) can0 18F#FE5B2F0000720000
(1487086752.579315) can0 260#052F0030FFB97329
(1487086752.579316) can0 2A0#C2005D986D12A900
(1487086752.580402) can0 329#4F61810C112F0010
(1487086752.580403) can0 545#D831008BCEFFCDFF
(1487086752.581485) can0 4F0#0000CA0000121402
(1487086752.581486) can0 4F1#CCFF000000000000
(1487086752.581487) can0 220#F40300000000DA0F
(1487086752.581487) can0 164#0008000000000109
(1487086752.582565) can0 165#0708800000000E81
(1487086752.583650) can0 2B0#1E00000780
(1487086752.586031) can0 153#200000FF00FF809E
(1487086752.587121) can0 2C0#0000000000000000
(1487086752.588205) can0 316#452F0C122F34007F
(1487086752.588206) can0 080#00170C122F342FD3
(1487086752.589324) can0 081#7F00000000000073
(1487086752.589325) can0 18F#FE5B2F0000720000
(1487086752.589326) can0 260#052F0030FFB97338
(1487086752.589326) can0 2A0#62005D986D12A900
(1487086752.589326) can0 329#4F61810C112F0010
(1487086752.590392) can0 545#D831008BCEFFCDFF
(1487086752.591510) can0 220#F40300000000E00F
(1487086752.591511) can0 164#000800000000020A
(1487086752.592598) can0 1F1#0000000000000000
(1487086752.592599) can0 165#0708800000000F80
(1487086752.592599) can0 2B0#1D000007A1
(1487086752.596038) can0 153#200000FF00FF90AE
(1487086752.597123) can0 4B0#0040004000000000
(1487086752.597124) can0 5E4#000000
(1487086752.597125) can0 2C0#0000000000000000
(1487086752.598680) can0 316#452E0C122F34007F
(1487086752.599806) can0 080#00170C122E342FD4
(1487086752.599807) can0 081#7F00000000000064
(1487086752.599807) can0 18F#FE5B2F0000720000
(1487086752.599808) can0 260#052F0030FFB9710D
(1487086752.600887) can0 2A0#02005D986D12A900
(1487086752.600888) can0 329#8461810C112F0010
(1487086752.600888) can0 545#D831008AC4FFCDFF
(1487086752.600889) can0 5F0#0100
(1487086752.600889) can0 4F0#0000CC0000121402
(1487086752.602012) can0 220#F40300000000E00F
(1487086752.602013) can0 164#000800000000030B
(1487086752.602013) can0 4F1#CCFF000000000000
(1487086752.602013) can0 165#0808800000000080
(1487086752.602014) can0 2B0#1E000007A2
(1487086752.606033) can0 153#200000FF00FFA0BE
(1487086752.607123) can0 2C0#0000000000000000
(1487086752.608202) can0 316#452E18122E34007F
(1487086752.609327) can0 080#001718122E342E05
(1487086752.609328) can0 081#7F00000000000055
(1487086752.609329) can0 18F#FE5B2E0000720000
(1487086752.609329) can0 260#052E0030FFB9711D
(1487086752.609329) can0 2A0#A2005D986D12A900
(1487086752.610407) can0 329#8461810C112F0010
(1487086752.610413) can0 545#D8310089C4FFC9FF
(1487086752.611491) can0 220#F40300000000C70F
(1487086752.611492) can0 164#000800000000040C
(1487086752.612627) can0 1F1#0000000000000000
(1487086752.612628) can0 2B0#1D00000783
(1487086752.612629) can0 165#08F87F000000018E
(1487086752.616034) can0 153#200000FF00FFB0CE
(1487086752.617125) can0 4B0#0080004000000000
(1487086752.617126) can0 2C0#0000000000000000
(1487086752.618197) can0 316#452E18122E34007F
(1487086752.619321) can0 080#001718122E342EF6
(1487086752.619322) can0 081#7F00000000000046
(1487086752.619322) can0 18F#FE5B2E0000720000
(1487086752.619322) can0 260#052E0030FFB9712C
(1487086752.619323) can0 2A0#C2005D986D12A900
(1487086752.620411) can0 329#8461810C112F0010
(1487086752.620412) can0 545#D831008AC4FFC9FF
(1487086752.621442) can0 165#070880000000028D
(1487086752.621443) can0 2B0#1D000007F4
(1487086752.621443) can0 220#F40300000000C70F
(1487086752.621444) can0 164#000800000000050D
(1487086752.622520) can0 4F0#0000CE0000121402
(1487086752.622521) can0 4F1#CCFF000000000000
(1487086752.625977) can0 153#200000FF00FFC0DE
(1487086752.627035) can0 2C0#0000000000000000
(1487086752.628122) can0 316#452E20122E34007F
(1487086752.628123) can0 080#001720122E342E57
(1487086752.629233) can0 081#7F00000000000037
(1487086752.629245) can0 18F#FE5B2E0000720000
(1487086752.629245) can0 260#052E0030FFB9713B
(1487086752.629245) can0 2A0#62005D986D12A900
(1487086752.630348) can0 329#8461810C112F0010
(1487086752.630350) can0 545#D831008CC5FFC4FF
(1487086752.630350) can0 0A0#5E41F41100260001
(1487086752.630350) can0 0A1#808080802E000000
(1487086752.630351) can0 165#0808800000000383
(1487086752.631455) can0 2B0#1E000007D5
(1487086752.631456) can0 220#F40300000000D40F
(1487086752.631456) can0 164#000800000000060E
(1487086752.632517) can0 1F1#0000000000000000
(1487086752.635977) can0 153#200000FF00FFD0EE
(1487086752.637052) can0 4B0#00C0004000000000
(1487086752.637053) can0 2C0#0000000000000000
(1487086752.638132) can0 316#452E18122E34007F
(1487086752.638132) can0 080#001718122E342ED8
(1487086752.639253) can0 081#7F00000000000028
(1487086752.639254) can0 18F#FE5B2E0000720000
(1487086752.639255) can0 260#052E0030FFB9710E
(1487086752.639265) can0 2A0#02005D986D12A900
(1487086752.640371) can0 329#8461810C112F0010
(1487086752.640372) can0 545#D82F008CC5FFC4FF
(1487086752.640372) can0 165#070880000000048B
(1487086752.640373) can0 2B0#1D000007D6
(1487086752.641440) can0 4F0#0000D00000121402
(1487086752.641440) can0 220#F40300000000ED0F
(1487086752.641451) can0 164#000800000000070F
(1487086752.642524) can0 4F1#CCFF000000000000
(1487086752.645998) can0 153#200000FF00FFE0FE
(1487086752.647030) can0 2C0#0000000000000000
(1487086752.648133) can0 5F0#0100
(1487086752.648145) can0 316#452E18122E34007F
(1487086752.649253) can0 080#001718122E342EC9
(1487086752.649254) can0 081#7F00000000000019
(1487086752.649254) can0 18F#FE5B2E0000720000
(1487086752.649266) can0 260#052E0030FFB9711D
(1487086752.649266) can0 2A0#A2005D986D12A900
(1487086752.650341) can0 165#070880000000058A
(1487086752.650342) can0 2B0#1D000007C7
(1487086752.650342) can0 329#8461810C112F0010
(1487086752.650342) can0 545#D82F0089C5FFC4FF
(1487086752.651467) can0 220#F40300000000F90F
(1487086752.651468) can0 164#0008000000000800
(1487086752.652599) can0 1F1#0000000000000000
(1487086752.656039) can0 153#200000FF00FF001E
(1487086752.657124) can0 4B0#0000008000000000
(1487086752.657125) can0 2C0#0000000000000000
(1487086752.658405) can0 316#452EFC112E34007F
(1487086752.659514) can0 18F#FE5B2E0000720000
(1487086752.659515) can0 080#0017FC112E342EAA
(1487086752.659515) can0 081#7F0000000000000A
(1487086752.659516) can0 260#052E0030FFB9712C
(1487086752.660588) can0 2A0#C2005D986D12A900
(1487086752.660589) can0 2B0#1D00000738
(1487086752.660589) can0 165#0808800000000686
(1487086752.660590) can0 329#D761810C112F0010
(1487086752.660590) can0 545#D82F008BC5FFCBFF
(1487086752.661757) can0 4F0#0000D20000121402
(1487086752.661758) can0 220#F40300000000E60F
(1487086752.661759) can0 164#0008000000000901
(1487086752.661759) can0 4F1#CCFF000000000000
(1487086752.662805) can0 690#4000400000201400
(1487086752.666058) can0 153#200000FF00FF102E
(1487086752.667137) can0 2C0#0000000000000000
(1487086752.668221) can0 316#452EF8112E34007F
(1487086752.668222) can0 080#0017F8112E342EDB
(1487086752.669320) can0 081#7F000000000000FB
(1487086752.669322) can0 165#0808800000000787
(1487086752.669322) can0 18F#FE5B2E0000720000
(1487086752.669322) can0 260#052E0030FFB9713B
(1487086752.670429) can0 2A0#62005D986D12A900
(1487086752.670430) can0 2B0#1D00000729
(1487086752.670430) can0 329#D761810C112F0010
(1487086752.670431) can0 545#D82F008BC5FFCBFF
(1487086752.671533) can0 220#F40300000000DA0F
(1487086752.671534) can0 164#0008000000000A02
(1487086752.671535) can0 1F1#0000000000000000
(1487086752.676061) can0 153#200000FF00FF203E
(1487086752.677135) can0 4B0#0040008000000000
(1487086752.677137) can0 2C0#0000000000000000
(1487086752.678235) can0 165#0808800000000888
(1487086752.678236) can0 2B0#1D0000071A
(1487086752.679353) can0 316#452FFE112F34007F
(1487086752.679354) can0 080#0017FE112F342F4C
(1487086752.679354) can0 081#7F000000000000EC
(1487086752.679355) can0 18F#FE5B2F0000720000
(1487086752.680433) can0 260#052F0030FFB9730B
(1487086752.680434) can0 2A0#02005D986D12A900
(1487086752.680434) can0 329#D761810C112F0010
(1487086752.680435) can0 545#D82F008BCEFFCEFF
(1487086752.681535) can0 4F0#0000D40000121402
(1487086752.681536) can0 4F1#CCFF000000000000
(1487086752.681536) can0 220#F40300000000E00F
(1487086752.681537) can0 164#0008000000000B03
(1487086752.686039) can0 153#200000FF00FF304E
(1487086752.687125) can0 2C0#0000000000000000
(1487086752.688208) can0 165#0808800000000989
(1487086752.688209) can0 2B0#1E0000073B
(1487086752.688209) can0 316#452FF8112F34007F
(1487086752.689326) can0 080#0017F8112F342F9D
(1487086752.689328) can0 081#7F000000000000DD
(1487086752.689328) can0 18F#FE5B2F0000720000
(1487086752.689328) can0 260#052F0030FFB9731A
(1487086752.689329) can0 2A0#A2005D986D12A900
(1487086752.690409) can0 329#D761810C112F0010
(1487086752.690410) can0 545#D82F008ACEFFCEFF
(1487086752.691513) can0 220#F40300000000DA0F
(1487086752.691514) can0 164#0008000000000C04
(1487086752.692579) can0 1F1#0000000000000000
(1487086752.695473) can0 5F0#0100
(1487086752.696557) can0 153#200000FF00FF405E
(1487086752.696559) can0 4B0#0080008000000000
(1487086752.697641) can0 2C0#0000000000000000
(1487086752.697642) can0 5E4#000000
(1487086752.697642) can0 2B0#1D0000077C
(1487086752.697642) can0 165#0808800000000A8A
(1487086752.698703) can0 316#452FF8112F34007F
(1487086752.698709) can0 080#0017F8112F342F8E
(1487086752.698709) can0 081#7F000000000000CE
(1487086752.699784) can0 18F#FE5B2F0000720000
(1487086752.699786) can0 260#052F0030FFB97329
(1487086752.699786) can0 2A0#C2005D986D12A900
(1487086752.699786) can0 329#D761810C112F0010
(1487086752.699787) can0 545#D82F008BCEFFCEFF
(1487086752.700909) can0 4F0#0000D60000121402
(1487086752.702003) can0 220#F40300000000D40F
(1487086752.702004) can0 164#0008000000000D05
(1487086752.702005) can0 4F1#CCFF000000000000
(1487086752.706043) can0 153#200000FF00FF506E
(1487086752.707159) can0 165#0808800000000B8B
(1487086752.707161) can0 2B0#1D0000076D
(1487086752.707161) can0 2C0#0000000000000000
(1487086752.708253) can0 316#4530EC112F34007F
(1487086752.708254) can0 080#0017EC1130342F2F
(1487086752.709386) can0 081#7F000000000000BF
(1487086752.709387) can0 18F#FE5B2F0000720000
(1487086752.709388) can0 260#052F0030FFB97536
(1487086752.709388) can0 2A0#62005D986D12A900
(1487086752.709388) can0 329#D761810C112F0010
(1487086752.710448) can0 545#D82F008BD3FFD3FF
(1487086752.711555) can0 220#F40300000000ED0F
(1487086752.711556) can0 164#0008000000000E06
(1487086752.711557) can0 1F1#0000000000000000
(1487086752.715992) can0 153#200000FF00FF607E
(1487086752.717137) can0 4B0#00C0008000000000
(1487086752.717138) can0 165#0708800000000C83
(1487086752.717138) can0 2B0#1D0000075E
(1487086752.717139) can0 2C0#0000000000000000
(1487086752.718219) can0 316#4530EA112F34007F
(1487086752.718220) can0 080#0017EA1130342F30
(1487086752.719328) can0 081#7F000000000000A0
(1487086752.719329) can0 18F#FE5B2F0000720000
(1487086752.719330) can0 260#052F0030FFB97509
(1487086752.719330) can0 2A0#02005D986D12A900
(1487086752.720433) can0 329#0F61810C112F0010
(1487086752.720434) can0 545#D82F008BD3FFD3FF
(1487086752.721534) can0 4F0#0000D80000121402
(1487086752.721535) can0 220#F40300000000F30F
(1487086752.721536) can0 164#0008000000000F07
(1487086752.722594) can0 4F1#CCFF000000000000
(1487086752.725936) can0 165#0708800000000D82
(1487086752.727054) can0 153#200000FF00FF708E
(1487086752.727055) can0 2B0#1D0000074F
(1487086752.727056) can0 2C0#0000000000000000
(1487086752.728787) can0 316#4530EA112F34007F
(1487086752.729890) can0 080#0017EA1130342F21
(1487086752.729891) can0 081#7F00000000000091
(1487086752.729892) can0 18F#FE5B2F0000720000
(1487086752.729892) can0 260#052F0030FFB97518
(1487086752.731015) can0 2A0#A2005D986D12A900
(1487086752.731016) can0 329#0F61810C112F0010
(1487086752.731017) can0 545#D82F008BD4FFD3FF
(1487086752.732051) can0 220#F40300000000DA0F
(1487086752.732052) can0 164#0008000000000008
(1487086752.732053) can0 1F1#0000000000000000
(1487086752.733181) can0 0A0#5D41F81100260001
(1487086752.733182) can0 0A1#808080802D000000
(1487086752.735508) can0 165#0708800000000E81
(1487086752.736598) can0 2B0#1F00000790
(1487086752.736600) can0 153#200000FF00FF809E
(1487086752.736600) can0 4B0#000000C000000000
(1487086752.737658) can0 2C0#0000000000000000
(1487086752.738729) can0 316#4530EC113034007F
(1487086752.738730) can0 18F#FE5B300000720000
(1487086752.739889) can0 080#0017EC11303430D2
(1487086752.739890) can0 081#7F00000000000082
(1487086752.739891) can0 260#05300030FFB97525
(1487086752.739891) can0 2A0#C2005D986D12A900
(1487086752.739892) can0 329#0F61810C112F0010
(1487086752.740930) can0 545#D8220088D4FFD6FF
(1487086752.742038) can0 220#F40300000000ED0F
(1487086752.742039) can0 164#0008000000000109
(1487086752.742039) can0 4F0#0000DA0000121402
(1487086752.742040) can0 4F1#CCFF000000000000
(1487086752.743451) can0 5F0#0100
(1487086752.745077) can0 165#0808800000000F8F
(1487086752.746159) can0 2B0#1E00000791
(1487086752.746160) can0 153#200000FF00FF90AE
(1487086752.747223) can0 2C0#0000000000000000
(1487086752.748312) can0 316#4530EC113034007F
(1487086752.748313) can0 080#0017EC11303430C3
(1487086752.749427) can0 081#7F00000000000073
(1487086752.749428) can0 18F#FE5B300000720000
(1487086752.749429) can0 260#05300030FFB97534
(1487086752.749429) can0 2A0#62005D986D12A900
(1487086752.749429) can0 329#0F61810C112F0010
(1487086752.750517) can0 545#D822008AD4FFD6FF
(1487086752.751597) can0 220#F40300000000D40F
(1487086752.751598) can0 164#000800000000020A
(1487086752.751598) can0 1F1#0000000000000000
(1487086752.754639) can0 165#0808800000000080
(1487086752.755701) can0 2B0#1E000007A2
(1487086752.756767) can0 153#200000FF00FFA0BE
(1487086752.756768) can0 4B0#004000C000000000
(1487086752.757876) can0 2C0#0000000000000000
(1487086752.759013) can0 316#4530F4112F34007F
(1487086752.759014) can0 080#0017F41130342F44
(1487086752.759015) can0 081#7F00000000000064
(1487086752.759015) can0 18F#FE5B2F0000720000
(1487086752.759016) can0 260#052F0030FFB97509
(1487086752.760076) can0 2A0#02005D986D12A900
(1487086752.760077) can0 329#0F61810C112F0010
(1487086752.760078) can0 545#D822008BD3FFD2FF
(1487086752.761180) can0 4F0#0000DC0000121402
(1487086752.761181) can0 4F1#CCFF000000000000
(1487086752.761182) can0 220#F40300000000DA0F
(1487086752.762266) can0 164#000800000000030B
(1487086752.762267) can0 690#4000400000201800
(1487086752.764192) can0 165#0808800000000181
(1487086752.765283) can0 2B0#1E000007B3
(1487086752.766375) can0 153#200000FF00FFB0CE
(1487086752.767431) can0 2C0#0000000000000000
(1487086752.768538) can0 316#4530EA112F34007F
(1487086752.768539) can0 080#0017EA1130342FE5
(1487086752.769625) can0 081#7F00000000000055
(1487086752.769626) can0 18F#FE5B2F0000720000
(1487086752.769626) can0 260#052F0030FFB97518
(1487086752.769627) can0 2A0#A2005D986D12A900
(1487086752.769628) can0 329#0F61810C112F0010
(1487086752.770697) can0 545#D822008BD3FFD2FF
(1487086752.771787) can0 220#F40300000000CD0F
(1487086752.771788) can0 164#000800000000040C
(1487086752.771789) can0 1F1#0000000000000000
(1487086752.773763) can0 165#0808800000000282
(1487086752.774847) can0 2B0#1D000007F4
(1487086752.776060) can0 153#200000FF00FFC0DE
(1487086752.777139) can0 4B0#008000C000000000
(1487086752.777140) can0 2C0#0000000000000000
(1487086752.778204) can0 316#4530EA112F34007F
(1487086752.779326) can0 080#0017EA1130342FD6
(1487086752.779327) can0 081#7F00000000000046
(1487086752.779327) can0 18F#FE5B2F0000720000
(1487086752.779328) can0 260#052F0030FFB97527
(1487086752.779328) can0 2A0#C2005D986D12A900
(1487086752.780394) can0 329#4F61810C112F0010
(1487086752.780395) can0 545#D822008BD3FFD2FF
(1487086752.781502) can0 4F0#0000DE0000121402
(1487086752.781503) can0 4F1#CCFF000000000000
(1487086752.781503) can0 220#F40300000000C70F
(1487086752.781503) can0 164#000800000000050D
(1487086752.783373) can0 165#070880000000038C
(1487086752.784434) can0 2B0#1E000007D5
(1487086752.786056) can0 153#200000FF00FFD0EE
(1487086752.787137) can0 2C0#0000000000000000
(1487086752.788227) can0 316#4531BE113134007F
(1487086752.788228) can0 080#0017BE1131343177
(1487086752.789350) can0 081#7F00000000000037
(1487086752.789351) can0 18F#FE5B310000720000
(1487086752.789352) can0 260#05310030FFB9793F
(1487086752.789352) can0 2A0#62005D986D12A900
(1487086752.789352) can0 329#4F61810C112F0010
(1487086752.790393) can0 545#D822008AE3FFE3FF
(1487086752.791514) can0 220#F40300000000BB0F
(1487086752.791516) can0 164#000800000000060E
(1487086752.792630) can0 1F1#0000000000000000
(1487086752.792631) can0 5F0#0100
(1487086752.793684) can0 165#0808800000000484
(1487086752.793685) can0 2B0#1D000007D6
(1487086752.796058) can0 153#200000FF00FFE0FE
(1487086752.797133) can0 4B0#0000000000000000
(1487086752.797134) can0 2C0#0000000000000000
(1487086752.798255) can0 5E4#000000
(1487086752.798256) can0 316#4531B4113134007F
(1487086752.798256) can0 080#0017B41131343108
(1487086752.799349) can0 081#7F00000000000028
(1487086752.799350) can0 18F#FE5B310000720000
(1487086752.799351) can0 260#05310030FFB97902
(1487086752.799351) can0 2A0#02005D986D12A900
(1487086752.800456) can0 329#4F61810C112F0010
(1487086752.800457) can0 545#D822008BE3FFE3FF
(1487086752.801535) can0 4F0#0000E00000121402
(1487086752.801536) can0 4F1#CCFF000000000000
(1487086752.801537) can0 220#F40300000000C70F
(1487086752.801537) can0 164#000800000000070F
(1487086752.802640) can0 165#08F87F000000058A
(1487086752.803698) can0 2B0#1D000007C7
(1487086752.806041) can0 153#200000FF00FF001E
(1487086752.807130) can0 2C0#0000000000000000
(1487086752.808758) can0 316#4532B4113134007F
(1487086752.809875) can0 080#0017B411323431E9
(1487086752.809876) can0 081#7F00000000000019
(1487086752.809877) can0 18F#FE5B310000720000
(1487086752.809878) can0 260#05310030FFB97B1F
(1487086752.810989) can0 2A0#A2005D986D12A900
(1487086752.810991) can0 329#4F61810C112F0010
(1487086752.810991) can0 545#D822008BEAFFE3FF
(1487086752.812090) can0 220#F40300000000C70F
(1487086752.812091) can0 164#0008000000000800
(1487086752.812091) can0 1F1#0000000000000000
(1487086752.812092) can0 165#0718800000000699
(1487086752.813137) can0 2B0#1E00000708
(1487086752.816052) can0 153#200000FF00FF102E
(1487086752.817129) can0 4B0#0040000000000000
(1487086752.817130) can0 2C0#0000000000000000
(1487086752.818210) can0 316#4532BE113234007F
(1487086752.819336) can0 080#0017BE113234322A
(1487086752.819337) can0 081#7F0000000000000A
(1487086752.819338) can0 18F#FE5B320000720000
(1487086752.819338) can0 260#05320030FFB87B2E
(1487086752.819338) can0 2A0#C2005D986D12A900
(1487086752.820423) can0 329#4F61810C112F0010
(1487086752.820424) can0 545#D8220089EAFFEAFF
(1487086752.821546) can0 4F0#0000E20000121402
(1487086752.821547) can0 220#F40300000000E00F
