(1487086894.226066) can0 220#F20300000000E60F
(1487086894.227185) can0 164#000800000000070F
(1487086894.227186) can0 4F0#0000020000121402
(1487086894.227186) can0 4F1#CCFF000000000000
(1487086894.228309) can0 260#052C0030FFAE7526
(1487086894.228310) can0 2A0#C2005F9C6D12A900
(1487086894.228311) can0 080#00174A0F2C2D2C6A
(1487086894.228311) can0 081#7F0000000000000A
(1487086894.229414) can0 18F#FE552C0000620000
(1487086894.229415) can0 2C0#0000000000000000
(1487086894.229416) can0 316#452C4A0F2C2D007F
(1487086894.229416) can0 329#4F7E810C112C0010
(1487086894.229416) can0 545#D825008BF8FFFAFF
(1487086894.231114) can0 153#200000FF00FFC0DE
(1487086894.233049) can0 165#0508800000000A87
(1487086894.234088) can0 2B0#1E0000074C
(1487086894.236110) can0 220#F20300000000ED0F
(1487086894.237255) can0 164#0008000000000800
(1487086894.237256) can0 1F1#0000000000000000
(1487086894.237257) can0 316#452C4A0F2C2D007F
(1487086894.238343) can0 080#00174A0F2C2D2C5B
(1487086894.238344) can0 081#7F000000000000FB
(1487086894.238345) can0 18F#FE552C0000620000
(1487086894.238345) can0 260#052C0030FFAE7535
(1487086894.238345) can0 2A0#62005F9C6D12A900
(1487086894.239403) can0 2C0#0000000000000000
(1487086894.239404) can0 329#4F7E810C112C0010
(1487086894.239405) can0 545#D8250089F8FFFAFF
(1487086894.241174) can0 153#200000FF00FFD0EE
(1487086894.242267) can0 4B0#00C0004000000000
(1487086894.243358) can0 165#05F87F0000000B89
(1487086894.243359) can0 2B0#1D0000076D
(1487086894.246240) can0 220#F20300000000ED0F
(1487086894.247350) can0 164#0008000000000901
(1487086894.247351) can0 4F0#0000040000121402
(1487086894.247352) can0 4F1#CCFF000000000000
(1487086894.248425) can0 2A0#02005F9C6D12A900
(1487086894.248426) can0 260#052C0030FFAE7706
(1487086894.248427) can0 080#0017400F2D2D2CDC
(1487086894.248427) can0 081#7F000000000000EC
(1487086894.248428) can0 18F#FE552C0000620000
(1487086894.249529) can0 2C0#0000000000000000
(1487086894.249530) can0 316#452D400F2C2D007F
(1487086894.249530) can0 329#847E810C112C0010
(1487086894.249530) can0 545#D8250089FCFFFBFF
(1487086894.249531) can0 5A1#5442333046422644
(1487086894.250595) can0 690#4000400000202800
(1487086894.251677) can0 153#200000FF00FFE0FE
(1487086894.252771) can0 165#0508800000000C81
(1487086894.252772) can0 2B0#1D0000075E
(1487086894.253861) can0 5F0#0100
(1487086894.256232) can0 220#F20300000000E00F
(1487086894.257333) can0 164#0008000000000A02
(1487086894.257334) can0 1F1#0000000000000000
(1487086894.258442) can0 2C0#0000000000000000
(1487086894.258443) can0 316#452D3E0F2C2D007F
(1487086894.258443) can0 080#00173E0F2D2D2CFD
(1487086894.258444) can0 081#7F000000000000DD
(1487086894.258444) can0 18F#FE552C0000620000
(1487086894.259554) can0 260#052C0030FFAE7715
(1487086894.259555) can0 2A0#A2005F9C6D12A900
(1487086894.259555) can0 329#847E810C112C0010
(1487086894.259556) can0 545#D825008BFCFFFBFF
(1487086894.261272) can0 153#200000FF00FF001E
(1487086894.262406) can0 4B0#0000008000000000
(1487086894.262407) can0 165#05F87F0000000D8F
(1487086894.262407) can0 2B0#1D0000074F
(1487086894.266409) can0 220#F70300000000DA0F
(1487086894.267526) can0 164#0008000000000B03
(1487086894.267527) can0 4F0#0000060000121402
(1487086894.267528) can0 4F1#CCFF000000000000
(1487086894.268652) can0 316#452D3E0F2C2D007F
(1487086894.268653) can0 2C0#0000000000000000
(1487086894.268653) can0 080#00173E0F2D2D2CEE
(1487086894.268658) can0 081#7F000000000000CE
(1487086894.268659) can0 18F#FE552C0000620000
(1487086894.269673) can0 260#052C0030FFAE7724
(1487086894.269674) can0 2A0#C2005F9C6D12A900
(1487086894.269675) can0 329#847E810C112C0010
(1487086894.269675) can0 545#D8250089FCFFFBFF
(1487086894.271444) can0 153#200000FF00FF102E
(1487086894.272549) can0 165#05F87F0000000E8C
(1487086894.272550) can0 2B0#1E00000780
(1487086894.276495) can0 220#F70300000000D40F
(1487086894.277510) can0 164#0008000000000C04
(1487086894.277511) can0 1F1#0000000000000000
(1487086894.277512) can0 316#452D3E0F2D2D007F
(1487086894.278687) can0 080#00173E0F2D2D2DCF
(1487086894.278689) can0 081#7F000000000000BF
(1487086894.278689) can0 18F#FE552D0000620000
(1487086894.278689) can0 260#052D0030FFAE7732
(1487086894.278690) can0 2A0#62005F9C6D12A900
(1487086894.279813) can0 2C0#0000000000000000
(1487086894.279814) can0 329#847E810C112C0010
(1487086894.279814) can0 545#D8250088FDFFFDFF
(1487086894.281331) can0 165#0508800000000F82
(1487086894.282418) can0 153#200000FF00FF203E
(1487086894.282419) can0 2B0#1D000007A1
(1487086894.282420) can0 4B0#0040008000000000
(1487086894.285933) can0 5E4#000000
(1487086894.287017) can0 220#F70300000000C70F
(1487086894.287018) can0 164#0008000000000D05
(1487086894.288117) can0 4F0#0000080000121402
(1487086894.288118) can0 4F1#CCFF000000000000
(1487086894.288118) can0 260#052D0030FFAE7705
(1487086894.288119) can0 2A0#02005F9C6D12A900
(1487086894.289241) can0 080#0017400F2D2D2D80
(1487086894.289242) can0 081#7F000000000000A0
(1487086894.289243) can0 18F#FE552D0000620000
(1487086894.289243) can0 2C0#0000000000000000
(1487086894.289243) can0 316#452D400F2D2D007F
(1487086894.290338) can0 329#847E810C112C0010
(1487086894.290340) can0 545#D825008BFDFFFDFF
(1487086894.291428) can0 165#05F87F0000000082
(1487086894.291429) can0 2B0#1E000007A2
(1487086894.292503) can0 153#200000FF00FF304E
(1487086894.296664) can0 220#F70300000000D40F
(1487086894.297762) can0 164#0008000000000E06
(1487086894.297763) can0 1F1#0000000000000000
(1487086894.298907) can0 2C0#0000000000000000
(1487086894.298908) can0 316#452D400F2D2D007F
(1487086894.298909) can0 080#0017400F2D2D2D71
(1487086894.298909) can0 081#7F00000000000091
(1487086894.298909) can0 18F#FE552D0000620000
(1487086894.299987) can0 260#052D0030FFAE7714
(1487086894.299988) can0 2A0#A2005F9C6D12A900
(1487086894.299988) can0 329#847E810C112C0010
(1487086894.299989) can0 545#D825008AFDFFFDFF
(1487086894.301074) can0 165#06F87F0000000180
(1487086894.301075) can0 2B0#1E000007B3
(1487086894.302203) can0 153#200000FF00FF405E
(1487086894.302204) can0 4B0#0080008000000000
(1487086894.302205) can0 5F0#0100
(1487086894.306725) can0 220#F40300000000D40F
(1487086894.307860) can0 164#0008000000000F07
(1487086894.307861) can0 4F0#00000A0000121402
(1487086894.307861) can0 4F1#CCFF000000000000
(1487086894.308980) can0 260#052D0030FFAE7723
(1487086894.308981) can0 18F#FE552D0000620000
(1487086894.308982) can0 080#0017400F2D2D2D62
(1487086894.308982) can0 081#7F00000000000082
(1487086894.310081) can0 2A0#C2005F9C6D12A900
(1487086894.310082) can0 2C0#0000000000000000
(1487086894.310082) can0 316#452D400F2D2D007F
(1487086894.310083) can0 329#D77E810C112C0010
(1487086894.310083) can0 545#D8250088FDFFFDFF
(1487086894.311132) can0 165#050880000000028F
(1487086894.311133) can0 2B0#1E000007C4
(1487086894.312241) can0 153#200000FF00FF506E
(1487086894.316828) can0 220#F10300000000C70F
(1487086894.317925) can0 164#0008000000000008
(1487086894.317930) can0 1F1#0000000000000000
(1487086894.317931) can0 316#452D3E0F2D2D007F
(1487086894.319030) can0 080#00173E0F2D2D2D83
(1487086894.319031) can0 081#7F00000000000073
(1487086894.319032) can0 18F#FE552D0000620000
(1487086894.319032) can0 260#052D0030FFAE7732
(1487086894.319032) can0 2A0#62005F9C6D12A900
(1487086894.320168) can0 2C0#0000000000000000
(1487086894.320169) can0 329#D77E810C112C0010
(1487086894.320170) can0 545#D825008BFDFFFDFF
(1487086894.320170) can0 165#050880000000038E
(1487086894.320171) can0 2B0#1D000007E5
(1487086894.321256) can0 0A0#5557360F00240002
(1487086894.321257) can0 0A1#7B7F80802A000000
(1487086894.322351) can0 153#200000FF00FF607E
(1487086894.322352) can0 4B0#00C0008000000000
(1487086894.326916) can0 220#F50300000000CD0F
(1487086894.328047) can0 164#0008000000000109
(1487086894.328048) can0 4F0#00000C0000121402
(1487086894.329143) can0 2A0#02005F9C6D12A900
(1487086894.329144) can0 260#052D0030FFAE7705
(1487086894.329145) can0 080#00173E0F2D2D2D74
(1487086894.329145) can0 081#7F00000000000064
(1487086894.329145) can0 18F#FE552D0000620000
(1487086894.330250) can0 2C0#0000000000000000
(1487086894.330251) can0 165#05F87F0000000486
(1487086894.330252) can0 2B0#1D000007D6
(1487086894.330252) can0 316#452D3E0F2D2D007F
(1487086894.330252) can0 329#D77E810C112C0010
(1487086894.331341) can0 4F1#CCFF000000000000
(1487086894.331342) can0 545#D81C008AFDFFFDFF
(1487086894.332437) can0 153#200000FF00FF708E
(1487086894.336995) can0 220#F50300000000DA0F
(1487086894.338107) can0 164#000800000000020A
(1487086894.338108) can0 1F1#0000000000000000
(1487086894.338109) can0 316#452D3A0F2D2D007F
(1487086894.339241) can0 080#00173A0F2D2D2DA5
(1487086894.339242) can0 081#7F00000000000055
(1487086894.339242) can0 18F#FE552D0000620000
(1487086894.339243) can0 260#052D0030FFAE7714
(1487086894.340348) can0 165#05F87F0000000587
(1487086894.340349) can0 2A0#A2005F9C6D12A900
(1487086894.340350) can0 2B0#1E000007F7
(1487086894.340350) can0 2C0#0000000000000000
(1487086894.340351) can0 329#D77E810C112C0010
(1487086894.341442) can0 545#D81C0089FDFFFFFF
(1487086894.342539) can0 153#200000FF00FF809E
(1487086894.342540) can0 4B0#000000C000000000
(1487086894.347077) can0 220#F20300000000CD0F
(1487086894.348210) can0 164#000800000000030B
(1487086894.348211) can0 4F0#00000E0000121402
(1487086894.348211) can0 4F1#CCFF000000000000
(1487086894.349308) can0 2C0#0000000000000000
(1487086894.349309) can0 316#452D360F2D2D007F
(1487086894.349310) can0 080#0017360F2D2D2DD6
(1487086894.349310) can0 081#7F00000000000046
(1487086894.349310) can0 18F#FE552D0000620000
(1487086894.350417) can0 260#052D0030FFAE7723
(1487086894.350419) can0 2A0#C2005F9C6D12A900
(1487086894.350419) can0 2B0#1D00000738
(1487086894.350419) can0 165#050880000000068B
(1487086894.350420) can0 329#D77E810C112C0010
(1487086894.351529) can0 545#D81C008BFDFFFFFF
(1487086894.351530) can0 5F0#0100
(1487086894.351530) can0 690#4000400000202C00
(1487086894.352602) can0 153#200000FF00FF90AE
(1487086894.357159) can0 220#F50300000000DA0F
(1487086894.358257) can0 164#000800000000040C
(1487086894.358258) can0 1F1#0000000000000000
(1487086894.358258) can0 316#452D360F2D2D007F
(1487086894.359366) can0 080#0017360F2D2D2DC7
(1487086894.359368) can0 081#7F00000000000037
(1487086894.359368) can0 18F#FE552D0000620000
(1487086894.359373) can0 260#052D0030FFAE7732
(1487086894.359374) can0 2A0#62005F9C6D12A900
(1487086894.360482) can0 2B0#1E00000719
(1487086894.360483) can0 165#05F87F0000000785
(1487086894.360483) can0 2C0#0000000000000000
(1487086894.360483) can0 329#D77E810C112C0010
(1487086894.360484) can0 545#D81C0089FEFF0000
(1487086894.362198) can0 153#200000FF00FFA0BE
(1487086894.363299) can0 4B0#004000C000000000
(1487086894.367241) can0 220#F50300000000E60F
(1487086894.368378) can0 164#000800000000050D
(1487086894.368379) can0 4F0#0000100000121402
(1487086894.368380) can0 165#05F87F000000088A
(1487086894.368380) can0 2A0#02005F9C6D12A900
(1487086894.369507) can0 260#052D0030FFAE7903
(1487086894.369508) can0 080#00172E0F2D2D2D48
(1487086894.369509) can0 081#7F00000000000028
(1487086894.369509) can0 18F#FE552D0000620000
(1487086894.370611) can0 2B0#1E0000072A
(1487086894.370612) can0 2C0#0000000000000000
(1487086894.370613) can0 316#452D2E0F2D2D007F
(1487086894.370613) can0 329#0F7E810C112C0010
(1487086894.370613) can0 4F1#CCFF000000000000
(1487086894.371650) can0 545#D81C008B03000400
(1487086894.372769) can0 153#200000FF00FFB0CE
(1487086894.377327) can0 220#F10300000000FF0F
(1487086894.378456) can0 164#000800000000060E
(1487086894.378457) can0 165#0508800000000984
(1487086894.378457) can0 1F1#0000000000000000
(1487086894.378458) can0 2B0#1E0000073B
(1487086894.379569) can0 2C0#0000000000000000
(1487086894.379571) can0 316#452D320F2D2D007F
(1487086894.379571) can0 080#0017320F2D2D2DE9
(1487086894.379571) can0 081#7F00000000000019
(1487086894.379572) can0 18F#FE552D0000620000
(1487086894.380665) can0 260#052D0030FFAE7912
(1487086894.380666) can0 2A0#A2005F9C6D12A900
(1487086894.380666) can0 329#0F7E810C112C0010
(1487086894.380667) can0 545#D81C008A02000300
(1487086894.382383) can0 153#200000FF00FFC0DE
(1487086894.383461) can0 4B0#008000C000000000
(1487086894.387180) can0 5E4#000000
(1487086894.388313) can0 165#0608800000000A84
(1487086894.388315) can0 220#F10300000000F30F
(1487086894.388315) can0 164#000800000000070F
(1487086894.388315) can0 2B0#1F0000075C
(1487086894.389422) can0 4F0#0000120000121402
(1487086894.389423) can0 2C0#0000000000000000
(1487086894.389423) can0 316#452D320F2D2D007F
(1487086894.389423) can0 080#0017320F2D2D2DDA
(1487086894.389424) can0 081#7F0000000000000A
(1487086894.390556) can0 18F#FE552D0000620000
(1487086894.390558) can0 260#052D0030FFAE7921
(1487086894.390558) can0 2A0#C2005F9C6D12A900
(1487086894.390558) can0 329#0F7E810C112C0010
(1487086894.390559) can0 4F1#CCFF000000000000
(1487086894.391625) can0 545#D81C008902000300
(1487086894.392671) can0 153#200000FF00FFD0EE
(1487086894.396924) can0 165#0608800000000B85
(1487086894.397993) can0 2B0#1D0000076D
(1487086894.397994) can0 220#F10300000000E00F
(1487086894.397995) can0 164#0008000000000800
(1487086894.397995) can0 1F1#0000000000000000
(1487086894.399128) can0 2C0#0000000000000000
(1487086894.399130) can0 316#452D400F2D2D007F
(1487086894.399130) can0 2A0#62005F9C6D12A900
(1487086894.400242) can0 080#0017400F2D2D2DDB
(1487086894.400243) can0 081#7F000000000000FB
(1487086894.400244) can0 18F#FE552D0000620000
(1487086894.400244) can0 260#052D0030FFAE7732
(1487086894.401360) can0 329#0F7E810C112C0010
(1487086894.401361) can0 545#D81C0089FDFFFEFF
(1487086894.401362) can0 5F0#0100
(1487086894.402530) can0 153#200000FF00FFE0FE
(1487086894.403629) can0 4B0#0000000000000000
(1487086894.406560) can0 165#06F87F0000000C8D
(1487086894.407660) can0 2B0#1D0000075E
(1487086894.407661) can0 220#F10300000000E00F
(1487086894.408742) can0 164#0008000000000901
(1487086894.408743) can0 4F0#0000140000121402
(1487086894.408744) can0 316#452D420F2D2D007F
(1487086894.409869) can0 2C0#0000000000000000
(1487086894.409870) can0 080#0017420F2D2D2DAC
(1487086894.409871) can0 081#7F000000000000EC
(1487086894.409871) can0 18F#FE552D0000620000
(1487086894.409871) can0 260#052D0030FFAE7705
(1487086894.410984) can0 2A0#02005F9C6D12A900
(1487086894.410985) can0 329#0F7E810C112C0010
(1487086894.410985) can0 4F1#CCFF000000000000
(1487086894.410986) can0 545#D81C008AFDFFFEFF
(1487086894.412068) can0 5A0#0000000000000000
(1487086894.412070) can0 5A2#04029103
(1487086894.413154) can0 153#200000FF00FF001E
(1487086894.416181) can0 165#0508800000000D80
(1487086894.417246) can0 2B0#1E0000077F
(1487086894.418364) can0 220#F50300000000E60F
(1487086894.418365) can0 164#0008000000000A02
(1487086894.418366) can0 1F1#0000000000000000
(1487086894.419512) can0 316#452D420F2D2D007F
(1487086894.419514) can0 080#0017420F2D2D2D9D
(1487086894.419514) can0 081#7F000000000000DD
(1487086894.420587) can0 18F#FE552D0000620000
(1487086894.420588) can0 260#052D0030FFAE7714
(1487086894.420588) can0 2A0#A2005F9C6D12A900
(1487086894.420589) can0 2C0#0000000000000000
(1487086894.420589) can0 329#0F7E810C112C0010
(1487086894.421670) can0 545#D81C008AFDFFFEFF
(1487086894.422775) can0 0A0#5557320F00230002
(1487086894.422776) can0 0A1#7B7F80802A000000
(1487086894.422776) can0 153#200000FF00FF102E
(1487086894.423862) can0 4B0#0040000000000000
(1487086894.425830) can0 165#07F87F0000000E8E
(1487086894.426902) can0 2B0#1E00000780
(1487086894.428003) can0 220#F90300000000DA0F
(1487086894.428004) can0 164#0008000000000B03
(1487086894.429112) can0 4F0#0000160000121402
(1487086894.429113) can0 4F1#CCFF000000000000
(1487086894.429114) can0 2C0#0000000000000000
(1487086894.430212) can0 316#452D3E0F2D2D007F
(1487086894.430213) can0 080#00173E0F2D2D2DDE
(1487086894.430214) can0 081#7F000000000000CE
(1487086894.430214) can0 18F#FE552D0000620000
(1487086894.431269) can0 260#052D0030FFAE7723
(1487086894.431270) can0 2A0#C2005F9C6D12A900
(1487086894.431271) can0 329#4F7E810C112C0010
(1487086894.431271) can0 545#D81B0088FDFFFEFF
(1487086894.432765) can0 153#200000FF00FF203E
(1487086894.435477) can0 165#06F87F0000000F8E
(1487086894.436552) can0 2B0#1D000007A1
(1487086894.437830) can0 220#F90300000000BB0F
(1487086894.438943) can0 164#0008000000000C04
(1487086894.438944) can0 1F1#0000000000000000
(1487086894.440047) can0 2C0#0000000000000000
(1487086894.440049) can0 18F#FE552D0000620000
(1487086894.440049) can0 080#00173E0F2D2D2DCF
(1487086894.440049) can0 081#7F000000000000BF
(1487086894.440050) can0 260#052D0030FFAE7732
(1487086894.441154) can0 2A0#62005F9C6D12A900
(1487086894.441155) can0 316#452D3E0F2D2D007F
(1487086894.441156) can0 329#4F7E810C112C0010
(1487086894.441156) can0 545#D81B0089FDFFFEFF
(1487086894.442873) can0 153#200000FF00FF304E
(1487086894.443955) can0 4B0#0080000000000000
(1487086894.445243) can0 165#06F87F0000000081
(1487086894.446313) can0 2B0#1E000007A2
(1487086894.447341) can0 5F0#0100
(1487086894.448469) can0 220#F90300000000DA0F
(1487086894.448470) can0 164#0008000000000D05
(1487086894.449561) can0 4F0#0000180000121402
(1487086894.449562) can0 4F1#CCFF000000000000
(1487086894.449562) can0 2A0#02005F9C6D12A900
(1487086894.449563) can0 260#052D0030FFAE7705
(1487086894.449563) can0 080#00173E0F2D2D2DB0
(1487086894.450701) can0 081#7F000000000000A0
(1487086894.450702) can0 18F#FE552D0000620000
(1487086894.450702) can0 2C0#0000000000000000
(1487086894.450703) can0 316#452D3E0F2D2D007F
(1487086894.451848) can0 329#4F7E810C112C0010
(1487086894.451850) can0 545#D81B008BFEFFFFFF
(1487086894.451850) can0 690#4000400000203000
(1487086894.452954) can0 153#200000FF00FF405E
(1487086894.454867) can0 165#07F87F0000000181
(1487086894.455964) can0 2B0#1D00000783
(1487086894.457994) can0 220#F70300000000E60F
(1487086894.459106) can0 164#0008000000000E06
(1487086894.459107) can0 1F1#0000000000000000
(1487086894.460213) can0 2C0#0000000000000000
(1487086894.460214) can0 316#452C3E0F2D2D007F
(1487086894.460215) can0 080#00173E0F2C2D2DB1
(1487086894.461292) can0 081#7F00000000000091
(1487086894.461293) can0 18F#FE552D0000620000
(1487086894.461293) can0 260#052D0030FFAE7516
(1487086894.461294) can0 2A0#A2005F9C6D12A900
(1487086894.461295) can0 329#4F7E810C112C0010
(1487086894.462431) can0 545#D81B0089F7FFFFFF
(1487086894.463517) can0 153#200000FF00FF506E
(1487086894.463518) can0 4B0#00C0000000000000
(1487086894.464624) can0 165#07F87F0000000282
(1487086894.465679) can0 2B0#1E000007C4
(1487086894.468079) can0 220#F20300000000E00F
(1487086894.469188) can0 164#0008000000000F07
(1487086894.469189) can0 4F0#00001A0000121402
(1487086894.469189) can0 4F1#CCFF000000000000
(1487086894.470302) can0 2C0#0000000000000000
(1487086894.470303) can0 316#452C400F2C2D007F
(1487086894.470304) can0 18F#FE552C0000620000
(1487086894.470304) can0 080#0017400F2C2D2C82
(1487086894.470304) can0 081#7F00000000000082
(1487086894.471396) can0 260#052C0030FFAE7526
(1487086894.471397) can0 2A0#C2005F9C6D12A900
(1487086894.471398) can0 329#4F7E810C112C0010
(1487086894.471398) can0 545#D81B0089F7FFFCFF
(1487086894.473121) can0 153#200000FF00FF607E
(1487086894.474185) can0 165#05F87F0000000381
(1487086894.475259) can0 2B0#1E000007D5
(1487086894.478152) can0 220#F10300000000F30F
(1487086894.479228) can0 164#0008000000000008
(1487086894.479229) can0 1F1#0000000000000000
(1487086894.479230) can0 316#452C2E0F2C2D007F
(1487086894.480386) can0 080#00172E0F2C2D2CB3
(1487086894.480387) can0 081#7F00000000000073
(1487086894.480388) can0 18F#FE552C0000620000
(1487086894.480388) can0 260#052C0030FFAE7535
(1487086894.480389) can0 2A0#62005F9C6D12A900
(1487086894.481507) can0 2C0#0000000000000000
(1487086894.481508) can0 329#4F7E810C112C0010
(1487086894.481509) can0 545#D81B008AF7FFFCFF
(1487086894.483207) can0 153#200000FF00FF708E
(1487086894.484298) can0 4B0#0000004000000000
(1487086894.484299) can0 165#06F87F0000000485
(1487086894.484300) can0 2B0#1D000007D6
(1487086894.488243) can0 220#F10300000000F90F
(1487086894.489285) can0 164#0008000000000109
(1487086894.489287) can0 5E4#000000
(1487086894.489287) can0 4F0#00001C0000121402
(1487086894.489288) can0 4F1#CCFF000000000000
(1487086894.490459) can0 2C0#0000000000000000
(1487086894.490460) can0 316#45302E0F2C2D007F
(1487086894.490461) can0 329#847E810C112C0010
(1487086894.490461) can0 080#00172E0F302D2C54
(1487086894.490461) can0 081#7F00000000000064
(1487086894.491559) can0 18F#FE552C0000620000
(1487086894.491560) can0 260#052C0030FFAE8309
(1487086894.491565) can0 2A0#02005F9C6D12A900
(1487086894.491566) can0 545#D81B008A1A00FCFF
(1487086894.493286) can0 153#200000FF00FF809E
(1487086894.494361) can0 165#0508800000000588
(1487086894.494363) can0 2B0#1D000007C7
(1487086894.495786) can0 5F0#0100
(1487086894.498325) can0 220#F10300000000F90F
(1487086894.499439) can0 164#000800000000020A
(1487086894.499440) can0 1F1#0000000000000000
(1487086894.499440) can0 2C0#0000000000000000
(1487086894.500555) can0 316#4530D80E2F2D007F
(1487086894.500557) can0 2A0#A2005F9C6D12A900
(1487086894.500557) can0 260#052F0030FFAE8315
(1487086894.500557) can0 080#0017D80E302D2FD5
(1487086894.501684) can0 081#7F00000000000055
(1487086894.501685) can0 18F#FE552F0000620000
(1487086894.501685) can0 329#847E810C112C0010
(1487086894.501686) can0 545#D81B008A1A001900
(1487086894.503093) can0 165#05F87F0000000684
(1487086894.504199) can0 2B0#1E00000708
(1487086894.504200) can0 153#200000FF00FF90AE
(1487086894.504201) can0 4B0#0040004000000000
(1487086894.508409) can0 220#F40300000000D40F
(1487086894.509521) can0 164#000800000000030B
(1487086894.509522) can0 4F0#00001E0000121402
(1487086894.509523) can0 4F1#CCFF000000000000
(1487086894.510634) can0 2C0#0000000000000000
(1487086894.510636) can0 316#4530C00E2F2D007F
(1487086894.510636) can0 080#0017C00E302D2F56
(1487086894.510637) can0 081#7F00000000000046
(1487086894.510637) can0 18F#FE552F0000620000
(1487086894.511728) can0 260#052F0030FFAD8325
(1487086894.511730) can0 2A0#C2005F9C6D12A900
(1487086894.511730) can0 329#847E810C112C0010
(1487086894.511730) can0 545#D81B008A1A001900
(1487086894.512838) can0 165#050880000000078A
(1487086894.513911) can0 2B0#1D00000729
(1487086894.513913) can0 153#200000FF00FFA0BE
(1487086894.518475) can0 220#F70300000000CD0F
(1487086894.519606) can0 164#000800000000040C
(1487086894.519607) can0 1F1#0000000000000000
(1487086894.519607) can0 316#4530C00E2F2D007F
(1487086894.520719) can0 080#0017C00E302D2F47
(1487086894.520721) can0 081#7F00000000000037
(1487086894.520721) can0 18F#FE552F0000620000
(1487086894.520721) can0 260#052F0030FFAD8334
(1487086894.520722) can0 2A0#62005F9C6D12A900
(1487086894.521741) can0 2C0#0000000000000000
(1487086894.521742) can0 329#847E810C112C0010
(1487086894.521743) can0 545#D81B008A1A001900
(1487086894.522902) can0 165#07F87F0000000888
(1487086894.522903) can0 2B0#1D0000071A
(1487086894.524019) can0 153#200000FF00FFB0CE
(1487086894.524020) can0 4B0#0080004000000000
(1487086894.524020) can0 0A0#5557320F00230002
(1487086894.525115) can0 0A1#7B7F80802A000000
(1487086894.528576) can0 220#F20300000000E60F
(1487086894.529647) can0 164#000800000000050D
(1487086894.529648) can0 4F0#0000200000121402
(1487086894.529648) can0 316#4532BE0E322D007F
(1487086894.530787) can0 080#0017BE0E322D3208
(1487086894.530788) can0 081#7F00000000000028
(1487086894.530789) can0 18F#FE55320000620000
(1487086894.530789) can0 260#05320030FFAD8D09
(1487086894.530790) can0 2A0#02005F9C6D12A900
(1487086894.531899) can0 2C0#0000000000000000
(1487086894.531901) can0 329#847E810C112C0010
(1487086894.531901) can0 4F1#CCFF000000000000
(1487086894.531901) can0 545#D81B008A2B002B00
(1487086894.532983) can0 165#07F87F0000000989
(1487086894.532984) can0 2B0#1E0000073B
(1487086894.534063) can0 153#200000FF00FFC0DE
(1487086894.538631) can0 220#F40300000000D40F
(1487086894.539768) can0 164#000800000000060E
(1487086894.539769) can0 1F1#0000000000000000
(1487086894.539770) can0 2C0#0000000000000000
(1487086894.540883) can0 260#05320030FFAD8D18
(1487086894.540884) can0 18F#FE55320000620000
(1487086894.540884) can0 080#0017C40E322D3289
(1487086894.540884) can0 081#7F00000000000019
(1487086894.542016) can0 2A0#A2005F9C6D12A900
(1487086894.542018) can0 316#4532C40E322D007F
(1487086894.542018) can0 329#847E810C112C0010
(1487086894.542018) can0 165#07F87F0000000A8A
(1487086894.542019) can0 2B0#1D0000077C
(1487086894.543137) can0 545#D81B008B2B002B00
(1487086894.544209) can0 153#200000FF00FFD0EE
(1487086894.544210) can0 4B0#00C0004000000000
(1487086894.544210) can0 5F0#0100
(1487086894.548744) can0 220#F90300000000E00F
(1487086894.549871) can0 164#000800000000070F
(1487086894.549872) can0 4F0#0000220000121402
(1487086894.549873) can0 4F1#CCFF000000000000
(1487086894.550990) can0 2C0#0000000000000000
(1487086894.550991) can0 316#4532C40E322D007F
(1487086894.550992) can0 080#0017C40E322D327A
(1487086894.550992) can0 081#7F0000000000000A
(1487086894.550993) can0 18F#FE55320000620000
(1487086894.552082) can0 260#05320030FFAD8D27
(1487086894.552083) can0 165#08F87F0000000B84
(1487086894.552084) can0 2A0#C2005F9C6D12A900
(1487086894.552084) can0 2B0#1D0000076D
(1487086894.552084) can0 329#D77E810C112D0010
(1487086894.553189) can0 545#D81B00892B002B00
(1487086894.553190) can0 690#4000400000203400
(1487086894.554222) can0 153#200000FF00FFE0FE
(1487086894.558825) can0 220#F40300000000DA0F
(1487086894.559938) can0 164#0008000000000800
(1487086894.559940) can0 1F1#0000000000000000
(1487086894.559940) can0 316#4532CE0E312D007F
(1487086894.561048) can0 080#0017CE0E322D31DB
(1487086894.561049) can0 081#7F000000000000FB
(1487086894.561050) can0 18F#FE55310000620000
(1487086894.561050) can0 260#05310030FFAD8D37
(1487086894.561051) can0 165#07F87F0000000C8C
(1487086894.562169) can0 2A0#62005F9C6D12A900
(1487086894.562170) can0 2B0#1E0000076E
(1487086894.562170) can0 2C0#0000000000000000
(1487086894.562171) can0 329#D77E810C112D0010
(1487086894.562171) can0 545#D81B008A2A002A00
(1487086894.563890) can0 153#200000FF00FF001E
(1487086894.564957) can0 4B0#0000008000000000
(1487086894.568906) can0 220#F20300000000E00F
(1487086894.570037) can0 164#0008000000000901
(1487086894.570038) can0 4F0#0000240000121402
(1487086894.570039) can0 4F1#CCFF000000000000
(1487086894.571174) can0 260#05310030FFAD8D0A
(1487086894.571175) can0 18F#FE55310000620000
(1487086894.571176) can0 080#0017DC0E322D31DC
(1487086894.571176) can0 081#7F000000000000EC
(1487086894.571177) can0 2A0#02005F9C6D12A900
(1487086894.572272) can0 2B0#1E0000077F
(1487086894.572273) can0 165#0508800000000D80
(1487086894.572274) can0 2C0#0000000000000000
(1487086894.572274) can0 316#4532DC0E312D007F
(1487086894.572274) can0 329#D77E810C112D0010
(1487086894.573308) can0 545#D81B008B2A002A00
(1487086894.574450) can0 153#200000FF00FF102E
(1487086894.578994) can0 220#F70300000000D40F
(1487086894.580107) can0 164#0008000000000A02
(1487086894.580108) can0 1F1#0000000000000000
(1487086894.580108) can0 2C0#0000000000000000
(1487086894.581212) can0 165#0508800000000E83
(1487086894.581213) can0 080#0017DC0E322D31CD
(1487086894.581214) can0 081#7F000000000000DD
(1487086894.581214) can0 18F#FE54310000620000
(1487086894.582346) can0 260#05310030FFAD8D19
(1487086894.582347) can0 2A0#A2005F9C6D12A900
(1487086894.582347) can0 2B0#1E00000780
(1487086894.582353) can0 316#4532DC0E312D007F
(1487086894.582353) can0 329#D77E810C112D0010
(1487086894.583436) can0 545#D81B00892B002B00
(1487086894.584535) can0 153#200000FF00FF203E
(1487086894.584536) can0 4B0#0040008000000000
(1487086894.589076) can0 220#F40300000000DA0F
(1487086894.590183) can0 164#0008000000000B03
(1487086894.590184) can0 4F0#0000260000121402
(1487086894.590184) can0 5E4#000000
(1487086894.590185) can0 2B0#1D000007A1
(1487086894.591295) can0 165#0508800000000F82
(1487086894.591296) can0 2A0#C2005F9C6D12A900
(1487086894.591296) can0 080#0017000F302D306E
(1487086894.591297) can0 081#7F000000000000CE
(1487086894.591297) can0 18F#FE54300000620000
(1487086894.592432) can0 260#05300030FFAD8323
(1487086894.592433) can0 2C0#0000000000000000
(1487086894.592434) can0 316#4530000F302D007F
(1487086894.592434) can0 329#D77E810C112D0010
(1487086894.593505) can0 4F1#CCFF000000000000
(1487086894.593506) can0 545#D81B008A1B001B00
(1487086894.593507) can0 5F0#0100
(1487086894.594615) can0 153#200000FF00FF304E
(1487086894.599158) can0 220#F20300000000C10F
(1487086894.600288) can0 164#0008000000000C04
(1487086894.600290) can0 165#05F87F0000000082
(1487086894.600290) can0 1F1#0000000000000000
(1487086894.600290) can0 2B0#1E000007A2
(1487086894.601376) can0 2C0#0000000000000000
(1487086894.601377) can0 080#0017060F302D30FF
(1487086894.601378) can0 081#7F000000000000BF
(1487086894.601378) can0 18F#FE54300000620000
(1487086894.601378) can0 260#05300030FFAD8332
(1487086894.602498) can0 2A0#62005F9C6D12A900
(1487086894.602499) can0 316#4530060F302D007F
(1487086894.602499) can0 329#D77E810C112D0010
(1487086894.602500) can0 545#D81B008B1B001B00
(1487086894.604151) can0 153#200000FF00FF405E
(1487086894.605269) can0 4B0#0080008000000000
(1487086894.609030) can0 165#05F87F0000000183
(1487086894.610138) can0 220#F70300000200E00F
(1487086894.610139) can0 164#0008000000000D05
(1487086894.610140) can0 2B0#1E000007B3
(1487086894.610140) can0 4F0#0000280000121402
(1487086894.611276) can0 4F1#CCFF000000000000
(1487086894.611277) can0 2C0#0000000000000000
(1487086894.611277) can0 080#0017060F302D30E0
(1487086894.611278) can0 081#7F000000000000A0
(1487086894.611278) can0 18F#FE54300000620000
(1487086894.612387) can0 260#05300030FFAE8304
(1487086894.612388) can0 2A0#02005F9C6D12A900
(1487086894.612389) can0 316#4530060F302D007F
(1487086894.612389) can0 329#0F7E810C112E0010
(1487086894.613479) can0 545#D81B00891C001C00
(1487086894.614546) can0 153#200000FF00FF506E
(1487086894.618776) can0 165#050880000000028F
(1487086894.619865) can0 2B0#1D000007F4
(1487086894.619866) can0 220#F20300000000DA0F
(1487086894.619866) can0 164#0008000000000E06
(1487086894.619867) can0 1F1#0000000000000000
(1487086894.620954) can0 2C0#0000000000000000
(1487086894.620955) can0 316#452F0E0F2F2D007F
(1487086894.620955) can0 080#00170E0F2F2D2F91
(1487086894.622036) can0 081#7F00000000000091
(1487086894.622037) can0 0A0#5657DC0E00240002
(1487086894.622037) can0 0A1#7B7F80802A000000
(1487086894.622038) can0 18F#FE542F0000620000
(1487086894.623119) can0 260#052F0030FFAE7D1C
(1487086894.623120) can0 2A0#A2005F9C6D12A900
(1487086894.623120) can0 329#0F7E810C112E0010
(1487086894.623121) can0 545#D81B008914001500
(1487086894.624301) can0 153#200000FF00FF607E
(1487086894.625392) can0 4B0#00C0008000000000
(1487086894.628358) can0 165#05F87F0000000381
(1487086894.629445) can0 2B0#1E000007D5
(1487086894.629446) can0 220#EF0300000000DA0F
(1487086894.630545) can0 164#0008000000000F07
(1487086894.630546) can0 4F0#00002A0000121402
(1487086894.630547) can0 4F1#CCFF000000000000
(1487086894.631655) can0 18F#FE542F0000620000
(1487086894.631655) can0 080#0017140F2F2D2F12
(1487086894.631656) can0 081#7F00000000000082
(1487086894.631656) can0 260#052F0030FFAE7D2B
(1487086894.631656) can0 2A0#C2005F9C6D12A900
(1487086894.632768) can0 2C0#0000000000000000
(1487086894.632769) can0 316#452F140F2F2D007F
(1487086894.632769) can0 329#0F7E810C112D0010
(1487086894.632769) can0 545#D81D008B14001500
(1487086894.634380) can0 153#200000FF00FF708E
(1487086894.637996) can0 165#05F87F0000000486
(1487086894.639064) can0 2B0#1D000007D6
(1487086894.640180) can0 220#F40300000000CD0F
(1487086894.640181) can0 164#0008000000000008
(1487086894.640181) can0 1F1#0000000000000000
(1487086894.641289) can0 316#452F140F2F2D007F
(1487086894.641290) can0 080#0017140F2F2D2F03
(1487086894.641290) can0 081#7F00000000000073
(1487086894.641291) can0 18F#FE542F0000620000
(1487086894.642426) can0 260#052F0030FFAE7D3A
(1487086894.642427) can0 2A0#62005F9C6D12A900
(1487086894.642427) can0 2C0#0000000000000000
(1487086894.642428) can0 329#0F7E810C112D0010
(1487086894.642428) can0 545#D81D008915001600
(1487086894.642429) can0 5F0#0100
(1487086894.644466) can0 153#200000FF00FF809E
(1487086894.645554) can0 4B0#000000C000000000
(1487086894.647615) can0 165#0508800000000588
(1487086894.648707) can0 2B0#1D000007C7
(1487086894.649798) can0 220#F50300000000DA0F
(1487086894.649799) can0 164#0008000000000109
(1487086894.650912) can0 4F0#00002C0000121402
(1487086894.650913) can0 4F1#CCFF000000000000
(1487086894.650914) can0 2C0#0000000000000000
(1487086894.650914) can0 316#452E200F2E2D007F
(1487086894.652048) can0 329#0F7E810C112D0010
(1487086894.652048) can0 080#0017200F2E2D2E44
(1487086894.652049) can0 081#7F00000000000064
(1487086894.652049) can0 18F#FE542E0000620000
(1487086894.653137) can0 260#052E0030FFAE7704
(1487086894.653138) can0 2A0#02005F9C6D12A900
(1487086894.653138) can0 545#D81D00880B000F00
(1487086894.653138) can0 690#4000400000203800
(1487086894.654545) can0 153#200000FF00FF90AE
(1487086894.657278) can0 165#06F87F0000000687
(1487086894.658367) can0 2B0#1D00000738
(1487086894.659586) can0 220#F50300000000CD0F
(1487086894.660678) can0 164#000800000000020A
(1487086894.660678) can0 1F1#0000000000000000
(1487086894.660679) can0 2C0#0000000000000000
(1487086894.661812) can0 260#052E0030FFAE7713
(1487086894.661813) can0 2A0#A2005F9C6D12A900
(1487086894.661813) can0 080#00172A0F2E2D2E95
(1487086894.661814) can0 081#7F00000000000055
(1487086894.662904) can0 18F#FE542E0000620000
(1487086894.662905) can0 316#452E2A0F2E2D007F
(1487086894.662905) can0 329#0F7E810C112D0010
(1487086894.662906) can0 545#D81D008A0B000F00
(1487086894.664649) can0 153#200000FF00FFA0BE
(1487086894.665738) can0 4B0#004000C000000000
(1487086894.666967) can0 165#07F87F0000000787
(1487086894.668056) can0 2B0#1E00000719
(1487086894.669687) can0 220#FA0300000000DA0F
(1487086894.670825) can0 164#000800000000030B
(1487086894.670825) can0 4F0#00002E0000121402
(1487086894.670826) can0 4F1#CCFF000000000000
(1487086894.670826) can0 2C0#0000000000000000
(1487086894.671938) can0 316#452E2A0F2E2D007F
(1487086894.671939) can0 080#00172A0F2E2D2E86
(1487086894.671939) can0 081#7F00000000000046
(1487086894.671940) can0 18F#FE542E0000620000
(1487086894.673050) can0 260#052E0030FFAE7722
(1487086894.673051) can0 2A0#C2005F9C6D12A900
(1487086894.673051) can0 329#4F7E810C112C0010
(1487086894.673051) can0 545#D81D008A0B000F00
(1487086894.674729) can0 153#200000FF00FFB0CE
(1487086894.676476) can0 165#08E87F0000000897
(1487086894.677567) can0 2B0#1D0000071A
(1487086894.679777) can0 220#F90300000000D40F
(1487086894.680864) can0 164#000800000000040C
(1487086894.680864) can0 1F1#0000000000000000
(1487086894.680865) can0 2C0#0000000000000000
(1487086894.681978) can0 316#452D3C0F2D2D007F
(1487086894.681979) can0 329#4F7E810C112C0010
(1487086894.681979) can0 080#00173C0F2D2D2D67
(1487086894.681980) can0 081#7F00000000000037
(1487086894.683097) can0 18F#FE542D0000620000
(1487086894.683098) can0 260#052D0030FFAE7336
(1487086894.683098) can0 2A0#62005F9C6D12A900
(1487086894.683099) can0 545#D81D008802000500
(1487086894.684797) can0 153#200000FF00FFC0DE
(1487086894.685884) can0 4B0#008000C000000000
(1487086894.686975) can0 165#07F87F0000000989
(1487086894.686976) can0 2B0#1E0000073B
(1487086894.689308) can0 5F0#0100
(1487086894.690423) can0 220#F40300000000E60F
(1487086894.690423) can0 164#000800000000050D
(1487086894.691541) can0 4F0#0000300000121402
(1487086894.691541) can0 4F1#CCFF000000000000
(1487086894.691542) can0 2C0#0000000000000000
(1487086894.691542) can0 18F#FE542D0000620000
(1487086894.691543) can0 080#00173A0F2D2C2D88
(1487086894.692654) can0 081#7F00000000000028
(1487086894.692655) can0 260#052D0030FFAE7309
(1487086894.692655) can0 2A0#02005F9C6D12A900
(1487086894.692655) can0 316#452D3A0F2D2C007F
(1487086894.693762) can0 329#4F7E810C112C0010
(1487086894.693763) can0 545#D81D008803000600
(1487086894.693763) can0 5E4#000000
(1487086894.694896) can0 153#200000FF00FFD0EE
(1487086894.695989) can0 165#07F87F0000000A8A
(1487086894.697089) can0 2B0#1E0000074C
(1487086894.699936) can0 220#F20300000000E60F
(1487086894.701030) can0 164#000800000000060E
(1487086894.701030) can0 1F1#0000000000000000
(1487086894.701031) can0 2C0#0000000000000000
(1487086894.702143) can0 260#052D0030FFAE7318
(1487086894.702143) can0 080#00173A0F2D2C2D79
(1487086894.702144) can0 081#7F00000000000019
(1487086894.702144) can0 18F#FE542D0000620000
(1487086894.703264) can0 2A0#A2005F9C6D12A900
(1487086894.703264) can0 316#452D3A0F2D2C007F
(1487086894.703265) can0 329#4F7E810C112C0010
(1487086894.703265) can0 545#D81D008B03000600
(1487086894.704983) can0 153#200000FF00FFE0FE
(1487086894.706073) can0 4B0#0000000000000000
(1487086894.706074) can0 165#0708800000000B84
(1487086894.706075) can0 2B0#1D0000076D
(1487086894.710020) can0 220#F20300000000E60F
(1487086894.711114) can0 164#000800000000070F
(1487086894.711114) can0 4F0#0000320000121402
(1487086894.711115) can0 4F1#CCFF000000000000
(1487086894.712216) can0 2C0#0000000000000000
(1487086894.712216) can0 316#452D3A0F2D2C007F
(1487086894.712217) can0 080#00173A0F2D2C2D6A
(1487086894.713358) can0 081#7F0000000000000A
(1487086894.713359) can0 18F#FE542D0000620000
(1487086894.713359) can0 260#052D0030FFAE7327
(1487086894.713359) can0 2A0#C2005F9C6D12A900
(1487086894.713360) can0 329#4F7E810C112B0010
(1487086894.714430) can0 545#D81D008902000600
(1487086894.715526) can0 153#200000FF00FF001E
(1487086894.715526) can0 165#07F87F0000000C8C
(1487086894.715527) can0 2B0#1E0000076E
(1487086894.720089) can0 220#F20300000000ED0F
(1487086894.721196) can0 164#0008000000000800
(1487086894.721197) can0 1F1#0000000000000000
(1487086894.721198) can0 2C0#0000000000000000
(1487086894.722310) can0 316#452D320F2D2C007F
(1487086894.722310) can0 2A0#62005F9C6D12A900
(1487086894.722311) can0 080#0017320F2D2C2DDB
(1487086894.722311) can0 081#7F000000000000FB
(1487086894.723429) can0 0A0#5757DC0E00240002
(1487086894.723430) can0 0A1#7B7F80802B000000
(1487086894.723430) can0 18F#FE542D0000620000
(1487086894.723431) can0 260#052D0030FFAE7336
(1487086894.723431) can0 329#4F7E810C112B0010
(1487086894.724520) can0 545#D81D008902000500
(1487086894.725609) can0 165#05F87F0000000D8F
(1487086894.725610) can0 2B0#1D0000074F
(1487086894.725610) can0 153#200000FF00FF102E
(1487086894.725610) can0 4B0#0040000000000000
(1487086894.730172) can0 220#F40300000000E60F
(1487086894.731298) can0 164#0008000000000901
(1487086894.731299) can0 4F0#0000340000121402
(1487086894.731299) can0 260#052D0030FFAE7309
(1487086894.732391) can0 18F#FE542D0000620000
(1487086894.732391) can0 080#0017320F2D2C2DCC
(1487086894.732392) can0 081#7F000000000000EC
(1487086894.732392) can0 2A0#02005F9C6D12A900
(1487086894.733527) can0 2C0#0000000000000000
(1487086894.733528) can0 316#452D320F2D2C007F
(1487086894.733528) can0 329#847E810C112B0010
(1487086894.733528) can0 4F1#CCFF000000000000
(1487086894.733529) can0 545#D827008902000500
(1487086894.734647) can0 165#0508800000000E83
(1487086894.735716) can0 2B0#1E00000780
(1487086894.735716) can0 153#200000FF00FF203E
(1487086894.737707) can0 5F0#0100
(1487086894.740270) can0 220#F70300000000E00F
(1487086894.741362) can0 164#0008000000000A02
(1487086894.741362) can0 1F1#0000000000000000
(1487086894.741363) can0 2C0#0000000000000000
(1487086894.742459) can0 316#452D320F2D2C007F
(1487086894.742459) can0 080#0017320F2D2C2DBD
(1487086894.743570) can0 081#7F000000000000DD
(1487086894.743571) can0 18F#FE542D0000620000
(1487086894.743572) can0 260#052D0030FFAE7318
(1487086894.743572) can0 2A0#A2005F9C6D12A900
(1487086894.743572) can0 329#847E810C112B0010
(1487086894.744684) can0 545#D827008A00000500
(1487086894.744684) can0 165#0508800000000F82
(1487086894.744685) can0 2B0#1D000007A1
(1487086894.745773) can0 153#200000FF00FF304E
(1487086894.745774) can0 4B0#0080000000000000
(1487086894.750356) can0 220#F20300000000C70F
(1487086894.751484) can0 164#0008000000000B03
(1487086894.751485) can0 4F0#0000360000121402
(1487086894.751486) can0 4F1#CCFF000000000000
(1487086894.751486) can0 2C0#0000000000000000
(1487086894.752601) can0 690#4000400000203C00
(1487086894.752602) can0 260#052D0030FFAE7327
(1487086894.752602) can0 18F#FE542D0000620000
(1487086894.752602) can0 080#00173A0F2D2C2D2E
(1487086894.753712) can0 081#7F000000000000CE
(1487086894.753712) can0 2A0#C2005F9C6D12A900
(1487086894.753713) can0 316#452D3A0F2D2C007F
(1487086894.753713) can0 329#847E810C112B0010
(1487086894.753713) can0 545#D827008A00000400
(1487086894.754811) can0 165#050880000000008D
(1487086894.754812) can0 2B0#1E000007A2
(1487086894.755881) can0 153#200000FF00FF405E
(1487086894.760439) can0 220#F40300000000AE0F
(1487086894.761545) can0 164#0008000000000C04
(1487086894.761546) can0 1F1#0000000000000000
(1487086894.761547) can0 316#452D400F2D2D007F
(1487086894.762661) can0 080#0017400F2D2D2D9F
(1487086894.762662) can0 081#7F000000000000BF
(1487086894.762662) can0 18F#FE542D0000620000
(1487086894.762663) can0 260#052D0030FFAE7336
(1487086894.762663) can0 2A0#62005F9C6D12A900
(1487086894.763798) can0 2C0#0000000000000000
(1487086894.763799) can0 329#847E810C112B0010
(1487086894.763799) can0 545#D827008BFFFF0300
(1487086894.763800) can0 165#06F87F0000000180
(1487086894.763800) can0 2B0#1D00000783
(1487086894.765476) can0 153#200000FF00FF506E
(1487086894.766568) can0 4B0#00C0000000000000
(1487086894.770515) can0 220#F70300000000C10F
(1487086894.771631) can0 164#0008000000000D05
(1487086894.771632) can0 4F0#0000380000121402
(1487086894.771632) can0 4F1#CCFF000000000000
(1487086894.771633) can0 2C0#0000000000000000
(1487086894.772767) can0 316#452C400F2D2D007F
(1487086894.772768) can0 329#847E810C112B0010
(1487086894.772768) can0 18F#FE542D0000620000
(1487086894.772768) can0 080#0017400F2C2D2D90
(1487086894.773879) can0 081#7F000000000000A0
(1487086894.773880) can0 165#060880000000028C
(1487086894.773881) can0 260#052D0030FFAE7309
(1487086894.773881) can0 2A0#02005F9C6D12A900
(1487086894.773881) can0 2B0#1E000007C4
(1487086894.774969) can0 545#D827008AFDFF0300
(1487086894.776064) can0 153#200000FF00FF607E
(1487086894.780604) can0 220#F20300000000E00F
(1487086894.781691) can0 164#0008000000000E06
(1487086894.781692) can0 1F1#0000000000000000
(1487086894.781692) can0 2C0#0000000000000000
(1487086894.782806) can0 316#452C4C0F2C2D007F
(1487086894.782807) can0 260#052C0030FFAE7319
(1487086894.782807) can0 080#00174C0F2C2D2CD1
(1487086894.782808) can0 081#7F00000000000091
(1487086894.783928) can0 18F#FE542C0000620000
(1487086894.783929) can0 2A0#A2005F9C6D12A900
(1487086894.783929) can0 2B0#1D000007E5
(1487086894.783930) can0 165#050880000000038E
(1487086894.783930) can0 329#847E810C112B0010
(1487086894.784994) can0 545#D827008AFDFFFDFF
(1487086894.786125) can0 153#200000FF00FF708E
(1487086894.786125) can0 4B0#0000004000000000
(1487086894.786126) can0 5F0#0100
(1487086894.790688) can0 220#F40300000000D40F
(1487086894.791818) can0 164#0008000000000F07
(1487086894.791819) can0 4F0#00003A0000121402
(1487086894.791819) can0 4F1#CCFF000000000000
(1487086894.792910) can0 2C0#0000000000000000
(1487086894.792911) can0 316#452C4C0F2C2D007F
(1487086894.792911) can0 080#00174C0F2C2D2CC2
(1487086894.792911) can0 081#7F00000000000082
(1487086894.792912) can0 18F#FE542C0000620000
(1487086894.794064) can0 260#052C0030FFAE7328
(1487086894.794065) can0 2A0#C2005F9C6D12A900
(1487086894.794065) can0 2B0#1D000007D6
(1487086894.794066) can0 329#D77E810C112B0010
(1487086894.794066) can0 545#D827008BFDFFFDFF
(1487086894.795156) can0 5E4#000000
(1487086894.795157) can0 165#07E87F0000000494
(1487086894.796251) can0 153#200000FF00FF809E
(1487086894.800771) can0 220#F90300000000DA0F
(1487086894.801901) can0 164#0008000000000008
(1487086894.801902) can0 1F1#0000000000000000
(1487086894.801902) can0 316#452C4C0F2C2D007F
(1487086894.803035) can0 2C0#0000000000000000
(1487086894.803035) can0 2B0#1D000007C7
(1487086894.803036) can0 165#07F87F0000000585
(1487086894.803036) can0 080#00174C0F2C2D2CB3
(1487086894.803036) can0 081#7F00000000000073
(1487086894.804150) can0 18F#FE542C0000620000
(1487086894.804150) can0 260#052C0030FFAE7337
(1487086894.804151) can0 2A0#62005F9C6D12A900
(1487086894.804151) can0 329#D77E810C112B0010
(1487086894.804151) can0 545#D8270089FDFFFDFF
(1487086894.805805) can0 153#200000FF00FF90AE
(1487086894.806900) can0 4B0#0040004000000000
(1487086894.810869) can0 220#F50300000000DA0F
(1487086894.811982) can0 164#0008000000000109
(1487086894.811983) can0 165#0608800000000688
(1487086894.811983) can0 2B0#1D00000738
(1487086894.813094) can0 2C0#0000000000000000
(1487086894.813095) can0 18F#FE542C0000620000
(1487086894.813096) can0 080#00174C0F2C2D2CA4
(1487086894.813096) can0 081#7F00000000000064
(1487086894.813096) can0 260#052C0030FFAE730A
(1487086894.814210) can0 2A0#02005F9C6D12A900
(1487086894.814210) can0 316#452C4C0F2C2D007F
(1487086894.814211) can0 329#D77E810C112B0010
(1487086894.814211) can0 4F0#00003C0000121402
(1487086894.814211) can0 545#D827008BF9FFFCFF
(1487086894.815280) can0 4F1#CCFF000000000000
(1487086894.816376) can0 153#200000FF00FFA0BE
(1487086894.820937) can0 220#F40300000000E60F
(1487086894.822063) can0 164#000800000000020A
(1487086894.822064) can0 165#0708800000000788
(1487086894.822064) can0 1F1#0000000000000000
(1487086894.822065) can0 2B0#1E00000719
(1487086894.823155) can0 2C0#0000000000000000
(1487086894.823155) can0 2A0#A2005F9C6D12A900
(1487086894.823156) can0 080#00174E0F2C2D2C75
(1487086894.823156) can0 081#7F00000000000055
(1487086894.823156) can0 18F#FE542C0000620000
(1487086894.824290) can0 260#052C0030FFAE7319
(1487086894.824291) can0 0A0#56574C0F00230002
(1487086894.824291) can0 0A1#7B7F80802A000000
(1487086894.824292) can0 316#452C4E0F2C2D007F
(1487086894.824292) can0 329#D77E810C112B0010
(1487086894.825390) can0 545#D827008BF9FFFCFF
(1487086894.826477) can0 153#200000FF00FFB0CE
(1487086894.826478) can0 4B0#0080004000000000
(1487086894.830847) can0 165#08F87F0000000887
(1487086894.831960) can0 220#F40300000000CD0F
(1487086894.831961) can0 164#000800000000030B
(1487086894.831961) can0 2B0#1D0000071A
(1487086894.831962) can0 4F0#00003E0000121402
(1487086894.833080) can0 2C0#0000000000000000
(1487086894.833081) can0 316#452C4E0F2C2D007F
(1487086894.833081) can0 080#00174E0F2C2D2C66
(1487086894.833082) can0 081#7F00000000000046
(1487086894.834185) can0 18F#FE542C0000620000
(1487086894.834186) can0 260#052C0030FFAE7328
(1487086894.834186) can0 2A0#C2005F9C6D12A900
(1487086894.834187) can0 329#D77E810C112B0010
(1487086894.834187) can0 4F1#CCFF000000000000
(1487086894.835279) can0 545#D81C0088F9FFFCFF
(1487086894.835280) can0 5F0#0100
(1487086894.836372) can0 153#200000FF00FFC0DE
(1487086894.840404) can0 165#07F87F0000000989
(1487086894.841523) can0 2B0#1D0000070B
(1487086894.841524) can0 220#F40300000000E00F
(1487086894.841525) can0 164#000800000000040C
(1487086894.842667) can0 1F1#0000000000000000
(1487086894.842668) can0 316#452C540F2C2D007F
(1487086894.842668) can0 080#0017540F2C2D2CE7
(1487086894.842669) can0 081#7F00000000000037
(1487086894.843766) can0 18F#FE542C0000620000
(1487086894.843767) can0 260#052C0030FFAE7337
(1487086894.843767) can0 2A0#62005F9C6D12A900
(1487086894.843768) can0 2C0#0000000000000000
(1487086894.843768) can0 329#D77E810C112B0010
(1487086894.844835) can0 545#D81C0089F7FFF8FF
(1487086894.846161) can0 153#200000FF00FFD0EE
(1487086894.847231) can0 4B0#00C0004000000000
(1487086894.850002) can0 165#07F87F0000000A8A
(1487086894.851111) can0 2B0#1D0000077C
(1487086894.852272) can0 220#F40300000000DA0F
(1487086894.852273) can0 164#000800000000050D
(1487086894.852274) can0 4F0#0000400000121402
(1487086894.852274) can0 4F1#CCFF000000000000
(1487086894.852275) can0 2C0#0000000000000000
(1487086894.853386) can0 2A0#02005F9C6D12A900
(1487086894.853386) can0 080#00174E0F2C2D2C48
(1487086894.853387) can0 081#7F00000000000028
(1487086894.853387) can0 18F#FE542C0000620000
(1487086894.854505) can0 260#052C0030FFAE730A
(1487086894.854506) can0 316#452C4E0F2C2D007F
(1487086894.854506) can0 329#0F7E810C112B0010
(1487086894.854506) can0 545#D81C008AF6FFF7FF
(1487086894.854507) can0 690#4000400000200000
(1487086894.856247) can0 153#200000FF00FFE0FE
(1487086894.859774) can0 165#07F87F0000000B8B
(1487086894.860863) can0 2B0#1E0000075D
(1487086894.861954) can0 220#F40300000000D40F
(1487086894.861954) can0 164#000800000000060E
(1487086894.861955) can0 1F1#0000000000000000
(1487086894.863075) can0 2C0#0000000000000000
(1487086894.863076) can0 2A0#A2005F9C6D12A900
(1487086894.863076) can0 260#052C0030FFAF7318
(1487086894.863077) can0 080#00174E0F2C2D2C39
(1487086894.864186) can0 081#7F00000000000019
(1487086894.864187) can0 18F#FE542C0000620000
(1487086894.864188) can0 316#452C4E0F2C2D007F
(1487086894.864188) can0 329#0F7E810C112B0010
(1487086894.864188) can0 545#D81C0089F6FFF7FF
(1487086894.866327) can0 153#200000FF00FF001E
(1487086894.867395) can0 4B0#0000008000000000
(1487086894.869351) can0 165#0608800000000C82
(1487086894.870440) can0 2B0#1D0000075E
(1487086894.871554) can0 220#F40300000000C10F
(1487086894.872687) can0 164#000800000000070F
(1487086894.872687) can0 4F0#0000420000121402
(1487086894.872688) can0 4F1#CCFF000000000000
(1487086894.872688) can0 2C0#0000000000000000
(1487086894.872688) can0 316#452D340F2D2D007F
(1487086894.873822) can0 080#0017340F2D2D2DBA
(1487086894.873822) can0 081#7F0000000000000A
(1487086894.873823) can0 18F#FE542D0000620000
(1487086894.873823) can0 260#052D0030FFAF7722
(1487086894.874923) can0 2A0#C2005F9C6D12A900
(1487086894.874923) can0 329#0F7E810C112B0010
(1487086894.874924) can0 545#D81C008900000200
(1487086894.876389) can0 153#200000FF00FF102E
(1487086894.879053) can0 165#0608800000000D83
(1487086894.880144) can0 2B0#1D0000074F
(1487086894.881450) can0 220#F40300000000D40F
(1487086894.882560) can0 164#0008000000000800
(1487086894.882561) can0 1F1#0000000000000000
(1487086894.882561) can0 316#452D320F2D2D007F
(1487086894.883672) can0 080#0017320F2D2D2DCB
(1487086894.883673) can0 081#7F000000000000FB
(1487086894.883673) can0 18F#FE542D0000620000
(1487086894.883674) can0 260#052D0030FFAF7731
(1487086894.883674) can0 2A0#62005F9C6D12A900
(1487086894.884765) can0 2C0#0000000000000000
(1487086894.884765) can0 329#0F7E810C112B0010
(1487086894.884766) can0 545#D81C008A00000200
(1487086894.884766) can0 5F0#0100
(1487086894.886485) can0 153#200000FF00FF203E
(1487086894.887582) can0 4B0#0040008000000000
(1487086894.888696) can0 165#06F87F0000000E8F
(1487086894.889794) can0 2B0#1E00000780
(1487086894.891527) can0 220#F40300000000ED0F
(1487086894.892624) can0 164#0008000000000901
(1487086894.892625) can0 4F0#0000440000121402
(1487086894.892625) can0 4F1#CCFF000000000000
(1487086894.893715) can0 2C0#0000000000000000
(1487086894.893715) can0 080#0017320F2D2D2DBC
(1487086894.893718) can0 081#7F000000000000EC
(1487086894.893719) can0 18F#FE542D0000620000
(1487086894.893719) can0 260#052D0030FFAF7704
(1487086894.894847) can0 2A0#02005F9C6D12A900
(1487086894.894848) can0 316#452D320F2D2D007F
(1487086894.894848) can0 329#0F7E810C112B0010
(1487086894.894849) can0 545#D81C008B00000200
(1487086894.894849) can0 5E4#000000
(1487086894.896570) can0 153#200000FF00FF304E
(1487086894.898364) can0 165#0508800000000F82
(1487086894.899451) can0 2B0#1D000007A1
(1487086894.901618) can0 220#F40300000000E60F
(1487086894.902705) can0 164#0008000000000A02
(1487086894.902706) can0 1F1#0000000000000000
(1487086894.902707) can0 2C0#0000000000000000
(1487086894.903841) can0 260#052D0030FFAF7911
(1487086894.903841) can0 18F#FE542D0000620000
(1487086894.903842) can0 080#00173A0F2D2D2D2D
(1487086894.903842) can0 081#7F000000000000DD
(1487086894.903843) can0 2A0#A2005F9C6D12A900
(1487086894.904930) can0 316#452D3A0F2D2D007F
(1487086894.904931) can0 329#0F7E810C112B0010
(1487086894.904931) can0 545#D81C008904000500
(1487086894.906650) can0 153#200000FF00FF405E
(1487086894.907746) can0 4B0#0080008000000000
(1487086894.908838) can0 165#050880000000008D
(1487086894.908839) can0 2B0#1E000007A2
(1487086894.911696) can0 220#F40300000000D40F
(1487086894.912787) can0 164#0008000000000B03
(1487086894.912787) can0 4F0#0000460000121402
(1487086894.912788) can0 4F1#CCFF000000000000
(1487086894.913921) can0 2A0#C2005F9C6D12A900
(1487086894.913922) can0 260#052D0030FFAE7921
(1487086894.913922) can0 080#0017360F2D2D2D5E
(1487086894.913923) can0 081#7F000000000000CE
(1487086894.913923) can0 18F#FE542D0000620000
(1487086894.915014) can0 2C0#0000000000000000
(1487086894.915015) can0 316#452D360F2D2D007F
(1487086894.915015) can0 329#4F7E810C112B0010
(1487086894.915016) can0 545#D81C008B04000500
(1487086894.916737) can0 153#200000FF00FF506E
(1487086894.917849) can0 165#050880000000018C
(1487086894.917850) can0 2B0#1D00000783
(1487086894.921779) can0 220#F90300000000D40F
(1487086894.922912) can0 164#0008000000000C04
(1487086894.922913) can0 1F1#0000000000000000
(1487086894.922924) can0 316#452D360F2D2D007F
(1487086894.922925) can0 080#0017360F2D2D2D4F
(1487086894.924005) can0 081#7F000000000000BF
(1487086894.924006) can0 18F#FE542D0000620000
(1487086894.924006) can0 260#052D0030FFAE7930
(1487086894.924007) can0 2A0#62005F9C6D12A900
(1487086894.925118) can0 2C0#0000000000000000
(1487086894.925129) can0 329#4F7E810C112B0010
(1487086894.925130) can0 0A0#54574C0F00230002
(1487086894.925131) can0 0A1#7B7F80802A000000
(1487086894.925131) can0 545#D81C008A04000500
(1487086894.926817) can0 153#200000FF00FF607E
(1487086894.927913) can0 4B0#00C0008000000000
(1487086894.927914) can0 165#050880000000028F
(1487086894.927915) can0 2B0#1D000007F4
(1487086894.931295) can0 5F0#0100
(1487086894.932394) can0 220#F40300000000DA0F
(1487086894.932395) can0 164#0008000000000D05
(1487086894.933538) can0 316#452D280F2E2D007F
(1487086894.933539) can0 080#0017280F2D2D2E10
(1487086894.933539) can0 081#7F000000000000A0
(1487086894.933540) can0 18F#FE542E0000620000
(1487086894.934663) can0 260#052E0030FFAE7B00
(1487086894.934663) can0 2A0#02005F9C6D12A900
(1487086894.934664) can0 2C0#0000000000000000
(1487086894.934664) can0 329#4F7E810C112B0010
(1487086894.935750) can0 4F0#0000480000121402
(1487086894.935753) can0 545#D81C008A07000B00
(1487086894.935754) can0 4F1#CCFF000000000000
(1487086894.936882) can0 153#200000FF00FF708E
(1487086894.937973) can0 165#050880000000038E
(1487086894.937973) can0 2B0#1D000007E5
(1487086894.941942) can0 220#F10300000000E60F
(1487086894.943033) can0 164#0008000000000E06
(1487086894.943034) can0 1F1#0000000000000000
(1487086894.943034) can0 2C0#0000000000000000
(1487086894.944151) can0 260#052E0030FFAE7B1F
(1487086894.944151) can0 18F#FE542E0000620000
(1487086894.944152) can0 080#0017280F2D2D2E01
(1487086894.944152) can0 081#7F00000000000091
(1487086894.944152) can0 2A0#A2005F9C6D12A900
(1487086894.945262) can0 316#452D280F2E2D007F
(1487086894.945263) can0 329#4F7E810C112C0010
(1487086894.945274) can0 545#D81C008B07000B00
(1487086894.946635) can0 165#05F87F0000000486
(1487086894.947719) can0 2B0#1E000007E6
(1487086894.947719) can0 153#200000FF00FF809E
(1487086894.947720) can0 4B0#000000C000000000
(1487086894.952042) can0 220#F10300000000DA0F
(1487086894.953138) can0 164#0008000000000F07
(1487086894.953139) can0 4F0#00004A0000121402
(1487086894.953139) can0 4F1#CCFF000000000000
(1487086894.953140) can0 2C0#0000000000000000
(1487086894.954273) can0 316#452D280F2E2D007F
(1487086894.954274) can0 080#0017280F2D2D2EF2
(1487086894.954275) can0 081#7F00000000000082
(1487086894.954275) can0 18F#FE542E0000620000
(1487086894.955386) can0 260#052E0030FFAE7B2E
(1487086894.955387) can0 2A0#C2005F9C6D12A900
(1487086894.955387) can0 329#4F7E810C112C0010
(1487086894.955387) can0 545#D81C008907000B00
(1487086894.955388) can0 690#4000400000200400
(1487086894.956478) can0 165#05F87F0000000587
(1487086894.956479) can0 2B0#1E000007F7
(1487086894.957548) can0 153#200000FF00FF90AE
(1487086894.962114) can0 220#F10300000000C70F
(1487086894.963222) can0 164#0008000000000008
(1487086894.963223) can0 1F1#0000000000000000
(1487086894.963223) can0 316#452D340F2D2D007F
(1487086894.964349) can0 080#0017340F2D2D2D23
(1487086894.964350) can0 081#7F00000000000073
(1487086894.964350) can0 18F#FE542D0000620000
(1487086894.964350) can0 260#052D0030FFAE7B3E
(1487086894.964351) can0 2A0#62005F9C6D12A900
(1487086894.965427) can0 2C0#0000000000000000
(1487086894.965428) can0 329#4F7E810C112B0010
(1487086894.965429) can0 545#D81C008A06000700
(1487086894.966519) can0 165#041880000000069A
(1487086894.966520) can0 2B0#1E00000708
(1487086894.967612) can0 153#200000FF00FFA0BE
(1487086894.967612) can0 4B0#004000C000000000
(1487086894.972196) can0 220#F10300000000BB0F
(1487086894.973306) can0 164#0008000000000109
(1487086894.973306) can0 4F0#00004C0000121402
(1487086894.973307) can0 4F1#CCFF000000000000
(1487086894.973307) can0 260#052D0030FFAE7B01
(1487086894.974418) can0 18F#FE542D0000620000
(1487086894.974419) can0 080#0017340F2D2D2D14
(1487086894.974419) can0 081#7F00000000000064
(1487086894.974420) can0 2A0#02005F9C6D12A900
(1487086894.975573) can0 2C0#0000000000000000
(1487086894.975574) can0 316#452D340F2D2D007F
(1487086894.975574) can0 329#847E810C112C0010
(1487086894.975574) can0 545#D81C008B06000700
(1487086894.975575) can0 165#040880000000078B
(1487086894.976637) can0 2B0#1E00000719
(1487086894.977735) can0 153#200000FF00FFB0CE
(1487086894.979690) can0 5F0#0100
(1487086894.982274) can0 220#F50300000000F30F
(1487086894.983367) can0 164#000800000000020A
(1487086894.983368) can0 1F1#0000000000000000
(1487086894.983368) can0 2C0#0000000000000000
(1487086894.984479) can0 2A0#A2005F9C6D12A900
(1487086894.984480) can0 260#052D0030FFAE7B10
(1487086894.984480) can0 080#0017340F2D2D2D05
(1487086894.984480) can0 081#7F00000000000055
(1487086894.984481) can0 18F#FE542D0000620000
(1487086894.985615) can0 316#452D340F2D2D007F
(1487086894.985616) can0 329#847E810C112C0010
(1487086894.985616) can0 165#0408800000000884
(1487086894.985617) can0 2B0#1E0000072A
(1487086894.985617) can0 545#D81C008905000600
(1487086894.987313) can0 153#200000FF00FFC0DE
(1487086894.988410) can0 4B0#008000C000000000
(1487086894.992358) can0 220#F403000000000510
(1487086894.993451) can0 164#000800000000030B
(1487086894.993452) can0 4F0#00004E0000121402
(1487086894.993452) can0 4F1#CCFF000000000000
(1487086894.993452) can0 2C0#0000000000000000
(1487086894.994582) can0 18F#FE542E0000620000
(1487086894.994583) can0 080#0017320F2D2D2E06
(1487086894.994584) can0 081#7F00000000000046
(1487086894.994584) can0 260#052E0030FFAE7B2E
(1487086894.995716) can0 2A0#C2005F9C6D12A900
(1487086894.995717) can0 316#452D320F2E2D007F
(1487086894.995717) can0 2B0#1E0000073B
(1487086894.995717) can0 329#847E810C112C0010
(1487086894.995718) can0 545#D81C008904000700
(1487086894.995718) can0 5E4#000000
(1487086894.996809) can0 165#0308800000000982
(1487086894.997880) can0 153#200000FF00FFD0EE
(1487086895.002455) can0 220#F10300000000E00F
(1487086895.003573) can0 164#000800000000040C
(1487086895.003574) can0 1F1#0000000000000000
(1487086895.003574) can0 316#452D380F2E2D007F
(1487086895.003575) can0 080#0017380F2D2D2E97
(1487086895.004688) can0 081#7F00000000000037
(1487086895.004689) can0 18F#FE542E0000620000
(1487086895.004700) can0 260#052E0030FFAE7B3D
(1487086895.004700) can0 165#0208800000000A80
(1487086895.005798) can0 2A0#62005F9C6D12A900
(1487086895.005798) can0 2B0#1F0000075C
(1487086895.005799) can0 2C0#0000000000000000
(1487086895.005799) can0 329#847E810C112C0010
(1487086895.005799) can0 545#D81C008B04000700
(1487086895.007475) can0 153#200000FF00FFE0FE
(1487086895.008569) can0 4B0#0000000000000000
(1487086895.012509) can0 220#F40300000000E00F
(1487086895.013603) can0 164#000800000000050D
(1487086895.013604) can0 4F0#0000500000121402
(1487086895.013604) can0 4F1#CCFF000000000000
(1487086895.013605) can0 2A0#02005F9C6D12A900
(1487086895.014738) can0 260#052E0030FFAE7B00
(1487086895.014738) can0 080#0017380F2D2D2E88
(1487086895.014739) can0 081#7F00000000000028
(1487086895.014739) can0 18F#FE542E0000620000
(1487086895.014739) can0 2B0#1D0000076D
(1487086895.015885) can0 165#0208800000000B81
(1487086895.015886) can0 2C0#0000000000000000
(1487086895.015886) can0 316#452D380F2E2D007F
(1487086895.015886) can0 329#847E810C112C0010
(1487086895.016948) can0 545#D81C008904000700
(1487086895.018036) can0 153#200000FF00FF001E
(1487086895.022589) can0 220#F50300000000CD0F
(1487086895.023677) can0 164#000800000000060E
(1487086895.023678) can0 1F1#0000000000000000
(1487086895.023678) can0 2C0#0000000000000000
(1487086895.024812) can0 165#03F87F0000000C88
(1487086895.024812) can0 080#0017440F2D2D2DB9
(1487086895.024813) can0 081#7F00000000000019
(1487086895.024824) can0 18F#FE542D0000620000
(1487086895.024824) can0 260#052D0030FFAE7912
(1487086895.025943) can0 2A0#A2005F9C6D12A900
(1487086895.025943) can0 2B0#1E0000076E
(1487086895.025954) can0 316#452D440F2D2D007F
(1487086895.025957) can0 329#847E810C112C0010
(1487086895.025958) can0 545#D81C008801000100
(1487086895.027034) can0 0A0#5457340F00240002
(1487086895.027035) can0 0A1#7B7F80802A000000
(1487086895.028167) can0 153#200000FF00FF102E
(1487086895.028168) can0 4B0#0040000000000000
(1487086895.028169) can0 5F0#0100
(1487086895.032674) can0 220#F50300000000C10F
(1487086895.033791) can0 164#000800000000070F
(1487086895.033791) can0 165#04F87F0000000D8E
(1487086895.033792) can0 2B0#1E0000077F
(1487086895.033792) can0 2C0#0000000000000000
(1487086895.034926) can0 316#452D380F2D2D007F
(1487086895.034927) can0 080#0017380F2D2D2D7A
(1487086895.034927) can0 081#7F0000000000000A
(1487086895.034927) can0 18F#FE542D0000620000
(1487086895.036029) can0 260#052D0030FFAE7921
(1487086895.036029) can0 2A0#C2005F9C6D12A900
(1487086895.036030) can0 329#D77E810C112C0010
(1487086895.036030) can0 4F0#0000520000121402
(1487086895.036030) can0 545#D81B008A01000100
(1487086895.037107) can0 4F1#CCFF000000000000
(1487086895.038187) can0 153#200000FF00FF203E
(1487086895.042748) can0 220#F50300000000E60F
(1487086895.043879) can0 164#0008000000000800
(1487086895.043880) can0 1F1#0000000000000000
(1487086895.043880) can0 2B0#1E00000780
(1487086895.043881) can0 165#0408800000000E82
(1487086895.044981) can0 2C0#0000000000000000
(1487086895.044981) can0 080#0017380F2D2D2D6B
(1487086895.044992) can0 081#7F000000000000FB
(1487086895.044993) can0 18F#FE542D0000620000
(1487086895.044993) can0 260#052D0030FFAE7930
(1487086895.046070) can0 2A0#62005F9C6D12A900
(1487086895.046071) can0 316#452D380F2D2D007F
(1487086895.046082) can0 329#D77E810C112C0010
(1487086895.046082) can0 545#D81B008A01000100
(1487086895.047780) can0 153#200000FF00FF304E
(1487086895.048857) can0 4B0#0080000000000000
(1487086895.052574) can0 165#05F87F0000000F8D
(1487086895.053716) can0 220#F50300000000DA0F
(1487086895.053717) can0 164#0008000000000901
(1487086895.053728) can0 2B0#1D000007A1
(1487086895.053728) can0 4F0#0000540000121402
(1487086895.054825) can0 2C0#0000000000000000
(1487086895.054826) can0 4F1#CCFF000000000000
(1487086895.054837) can0 2A0#02005F9C6D12A900
(1487086895.054837) can0 260#052E0030FFAE7D0E
(1487086895.054838) can0 080#0017100F2E2D2EDC
(1487086895.055934) can0 081#7F000000000000EC
(1487086895.055934) can0 18F#FE542E0000620000
(1487086895.055935) can0 316#452E100F2E2D007F
(1487086895.055935) can0 329#D77E810C112C0010
(1487086895.055935) can0 545#D81B00890C001000
(1487086895.057025) can0 690#4000400000200800
(1487086895.058123) can0 153#200000FF00FF405E
(1487086895.062151) can0 165#050880000000008D
(1487086895.063261) can0 2B0#1D00000792
(1487086895.063272) can0 220#F50300000000CD0F
(1487086895.063272) can0 164#0008000000000A02
(1487086895.064361) can0 1F1#0000000000000000
(1487086895.064362) can0 2C0#0000000000000000
(1487086895.064363) can0 316#452E080F2E2D007F
(1487086895.064363) can0 2A0#A2005F9C6D12A900
(1487086895.065481) can0 080#0017080F2E2D2E5D
(1487086895.065482) can0 081#7F000000000000DD
(1487086895.065482) can0 18F#FE542E0000620000
(1487086895.065493) can0 260#052E0030FFAE7D1D
(1487086895.066573) can0 329#D77E810C112C0010
(1487086895.066573) can0 545#D81B00890D001100
(1487086895.067930) can0 153#200000FF00FF506E
(1487086895.069007) can0 4B0#00C0000000000000
(1487086895.071873) can0 165#05F87F0000000183
(1487086895.072981) can0 2B0#1E000007B3
(1487086895.072982) can0 220#F50300000000D40F
(1487086895.074088) can0 164#0008000000000B03
(1487086895.074089) can0 4F0#0000560000121402
(1487086895.074089) can0 4F1#CCFF000000000000
(1487086895.074101) can0 2C0#0000000000000000
(1487086895.075199) can0 316#452E080F2E2D007F
(1487086895.075199) can0 080#0017080F2E2D2E4E
(1487086895.075211) can0 081#7F000000000000CE
(1487086895.075211) can0 18F#FE542E0000620000
(1487086895.076311) can0 260#052E0030FFAE7D2C
(1487086895.076311) can0 2A0#C2005F9C6D12A900
(1487086895.076312) can0 329#D77E810C112C0010
(1487086895.076312) can0 545#D81B008B0D001100
(1487086895.077398) can0 5F0#0100
(1487086895.078490) can0 153#200000FF00FF607E
(1487086895.081428) can0 165#060880000000028C
(1487086895.082500) can0 2B0#1D000007F4
(1487086895.083588) can0 220#F40300000000DA0F
(1487086895.083589) can0 164#0008000000000C04
(1487086895.083589) can0 1F1#0000000000000000
(1487086895.084691) can0 2C0#0000000000000000
(1487086895.084692) can0 316#452F080F2E2D007F
(1487086895.085821) can0 080#0017080F2F2D2E2F
(1487086895.085822) can0 081#7F000000000000BF
(1487086895.085823) can0 18F#FE542E0000620000
(1487086895.085823) can0 260#052E0030FFAE7F39
(1487086895.085823) can0 2A0#62005F9C6D12A900
(1487086895.086889) can0 329#D77E810C112C0010
(1487086895.086890) can0 545#D81B008914001100
(1487086895.088063) can0 153#200000FF00FF708E
(1487086895.089150) can0 4B0#0000004000000000
(1487086895.091063) can0 165#07F87F0000000383
(1487086895.092133) can0 2B0#1D000007E5
(1487086895.093222) can0 220#F10300000000D40F
(1487086895.094315) can0 164#0008000000000D05
(1487086895.094316) can0 4F0#0000580000121402
(1487086895.094316) can0 4F1#CCFF000000000000
(1487086895.094327) can0 2C0#0000000000000000
(1487086895.095447) can0 316#452F060F2F2D007F
(1487086895.095448) can0 329#0F7E810C112C0010
(1487086895.095448) can0 080#0017060F2F2D2F20
(1487086895.095449) can0 081#7F000000000000A0
(1487086895.095449) can0 18F#FE542F0000620000
(1487086895.096539) can0 260#052F0030FFAE7F0B
(1487086895.096540) can0 2A0#02005F9C6D12A900
(1487086895.096540) can0 545#D81B008814001600
(1487086895.096541) can0 5E4#000000
(1487086895.098138) can0 153#200000FF00FF809E
(1487086895.100681) can0 165#08E87F000000049B
(1487086895.101767) can0 2B0#1E000007E6
(1487086895.103172) can0 220#F10300000000DA0F
(1487086895.104283) can0 164#0008000000000E06
(1487086895.104284) can0 1F1#0000000000000000
(1487086895.104285) can0 2C0#0000000000000000
(1487086895.105395) can0 316#452F040F2F2D007F
(1487086895.105396) can0 2A0#A2005F9C6D12A900
(1487086895.105396) can0 080#0017040F2F2D2F31
(1487086895.105408) can0 081#7F00000000000091
(1487086895.105408) can0 18F#FE542F0000620000
(1487086895.106485) can0 260#052F0030FFAE7F1A
(1487086895.106485) can0 329#0F7E810C112C0010
(1487086895.106486) can0 545#D81B008A14001600
(1487086895.108206) can0 153#200000FF00FF90AE
(1487086895.109299) can0 4B0#0040004000000000
(1487086895.110389) can0 165#08F87F000000058A
(1487086895.111460) can0 2B0#1D000007C7
(1487086895.113244) can0 220#F40300000000DA0F
(1487086895.114355) can0 164#0008000000000F07
(1487086895.114355) can0 4F0#00005A0000121402
(1487086895.114356) can0 4F1#CCFF000000000000
(1487086895.115468) can0 2C0#0000000000000000
(1487086895.115469) can0 316#4530040F2F2D007F
(1487086895.115479) can0 329#0F7E810C112C0010
(1487086895.115480) can0 545#D81B008B1C001600
(1487086895.116613) can0 080#0017040F302D2F02
(1487086895.116614) can0 081#7F00000000000082
(1487086895.116615) can0 18F#FE532F0000620000
(1487086895.116615) can0 260#052F0030FFAD8325
(1487086895.116615) can0 2A0#C2005F9C6D12A900
(1487086895.118308) can0 153#200000FF00FFA0BE
(1487086895.120047) can0 165#08F87F0000000689
(1487086895.121134) can0 2B0#1D00000738
(1487086895.123320) can0 220#F40300000000ED0F
(1487086895.124421) can0 164#0008000000000008
(1487086895.124422) can0 1F1#0000000000000000
(1487086895.124422) can0 2C0#0000000000000000
(1487086895.125541) can0 316#4530FA0E302D007F
(1487086895.125542) can0 2A0#62005F9C6D12A900
(1487086895.125542) can0 080#0017FA0E302D3093
(1487086895.125543) can0 081#7F00000000000073
(1487086895.125554) can0 18F#FE54300000620000
(1487086895.126654) can0 260#05300030FFAD8332
(1487086895.126654) can0 329#0F7E810C112C0010
(1487086895.126655) can0 545#D81B008B1C001C00
(1487086895.126666) can0 5F0#0100
(1487086895.128365) can0 153#200000FF00FFB0CE
(1487086895.129466) can0 4B0#0080004000000000
(1487086895.129466) can0 0A0#5557340F00240002
(1487086895.129467) can0 0A1#7B7F80802A000000
(1487086895.130556) can0 165#08F87F0000000788
(1487086895.130556) can0 2B0#1E00000719
(1487086895.133430) can0 220#F50300000000DA0F
(1487086895.134504) can0 164#0008000000000109
(1487086895.134504) can0 4F0#00005C0000121402
(1487086895.134505) can0 2C0#0000000000000000
(1487086895.135632) can0 2A0#02005F9C6D12A900
(1487086895.135633) can0 080#0017F80E302D30A4
(1487086895.135633) can0 081#7F00000000000064
(1487086895.135633) can0 18F#FE54300000620000
(1487086895.135634) can0 260#05300030FFAD8305
(1487086895.136727) can0 316#4530F80E302D007F
(1487086895.136728) can0 329#0F7E810C112C0010
(1487086895.136728) can0 4F1#CCFF000000000000
(1487086895.136729) can0 545#D825008A1C001C00
(1487086895.138425) can0 153#200000FF00FFC0DE
(1487086895.139514) can0 165#0908800000000889
(1487086895.139514) can0 2B0#1E0000072A
(1487086895.143504) can0 220#F90300000000CD0F
(1487086895.144611) can0 164#000800000000020A
(1487086895.144612) can0 1F1#0000000000000000
(1487086895.144613) can0 2C0#0000000000000000
(1487086895.145708) can0 2A0#A2005F9C6D12A900
(1487086895.145709) can0 260#05300030FFAD8314
(1487086895.145719) can0 080#0017F80E302D3095
(1487086895.145720) can0 081#7F00000000000055
(1487086895.145720) can0 18F#FE54300000620000
(1487086895.146799) can0 316#4530F80E302D007F
(1487086895.146800) can0 329#0F7E810C112C0010
(1487086895.146800) can0 545#D82500891C001C00
(1487086895.148540) can0 153#200000FF00FFD0EE
(1487086895.149615) can0 4B0#00C0004000000000
(1487086895.149616) can0 165#08F87F0000000986
(1487086895.149616) can0 2B0#1D0000070B
(1487086895.153547) can0 220#F40300000000D40F
(1487086895.154648) can0 164#000800000000030B
(1487086895.154649) can0 4F0#00005E0000121402
(1487086895.154649) can0 4F1#CCFF000000000000
(1487086895.154660) can0 2C0#0000000000000000
(1487086895.155783) can0 316#4530FE0E302D007F
(1487086895.155795) can0 080#0017FE0E302D3026
(1487086895.155795) can0 081#7F00000000000046
(1487086895.155795) can0 18F#FE54300000620000
(1487086895.156894) can0 260#05300030FFAD8323
(1487086895.156895) can0 2A0#C2005F9C6D12A900
(1487086895.156895) can0 329#4F7E810C112C0010
(1487086895.156906) can0 545#D825008A1D001D00
(1487086895.156907) can0 690#4000400000200C00
(1487086895.158600) can0 153#200000FF00FFE0FE
(1487086895.159688) can0 165#08F87F0000000A85
(1487086895.159689) can0 2B0#1D0000077C
(1487086895.163636) can0 220#F50300000000E60F
(1487086895.164747) can0 164#000800000000040C
(1487086895.164748) can0 1F1#0000000000000000
(1487086895.164748) can0 316#45300A0F302D007F
(1487086895.165851) can0 080#00170A0F302D3037
(1487086895.165852) can0 081#7F00000000000037
(1487086895.165852) can0 18F#FE54300000620000
(1487086895.165853) can0 260#05300030FFAE8331
(1487086895.165853) can0 2A0#62005F9C6D12A900
(1487086895.166945) can0 2C0#0000000000000000
(1487086895.166946) can0 329#4F7E810C112C0010
(1487086895.166946) can0 545#D825008A1D001D00
(1487086895.168229) can0 165#08F87F0000000B84
(1487086895.169316) can0 2B0#1D0000076D
(1487086895.169317) can0 153#200000FF00FF001E
(1487086895.169317) can0 4B0#0000008000000000
(1487086895.173120) can0 5F0#0100
(1487086895.174228) can0 220#F90300000000D40F
(1487086895.174229) can0 164#000800000000050D
(1487086895.175347) can0 4F0#0000600000121402
(1487086895.175347) can0 4F1#CCFF000000000000
(1487086895.175348) can0 260#05300030FFAE8304
(1487086895.175348) can0 18F#FE53300000620000
(1487086895.175348) can0 080#00170A0F302D3028
(1487086895.176492) can0 081#7F00000000000028
(1487086895.176492) can0 2A0#02005F9C6D12A900
(1487086895.176493) can0 2C0#0000000000000000
(1487086895.176493) can0 316#45300A0F302D007F
(1487086895.176493) can0 329#4F7E810C112C0010
(1487086895.177564) can0 545#D82500881D001D00
(1487086895.178674) can0 165#08F87F0000000C83
(1487086895.178675) can0 2B0#1D0000075E
(1487086895.179752) can0 153#200000FF00FF102E
(1487086895.183848) can0 220#F40300000000D40F
(1487086895.184948) can0 164#000800000000060E
(1487086895.184949) can0 1F1#0000000000000000
(1487086895.184949) can0 2C0#0000000000000000
(1487086895.186062) can0 316#452E200F2F2D007F
(1487086895.186063) can0 2A0#A2005F9C6D12A900
(1487086895.186064) can0 080#0017200F2E2D2FE9
(1487086895.186064) can0 081#7F00000000000019
(1487086895.186064) can0 18F#FE542F0000620000
(1487086895.187155) can0 260#052F0030FFAE7D1C
(1487086895.187156) can0 329#4F7E810C112C0010
(1487086895.187157) can0 545#D825008A10001400
(1487086895.188255) can0 165#0708800000000D82
(1487086895.188256) can0 2B0#1D0000074F
(1487086895.189336) can0 153#200000FF00FF203E
(1487086895.189337) can0 4B0#0040008000000000
(1487086895.193932) can0 220#F20300000000D40F
(1487086895.195000) can0 164#000800000000070F
(1487086895.195001) can0 4F0#0000620000121402
(1487086895.195001) can0 4F1#CCFF000000000000
(1487086895.195002) can0 2C0#0000000000000000
(1487086895.196137) can0 18F#FE542F0000620000
(1487086895.196138) can0 080#0017260F2E2D2F7A
(1487086895.196138) can0 081#7F0000000000000A
(1487086895.196139) can0 260#052F0030FFAE7D2B
(1487086895.197271) can0 2A0#C2005F9C6D12A900
(1487086895.197272) can0 316#452E260F2F2D007F
(1487086895.197272) can0 329#4F7E810C112D0010
(1487086895.197273) can0 545#D825008B10001400
(1487086895.197273) can0 5E4#000000
(1487086895.198361) can0 2B0#1E00000780
(1487086895.198362) can0 165#06F87F0000000E8F
(1487086895.199428) can0 153#200000FF00FF304E
(1487086895.204003) can0 220#F20300000000DA0F
(1487086895.205074) can0 164#0008000000000800
(1487086895.205075) can0 1F1#0000000000000000
(1487086895.205076) can0 316#452E260F2F2D007F
(1487086895.205081) can0 080#0017260F2E2D2F6B
(1487086895.206226) can0 081#7F000000000000FB
(1487086895.206227) can0 18F#FE532F0000620000
(1487086895.206227) can0 260#052F0030FFAE7D3A
(1487086895.206228) can0 2A0#62005F9C6D12A900
(1487086895.207319) can0 2C0#0000000000000000
(1487086895.207320) can0 329#4F7E810C112D0010
(1487086895.207320) can0 545#D825008910001400
(1487086895.207321) can0 165#0608800000000F81
(1487086895.207321) can0 2B0#1D000007A1
(1487086895.209030) can0 153#200000FF00FF405E
(1487086895.210093) can0 4B0#0080008000000000
(1487086895.214061) can0 220#F20300000000E60F
(1487086895.215164) can0 164#0008000000000901
(1487086895.215165) can0 4F0#0000640000121402
(1487086895.215165) can0 4F1#CCFF000000000000
(1487086895.215165) can0 260#052E0030FFAE7B00
(1487086895.216282) can0 2A0#02005F9C6D12A900
(1487086895.216283) can0 080#0017340F2E2D2E7C
(1487086895.216284) can0 081#7F000000000000EC
(1487086895.216284) can0 18F#FE542E0000620000
(1487086895.217413) can0 2C0#0000000000000000
(1487086895.217414) can0 165#050880000000008D
(1487086895.217415) can0 2B0#1D00000792
(1487086895.217415) can0 316#452E340F2E2D007F
(1487086895.217415) can0 329#847E810C112D0010
(1487086895.218481) can0 545#D825008A0C000B00
(1487086895.219572) can0 153#200000FF00FF506E
(1487086895.221552) can0 5F0#0100
(1487086895.224109) can0 220#F20300000000ED0F
(1487086895.225164) can0 164#0008000000000A02
(1487086895.225165) can0 1F1#0000000000000000
(1487086895.225166) can0 2C0#0000000000000000
(1487086895.226270) can0 260#052E0030FFAE7B1F
(1487086895.226271) can0 2A0#A2005F9C6D12A900
(1487086895.226271) can0 080#0017340F2E2D2E6D
(1487086895.226272) can0 081#7F000000000000DD
(1487086895.226272) can0 0A0#5557200F00240002
(1487086895.227384) can0 0A1#7B7F80802A000000
(1487086895.227385) can0 18F#FE532E0000620000
(1487086895.227385) can0 2B0#1E000007B3
(1487086895.227385) can0 165#050880000000018C
(1487086895.227386) can0 316#452E340F2E2D007F
(1487086895.228487) can0 329#847E810C112D0010
(1487086895.228488) can0 545#D825008B0C000B00
(1487086895.229566) can0 153#200000FF00FF607E
(1487086895.229567) can0 4B0#00C0008000000000
(1487086895.234163) can0 220#F70300000000D40F
(1487086895.235236) can0 164#0008000000000B03
(1487086895.235237) can0 4F0#0000660000121402
(1487086895.235237) can0 2C0#0000000000000000
(1487086895.236365) can0 316#452E340F2E2D007F
(1487086895.236366) can0 080#0017340F2E2D2E5E
(1487086895.236366) can0 081#7F000000000000CE
(1487086895.236367) can0 18F#FE532E0000620000
(1487086895.236367) can0 260#052E0030FFAE7B2E
(1487086895.237498) can0 2A0#C2005F9C6D12A900
(1487086895.237499) can0 2B0#1D000007F4
(1487086895.237499) can0 165#050880000000028F
(1487086895.237500) can0 329#847E810C112D0010
(1487086895.237500) can0 4F1#CCFF000000000000
(1487086895.238590) can0 545#D81D008A0C000B00
(1487086895.239688) can0 153#200000FF00FF708E
(1487086895.244223) can0 220#F40300000000C10F
(1487086895.245308) can0 164#0008000000000C04
(1487086895.245309) can0 1F1#0000000000000000
(1487086895.245310) can0 316#452E340F2E2D007F
(1487086895.245310) can0 080#0017340F2E2D2E4F
(1487086895.246437) can0 081#7F000000000000BF
(1487086895.246438) can0 18F#FE532E0000620000
(1487086895.246439) can0 260#052E0030FFAE793F
(1487086895.246439) can0 2A0#62005F9C6D12A900
(1487086895.246439) can0 2B0#1D000007E5
(1487086895.247528) can0 165#050880000000038E
(1487086895.247529) can0 2C0#0000000000000000
(1487086895.247530) can0 329#847E810C112D0010
(1487086895.247530) can0 545#D81D008909000900
(1487086895.249259) can0 153#200000FF00FF809E
(1487086895.250339) can0 4B0#000000C000000000
(1487086895.254305) can0 220#F10300000000DA0F
(1487086895.255397) can0 164#0008000000000D05
(1487086895.255398) can0 165#0508800000000489
(1487086895.255398) can0 2B0#1E000007E6
(1487086895.255399) can0 2C0#0000000000000000
(1487086895.256511) can0 316#452E400F2E2D007F
(1487086895.256512) can0 080#0017400F2E2D2E60
(1487086895.256512) can0 081#7F000000000000A0
(1487086895.256512) can0 18F#FE532E0000620000
(1487086895.256513) can0 260#052E0030FFAE7902
(1487086895.257644) can0 2A0#02005F9C6D12A900
(1487086895.257645) can0 329#847E810C112C0010
(1487086895.257646) can0 4F0#0000680000121402
(1487086895.257646) can0 545#D81D008B09000900
(1487086895.258734) can0 4F1#CCFF000000000000
(1487086895.258735) can0 5A1#5442333046422644
(1487086895.258736) can0 690#4000400000201000
(1487086895.259805) can0 153#200000FF00FF90AE
(1487086895.264380) can0 220#F10300000000ED0F
(1487086895.265471) can0 164#0008000000000E06
(1487086895.265471) can0 1F1#0000000000000000
(1487086895.265472) can0 2B0#1E000007F7
(1487086895.265472) can0 165#0508800000000588
(1487086895.266582) can0 2C0#0000000000000000
(1487086895.266582) can0 2A0#A2005F9C6D12A900
(1487086895.266583) can0 080#0017400F2E2D2E51
(1487086895.266583) can0 081#7F00000000000091
(1487086895.266584) can0 18F#FE532E0000620000
(1487086895.267692) can0 260#052E0030FFAE7911
(1487086895.267693) can0 316#452E400F2E2D007F
(1487086895.267693) can0 329#847E810C112C0010
(1487086895.267694) can0 545#D81D008B09000900
(1487086895.269403) can0 153#200000FF00FFA0BE
(1487086895.270502) can0 4B0#004000C000000000
(1487086895.270503) can0 5F0#0100
(1487086895.274089) can0 165#050880000000068B
(1487086895.275196) can0 2B0#1D00000738
(1487086895.275196) can0 220#F10300000000CD0F
(1487086895.275208) can0 164#0008000000000F07
(1487086895.275208) can0 4F0#00006A0000121402
(1487086895.276307) can0 2C0#0000000000000000
(1487086895.276307) can0 316#452C580F2C2D007F
(1487086895.276308) can0 2A0#C2005F9C6D12A900
(1487086895.276308) can0 080#0017580F2C2D2CF2
(1487086895.276308) can0 081#7F00000000000082
(1487086895.277412) can0 18F#FE532C0000620000
(1487086895.277413) can0 260#052C0030FFAE7328
(1487086895.277413) can0 329#D77E810C112C0010
(1487086895.277413) can0 4F1#CCFF000000000000
(1487086895.278503) can0 545#D81D0089F9FFFDFF
(1487086895.279572) can0 153#200000FF00FFB0CE
(1487086895.283730) can0 165#050880000000078A
(1487086895.284820) can0 2B0#1E00000719
(1487086895.284821) can0 220#F20300000000E00F
(1487086895.284821) can0 164#0008000000000008
(1487086895.285910) can0 1F1#0000000000000000
(1487086895.285911) can0 316#452C5C0F2C2D007F
(1487086895.285911) can0 080#00175C0F2C2D2CA3
(1487086895.285911) can0 081#7F00000000000073
(1487086895.287044) can0 18F#FE532C0000620000
(1487086895.287056) can0 260#052C0030FFAE7337
(1487086895.287056) can0 2A0#62005F9C6D12A900
(1487086895.287057) can0 2C0#0000000000000000
(1487086895.287057) can0 329#D77E810C112C0010
(1487086895.288148) can0 545#D81D008BF9FFFDFF
(1487086895.289550) can0 153#200000FF00FFC0DE
(1487086895.290636) can0 4B0#008000C000000000
(1487086895.293424) can0 165#0508800000000885
(1487086895.294534) can0 2B0#1D0000071A
(1487086895.295668) can0 220#F70300000000ED0F
(1487086895.295668) can0 164#0008000000000109
(1487086895.295669) can0 4F0#00006C0000121402
(1487086895.295669) can0 4F1#CCFF000000000000
(1487086895.295669) can0 2A0#02005F9C6D12A900
(1487086895.296804) can0 260#052C0030FFAE730A
(1487086895.296804) can0 080#00175C0F2C2D2C94
(1487086895.296805) can0 081#7F00000000000064
(1487086895.296805) can0 18F#FE532C0000620000
(1487086895.297892) can0 2C0#0000000000000000
(1487086895.297893) can0 316#452C5C0F2C2D007F
(1487086895.297893) can0 329#D77E810C112C0010
(1487086895.297894) can0 545#D81D0089F9FFFDFF
(1487086895.298993) can0 5E4#000000
(1487086895.300092) can0 153#200000FF00FFD0EE
(1487086895.302975) can0 165#05F87F000000098B
(1487086895.304061) can0 2B0#1D0000070B
(1487086895.305174) can0 220#F90300000000E60F
(1487086895.305175) can0 164#000800000000020A
(1487086895.305175) can0 1F1#0000000000000000
(1487086895.306266) can0 2C0#0000000000000000
(1487086895.306266) can0 316#452B600F2C2D007F
(1487086895.306267) can0 2A0#A2005F9C6D12A900
(1487086895.306267) can0 080#0017600F2B2D2C45
(1487086895.307400) can0 081#7F00000000000055
(1487086895.307400) can0 18F#FE532C0000620000
(1487086895.307401) can0 260#052C0030FFAE711B
(1487086895.307401) can0 329#D77E810C112C0010
(1487086895.308473) can0 545#D81D0089F4FFF7FF
(1487086895.309708) can0 153#200000FF00FFE0FE
(1487086895.310778) can0 4B0#0000000000000000
(1487086895.312719) can0 165#0508800000000A87
(1487086895.313782) can0 2B0#1D0000077C
(1487086895.314871) can0 220#F90300000000E00F
(1487086895.316006) can0 164#000800000000030B
(1487086895.316006) can0 4F0#00006E0000121402
(1487086895.316017) can0 2C0#0000000000000000
(1487086895.316018) can0 18F#FE532C0000620000
(1487086895.317135) can0 080#0017620F2B2D2C16
(1487086895.317136) can0 081#7F00000000000046
(1487086895.317136) can0 260#052C0030FFAF7129
(1487086895.317136) can0 2A0#C2005F9C6D12A900
(1487086895.318226) can0 316#452B620F2C2D007F
(1487086895.318227) can0 329#D77E810C112C0010
(1487086895.318227) can0 4F1#CCFF000000000000
(1487086895.318228) can0 545#D81D008BF4FFF7FF
(1487086895.318228) can0 5F0#0100
(1487086895.319792) can0 153#200000FF00FF001E
(1487086895.322360) can0 165#05F87F0000000B89
(1487086895.323453) can0 2B0#1E0000075D
(1487086895.324821) can0 220#F90300000000CD0F
(1487086895.325908) can0 164#000800000000040C
(1487086895.325909) can0 1F1#0000000000000000
(1487086895.325909) can0 316#452B620F2C2D007F
(1487086895.325921) can0 080#0017620F2B2D2C07
(1487086895.327041) can0 081#7F00000000000037
(1487086895.327042) can0 18F#FE532C0000620000
(1487086895.327042) can0 0A0#5657200F00240002
(1487086895.327042) can0 0A1#7B7F80802B000000
(1487086895.328135) can0 260#052C0030FFAF7138
(1487086895.328147) can0 2A0#62005F9C6D12A900
(1487086895.328147) can0 2C0#0000000000000000
(1487086895.328147) can0 329#D77E810C112C0010
(1487086895.328148) can0 545#D81D0089F4FFF7FF
(1487086895.329843) can0 153#200000FF00FF102E
(1487086895.330928) can0 4B0#0040000000000000
(1487086895.332017) can0 165#06F87F0000000C8D
(1487086895.333114) can0 2B0#1E0000076E
(1487086895.334878) can0 220#F40300000000DA0F
(1487086895.335987) can0 164#000800000000050D
(1487086895.335988) can0 2C0#0000000000000000
(1487086895.335991) can0 316#452A6E0F2B2D007F
(1487086895.337112) can0 080#00176E0F2A2D2B58
(1487086895.337113) can0 081#7F00000000000028
(1487086895.337113) can0 18F#FE532B0000620000
(1487086895.337114) can0 260#052B0030FFAF6F0F
(1487086895.338227) can0 2A0#02005F9C6D12A900
(1487086895.338228) can0 329#0F7E810C112C0010
(1487086895.338228) can0 4F0#0000700000121402
(1487086895.338228) can0 545#D81C008BECFFF1FF
(1487086895.338229) can0 4F1#CCFF000000000000
(1487086895.339925) can0 153#200000FF00FF203E
(1487086895.341605) can0 165#0508800000000D80
(1487086895.342698) can0 2B0#1D0000074F
(1487086895.344964) can0 220#F10300000000D40F
(1487086895.346096) can0 164#000800000000060E
(1487086895.346107) can0 1F1#0000000000000000
(1487086895.346108) can0 2C0#0000000000000000
(1487086895.346108) can0 316#452A6A0F2B2D007F
(1487086895.347216) can0 2A0#A2005F9C6D12A900
(1487086895.347217) can0 080#00176A0F2A2D2B89
(1487086895.347217) can0 081#7F00000000000019
(1487086895.347217) can0 18F#FE532B0000620000
(1487086895.348302) can0 260#052B0030FFAF6F1E
(1487086895.348303) can0 329#0F7E810C112C0010
(1487086895.348303) can0 545#D81C008BECFFF1FF
(1487086895.349984) can0 153#200000FF00FF304E
(1487086895.351072) can0 4B0#0080000000000000
(1487086895.352174) can0 165#0608800000000E80
(1487086895.352175) can0 2B0#1E00000780
(1487086895.355024) can0 220#F40300000000CD0F
(1487086895.356110) can0 164#000800000000070F
(1487086895.356111) can0 4F0#0000720000121402
(1487086895.356111) can0 4F1#CCFF000000000000
(1487086895.356112) can0 2C0#0000000000000000
(1487086895.357239) can0 316#452A6A0F2B2D007F
(1487086895.357240) can0 080#00176A0F2A2D2B7A
(1487086895.357240) can0 081#7F0000000000000A
(1487086895.357240) can0 18F#FE532B0000620000
(1487086895.358350) can0 260#052B0030FFAF6F2D
(1487086895.358351) can0 2A0#C2005F9C6D12A900
(1487086895.358352) can0 329#0F7E810C112C0010
(1487086895.358352) can0 545#D81C0089ECFFF1FF
(1487086895.358352) can0 690#4000400000201400
(1487086895.360086) can0 153#200000FF00FF405E
(1487086895.361144) can0 165#07F87F0000000F8F
(1487086895.361145) can0 2B0#1D000007A1
(1487086895.365110) can0 220#F40300000000DA0F
(1487086895.366228) can0 164#0008000000000800
(1487086895.366230) can0 1F1#0000000000000000
(1487086895.366230) can0 2C0#0000000000000000
(1487086895.366230) can0 18F#FE532C0000620000
(1487086895.367372) can0 080#0017560F2C2D2C8B
(1487086895.367373) can0 081#7F000000000000FB
(1487086895.367374) can0 260#052C0030FFAF7336
(1487086895.367374) can0 2A0#62005F9C6D12A900
(1487086895.368446) can0 316#452C560F2C2D007F
(1487086895.368447) can0 329#0F7E810C112C0010
(1487086895.368447) can0 545#D81C008AF9FFF8FF
(1487086895.368448) can0 5F0#0100
(1487086895.370144) can0 153#200000FF00FF506E
(1487086895.371235) can0 4B0#00C0000000000000
(1487086895.371236) can0 165#07F87F0000000080
(1487086895.371237) can0 2B0#1D00000792
(1487086895.375181) can0 220#F10300000000D40F
(1487086895.376275) can0 164#0008000000000901
(1487086895.376275) can0 4F0#0000740000121402
(1487086895.376276) can0 4F1#CCFF000000000000
(1487086895.376276) can0 260#052C0030FFAF7309
(1487086895.377406) can0 18F#FE532C0000620000
(1487086895.377407) can0 080#0017520F2C2D2CBC
(1487086895.377407) can0 081#7F000000000000EC
(1487086895.377408) can0 2A0#02005F9C6D12A900
(1487086895.378499) can0 2C0#0000000000000000
(1487086895.378502) can0 316#452C520F2C2D007F
(1487086895.378502) can0 329#0F7E810C112C0010
(1487086895.378503) can0 545#D81C008AF9FFF8FF
(1487086895.380206) can0 165#07F87F0000000181
(1487086895.381272) can0 153#200000FF00FF607E
(1487086895.381273) can0 2B0#1E000007B3
(1487086895.385254) can0 220#F40300000000CD0F
(1487086895.386374) can0 164#0008000000000A02
(1487086895.386375) can0 1F1#0000000000000000
(1487086895.386375) can0 2C0#0000000000000000
(1487086895.386376) can0 316#452C520F2C2D007F
(1487086895.387482) can0 329#0F7E810C112C0010
(1487086895.387483) can0 080#0017520F2C2D2CAD
(1487086895.387484) can0 081#7F000000000000DD
(1487086895.387494) can0 18F#FE532C0000620000
(1487086895.388608) can0 260#052C0030FFAF7318
(1487086895.388609) can0 2A0#A2005F9C6D12A900
(1487086895.388610) can0 545#D81C0089F9FFF8FF
(1487086895.389880) can0 165#08F87F000000028D
(1487086895.390992) can0 2B0#1E000007C4
(1487086895.390993) can0 153#200000FF00FF708E
(1487086895.390994) can0 4B0#0000004000000000
(1487086895.395388) can0 220#F70300000000CD0F
(1487086895.396492) can0 164#0008000000000B03
(1487086895.396493) can0 4F0#0000760000121402
(1487086895.396493) can0 4F1#CCFF000000000000
(1487086895.396493) can0 2C0#0000000000000000
(1487086895.397624) can0 18F#FE532C0000620000
(1487086895.397625) can0 080#0017540F2C2D2C7E
(1487086895.397626) can0 081#7F000000000000CE
(1487086895.397626) can0 260#052C0030FFAF7327
(1487086895.397626) can0 2A0#C2005F9C6D12A900
(1487086895.398715) can0 316#452C540F2C2D007F
(1487086895.398716) can0 329#4F7E810C112C0010
(1487086895.398717) can0 545#D81C0088F8FFFAFF
(1487086895.399830) can0 5E4#000000
(1487086895.399831) can0 2B0#1D000007E5
(1487086895.400924) can0 165#08F87F000000038C
(1487086895.400925) can0 153#200000FF00FF809E
(1487086895.405462) can0 220#F70300000000DA0F
(1487086895.406548) can0 164#0008000000000C04
(1487086895.406549) can0 1F1#0000000000000000
(1487086895.406549) can0 316#452C4E0F2C2D007F
(1487086895.406549) can0 080#00174E0F2C2D2CDF
(1487086895.407676) can0 081#7F000000000000BF
(1487086895.407677) can0 18F#FE532C0000620000
(1487086895.407677) can0 260#052C0030FFAF7336
(1487086895.407678) can0 2A0#62005F9C6D12A900
(1487086895.408779) can0 2C0#0000000000000000
(1487086895.408780) can0 329#4F7E810C112C0010
(1487086895.408780) can0 545#D81C008AF8FFFAFF
(1487086895.409869) can0 165#08F87F000000048B
(1487086895.409870) can0 2B0#1D000007D6
(1487086895.410893) can0 153#200000FF00FF90AE
(1487086895.410894) can0 4B0#0040004000000000
(1487086895.414950) can0 5F0#0100
(1487086895.416040) can0 220#F70300000000D40F
(1487086895.416041) can0 164#0008000000000D05
(1487086895.417158) can0 4F0#0000780000121402
(1487086895.417160) can0 2C0#0000000000000000
(1487086895.417160) can0 316#452C4E0F2C2D007F
(1487086895.417160) can0 080#00174E0F2C2D2CC0
(1487086895.417161) can0 081#7F000000000000A0
(1487086895.418292) can0 18F#FE532C0000620000
(1487086895.418293) can0 260#052C0030FFAF7309
(1487086895.418293) can0 2A0#02005F9C6D12A900
(1487086895.418294) can0 329#4F7E810C112C0010
(1487086895.419437) can0 4F1#CCFF000000000000
(1487086895.419438) can0 545#D81C008AF8FFFAFF
(1487086895.419438) can0 165#08F87F000000058A
(1487086895.419438) can0 2B0#1D000007C7
(1487086895.419439) can0 5A0#0000000000000000
(1487086895.419439) can0 5A2#00829303
(1487086895.420574) can0 153#200000FF00FFA0BE
(1487086895.425539) can0 220#F70300000000E60F
(1487086895.426622) can0 164#0008000000000E06
(1487086895.426622) can0 1F1#0000000000000000
(1487086895.426623) can0 2C0#0000000000000000
(1487086895.427733) can0 316#452D380F2D2C007F
(1487086895.427734) can0 18F#FE532D0000620000
(1487086895.427735) can0 080#0017380F2D2C2D11
(1487086895.427735) can0 081#7F00000000000091
(1487086895.428858) can0 260#052D0030FFAF7713
(1487086895.428859) can0 2A0#A2005F9C6D12A900
(1487086895.428859) can0 329#4F7E810C112B0010
(1487086895.428860) can0 0A0#5557520F00230002
(1487086895.428860) can0 0A1#7B7F80802A000000
(1487086895.429948) can0 2B0#1E00000708
(1487086895.429949) can0 165#0708800000000689
(1487086895.429950) can0 545#D81C008805000500
(1487086895.431028) can0 153#200000FF00FFB0CE
(1487086895.431029) can0 4B0#0080004000000000
(1487086895.435621) can0 220#F70300000000E60F
(1487086895.436711) can0 164#0008000000000F07
(1487086895.436712) can0 4F0#00007A0000121402
(1487086895.436712) can0 2C0#0000000000000000
(1487086895.437844) can0 316#452D360F2D2C007F
(1487086895.437844) can0 080#0017360F2D2C2D22
(1487086895.437845) can0 081#7F00000000000082
(1487086895.437845) can0 18F#FE532D0000620000
(1487086895.438975) can0 260#052D0030FFAF7722
(1487086895.438976) can0 165#07F87F0000000787
(1487086895.438976) can0 2A0#C2005F9C6D12A900
(1487086895.438976) can0 2B0#1E00000719
(1487086895.438977) can0 329#4F7E810C112B0010
(1487086895.440069) can0 4F1#CCFF000000000000
(1487086895.440070) can0 545#D81B008905000500
(1487086895.441158) can0 153#200000FF00FFC0DE
(1487086895.445697) can0 220#F70300000000DA0F
(1487086895.446815) can0 164#0008000000000008
(1487086895.446816) can0 1F1#0000000000000000
(1487086895.446816) can0 2C0#0000000000000000
(1487086895.446817) can0 316#452D360F2D2C007F
(1487086895.447922) can0 080#0017360F2D2C2D13
(1487086895.447922) can0 081#7F00000000000073
(1487086895.447923) can0 18F#FE532D0000620000
(1487086895.447923) can0 165#07E87F0000000898
(1487086895.449029) can0 260#052D0030FFAF7731
(1487086895.449030) can0 2A0#62005F9C6D12A900
(1487086895.449030) can0 2B0#1E0000072A
(1487086895.449031) can0 329#4F7E810C112B0010
(1487086895.449031) can0 545#D81B008B05000500
(1487086895.450716) can0 153#200000FF00FFD0EE
(1487086895.451806) can0 4B0#00C0004000000000
(1487086895.455766) can0 220#F40300000000E00F
(1487086895.456855) can0 164#0008000000000109
(1487086895.456856) can0 4F0#00007C0000121402
(1487086895.456857) can0 4F1#CCFF000000000000
(1487086895.456857) can0 2C0#0000000000000000
(1487086895.457990) can0 690#4000400000201800
(1487086895.457991) can0 165#0508800000000984
(1487086895.457992) can0 2B0#1D0000070B
(1487086895.457992) can0 080#0017360F2D2C2D04
(1487086895.457992) can0 081#7F00000000000064
(1487086895.459123) can0 18F#FE532D0000620000
(1487086895.459124) can0 260#052D0030FFAF7902
(1487086895.459124) can0 2A0#02005F9C6D12A900
(1487086895.459125) can0 316#452D360F2D2C007F
(1487086895.460216) can0 329#847E810C112B0010
(1487086895.460217) can0 545#D81B008909000900
(1487086895.461308) can0 153#200000FF00FFE0FE
(1487086895.463214) can0 5F0#0100
(1487086895.465842) can0 220#F10300000000DA0F
(1487086895.466926) can0 164#000800000000020A
(1487086895.466927) can0 1F1#0000000000000000
(1487086895.466928) can0 2C0#0000000000000000
(1487086895.466931) can0 165#0508800000000A87
(1487086895.468066) can0 2B0#1D0000077C
(1487086895.468067) can0 316#452D360F2D2C007F
(1487086895.468067) can0 260#052D0030FFAE7912
(1487086895.468067) can0 080#0017360F2D2C2DF5
(1487086895.468068) can0 081#7F00000000000055
(1487086895.469176) can0 18F#FE532D0000620000
(1487086895.469177) can0 2A0#A2005F9C6D12A900
(1487086895.469178) can0 329#847E810C112B0010
(1487086895.469178) can0 545#D81B008709000900
(1487086895.470873) can0 153#200000FF00FF001E
(1487086895.471948) can0 4B0#0000008000000000
(1487086895.475913) can0 220#F10300000000C70F
(1487086895.477045) can0 164#000800000000030B
(1487086895.477046) can0 165#0508800000000B86
(1487086895.477046) can0 2B0#1D0000076D
(1487086895.477047) can0 2C0#0000000000000000
(1487086895.478168) can0 260#052D0030FFAE7921
(1487086895.478169) can0 18F#FE532D0000620000
(1487086895.478169) can0 080#0017280F2D2C2DD6
(1487086895.478170) can0 081#7F00000000000046
(1487086895.478170) can0 2A0#C2005F9C6D12A900
(1487086895.479272) can0 316#452D280F2D2C007F
(1487086895.479273) can0 329#847E810C112B0010
(1487086895.479273) can0 4F0#00007E0000121402
(1487086895.479273) can0 545#D81B008A09000900
(1487086895.479274) can0 4F1#CCFF000000000000
(1487086895.480924) can0 153#200000FF00FF102E
(1487086895.485986) can0 220#F10300000000C70F
(1487086895.487104) can0 164#000800000000040C
(1487086895.487105) can0 1F1#0000000000000000
(1487086895.487106) can0 2B0#1D0000075E
(1487086895.487106) can0 165#0508800000000C81
(1487086895.488251) can0 2C0#0000000000000000
(1487086895.488252) can0 316#452F280F2D2C007F
(1487086895.488253) can0 080#0017280F2F2C2DA7
(1487086895.488253) can0 081#7F00000000000037
(1487086895.489342) can0 18F#FE532D0000620000
(1487086895.489343) can0 260#052D0030FFAE8137
(1487086895.489343) can0 2A0#62005F9C6D12A900
(1487086895.489344) can0 329#847E810C112B0010
(1487086895.489344) can0 545#D81B008B1A000900
(1487086895.491020) can0 153#200000FF00FF203E
(1487086895.492112) can0 4B0#0040008000000000
(1487086895.495721) can0 165#0508800000000D80
(1487086895.496856) can0 2B0#1D0000074F
(1487086895.496857) can0 220#F10300000000E00F
(1487086895.496858) can0 164#000800000000050D
(1487086895.496858) can0 4F0#0000800000121402
(1487086895.497966) can0 2C0#0000000000000000
(1487086895.497967) can0 4F1#CCFF000000000000
(1487086895.497968) can0 260#052F0030FFAE8108
(1487086895.497968) can0 18F#FE532F0000620000
(1487086895.497968) can0 080#0017F80E2F2C2FB8
(1487086895.499078) can0 081#7F00000000000028
(1487086895.499079) can0 2A0#02005F9C6D12A900
(1487086895.499079) can0 316#452FF80E2F2C007F
(1487086895.499080) can0 329#847E810C112C0010
(1487086895.499080) can0 545#D81B008B1A001A00
(1487086895.500510) can0 5E4#000000
(1487086895.501598) can0 153#200000FF00FF304E
(1487086895.505295) can0 165#0508800000000E83
(1487086895.506403) can0 2B0#1E00000780
(1487086895.506404) can0 220#F20300000000DA0F
(1487086895.506404) can0 164#000800000000060E
(1487086895.507515) can0 1F1#0000000000000000
(1487086895.507516) can0 2C0#0000000000000000
(1487086895.507516) can0 316#452FEE0E2F2C007F
(1487086895.507517) can0 329#847E810C112C0010
(1487086895.508650) can0 080#0017EE0E2F2C2F59
(1487086895.508651) can0 081#7F00000000000019
(1487086895.508652) can0 18F#FE532F0000620000
(1487086895.508652) can0 260#052F0030FFAE8117
(1487086895.508653) can0 2A0#A2005F9C6D12A900
(1487086895.509717) can0 545#D81B008A1A001A00
(1487086895.511170) can0 153#200000FF00FF405E
(1487086895.512256) can0 4B0#0080008000000000
(1487086895.512257) can0 5F0#0100
(1487086895.515008) can0 165#0508800000000F82
(1487086895.516101) can0 2B0#1E00000791
(1487086895.517212) can0 220#F50300000000D40F
(1487086895.517212) can0 164#000800000000070F
(1487086895.517213) can0 4F0#0000820000121402
(1487086895.517213) can0 2C0#0000000000000000
(1487086895.518345) can0 4F1#CCFF000000000000
(1487086895.518346) can0 316#452FEE0E2F2C007F
(1487086895.518346) can0 18F#FE532F0000620000
(1487086895.518346) can0 080#0017EE0E2F2C2F4A
(1487086895.518347) can0 081#7F0000000000000A
(1487086895.519464) can0 260#052F0030FFAD8523
(1487086895.519465) can0 2A0#C2005F9C6D12A900
(1487086895.519465) can0 329#D77E810C112C0010
(1487086895.519465) can0 545#D81B00891A001A00
(1487086895.521244) can0 153#200000FF00FF506E
(1487086895.524663) can0 165#05F87F0000000082
(1487086895.525731) can0 2B0#1E000007A2
(1487086895.526840) can0 220#F50300000000DA0F
(1487086895.526841) can0 164#0008000000000800
(1487086895.526841) can0 1F1#0000000000000000
(1487086895.527936) can0 316#4530EE0E302C007F
(1487086895.527937) can0 080#0017EE0E302C30FB
(1487086895.527937) can0 081#7F000000000000FB
(1487086895.527938) can0 18F#FE53300000620000
(1487086895.529067) can0 260#05300030FFAD8530
(1487086895.529067) can0 2A0#62005F9C6D12A900
(1487086895.529068) can0 2C0#0000000000000000
(1487086895.529068) can0 329#D77E810C112C0010
(1487086895.529068) can0 545#D81B008B21002300
(1487086895.530167) can0 0A0#5557520F00230002
(1487086895.530168) can0 0A1#7B7F80802A000000
(1487086895.531311) can0 153#200000FF00FF607E
(1487086895.532407) can0 4B0#00C0008000000000
(1487086895.534272) can0 165#050880000000018C
(1487086895.535363) can0 2B0#1D00000783
(1487086895.536434) can0 220#F50300000000DA0F
(1487086895.537524) can0 164#0008000000000901
(1487086895.537524) can0 2C0#0000000000000000
(1487086895.537525) can0 18F#FE53300000620000
(1487086895.538658) can0 080#0017F80E302C303C
(1487086895.538659) can0 081#7F000000000000EC
(1487086895.538659) can0 260#05300030FFAD8503
(1487086895.538659) can0 2A0#02005F9C6D12A900
(1487086895.538660) can0 316#4530F80E302C007F
(1487086895.539750) can0 329#D77E810C112C0010
(1487086895.539750) can0 4F0#0000840000121402
(1487086895.539751) can0 545#D825008B21002300
(1487086895.539751) can0 4F1#CCFF000000000000
(1487086895.541385) can0 153#200000FF00FF708E
(1487086895.543905) can0 165#050880000000028F
(1487086895.544994) can0 2B0#1D000007F4
(1487086895.546424) can0 220#F50300000000CD0F
(1487086895.547541) can0 164#0008000000000A02
(1487086895.547542) can0 1F1#0000000000000000
(1487086895.547542) can0 2C0#0000000000000000
(1487086895.547542) can0 316#4530F80E302C007F
(1487086895.548651) can0 329#D77E810C112C0010
(1487086895.548652) can0 080#0017F80E302C302D
(1487086895.548653) can0 081#7F000000000000DD
(1487086895.548653) can0 18F#FE53300000620000
