(1487076672.304936) can0 2C0#0000000000000000
(1487076672.307730) can0 220#F50300000000ED0F
(1487076672.308825) can0 164#000800000000070F
(1487076672.308831) can0 165#0708800000000F80
(1487076672.308832) can0 2B0#FD06000721
(1487076672.310136) can0 4F0#0000500000121402
(1487076672.311216) can0 4F1#CCFF000000000000
(1487076672.312343) can0 316#059D0000002F007F
(1487076672.312345) can0 080#001700009D2F007A
(1487076672.312345) can0 081#400000000000002A
(1487076672.312345) can0 18F#002C000000720000
(1487076672.313418) can0 260#0500000013A75F20
(1487076672.313419) can0 153#200000FF00FF90AE
(1487076672.313420) can0 2A0#C2005D806C12A900
(1487076672.313420) can0 329#4F60810E11320010
(1487076672.314497) can0 545#DF00005F54FE54FE
(1487076672.314498) can0 2C0#0000000000000000
(1487076672.317621) can0 165#070880000000008F
(1487076672.318631) can0 220#F50300000000DA0F
(1487076672.318632) can0 164#0008000000000800
(1487076672.318637) can0 1F1#0000000000000000
(1487076672.318642) can0 2B0#FD06000712
(1487076672.321476) can0 316#059D0000002F007F
(1487076672.322588) can0 080#001700009D2F006B
(1487076672.322589) can0 081#400000000000001B
(1487076672.322590) can0 18F#002C000000720000
(1487076672.322591) can0 260#0500000013A75F3F
(1487076672.323628) can0 2A0#62005D806C12A900
(1487076672.323630) can0 153#200000FF00FFA0BE
(1487076672.323630) can0 329#4F60810E11320010
(1487076672.323630) can0 4B0#004000C000000000
(1487076672.323631) can0 545#DF00005E54FE54FE
(1487076672.324754) can0 2C0#0000000000000000
(1487076672.327213) can0 165#070880000000018E
(1487076672.328273) can0 2B0#FD06000703
(1487076672.328275) can0 220#F50300000000E60F
(1487076672.328275) can0 164#0008000000000901
(1487076672.330231) can0 4F0#0000520000121402
(1487076672.331319) can0 4F1#CCFF000000000000
(1487076672.331320) can0 690#4000400000201400
(1487076672.332409) can0 316#059D0000002F007F
(1487076672.332409) can0 080#001700009D2F005C
(1487076672.332410) can0 081#400000000000000C
(1487076672.332410) can0 18F#002C000000720000
(1487076672.332410) can0 260#0500000013A75F02
(1487076672.333518) can0 2A0#02005D806C12A900
(1487076672.333518) can0 153#200000FF00FFB0CE
(1487076672.333519) can0 329#8060810E11320010
(1487076672.333519) can0 545#DF00005F54FE54FE
(1487076672.334594) can0 2C0#0000000000000000
(1487076672.336703) can0 165#070880000000028D
(1487076672.337781) can0 2B0#FD06000774
(1487076672.337782) can0 5F0#0100
(1487076672.337782) can0 220#F50300000000D40F
(1487076672.338863) can0 164#0008000000000A02
(1487076672.338864) can0 1F1#0000000000000000
(1487076672.341732) can0 316#059D0000002F007F
(1487076672.342839) can0 080#001700009D2F004D
(1487076672.342840) can0 081#40000000000000FD
(1487076672.342841) can0 18F#002C000000720000
(1487076672.342842) can0 260#0500000013A75F11
(1487076672.343938) can0 153#200000FF00FFC0DE
(1487076672.343939) can0 2A0#A2005D806C12A900
(1487076672.343940) can0 329#8060810E11320010
(1487076672.343940) can0 4B0#008000C000000000
(1487076672.343940) can0 545#DF00005F54FE54FE
(1487076672.345020) can0 2C0#0000000000000000
(1487076672.346352) can0 165#070880000000038C
(1487076672.347431) can0 2B0#FD06000765
(1487076672.348519) can0 220#F50300000000C70F
(1487076672.348520) can0 164#0008000000000B03
(1487076672.350170) can0 4F0#0000540000121402
(1487076672.351269) can0 4F1#CCFF000000000000
(1487076672.352363) can0 316#059D0000002F007F
(1487076672.352364) can0 080#001700009D2F003E
(1487076672.352364) can0 081#40000000000000EE
(1487076672.352365) can0 18F#002C000000720000
(1487076672.353479) can0 260#0500000013A75F20
(1487076672.353480) can0 153#200000FF00FFD0EE
(1487076672.353480) can0 2A0#C2005D806C12A900
(1487076672.353485) can0 329#8060810E11320010
(1487076672.354561) can0 545#DF00005F54FE54FE
(1487076672.354562) can0 2C0#0000000000000000
(1487076672.355900) can0 165#070880000000048B
(1487076672.356982) can0 2B0#FD06000756
(1487076672.358064) can0 220#F50300000000CD0F
(1487076672.358065) can0 164#0008000000000C04
(1487076672.359143) can0 1F1#0000000000000000
(1487076672.361487) can0 316#059D0000002F007F
(1487076672.362589) can0 080#001700009D2F002F
(1487076672.362590) can0 081#40000000000000DF
(1487076672.362591) can0 18F#002C000000720000
(1487076672.362591) can0 260#0500000013A75F3F
(1487076672.363613) can0 2A0#62005D806C12A900
(1487076672.363614) can0 153#200000FF00FFE0FE
(1487076672.363614) can0 329#8060810E11320010
(1487076672.363614) can0 4B0#0000000000000000
(1487076672.363615) can0 545#DF00005F54FE54FE
(1487076672.364770) can0 2C0#0000000000000000
(1487076672.365854) can0 165#070880000000058A
(1487076672.365855) can0 2B0#FD06000747
(1487076672.367751) can0 220#F50300000000DA0F
(1487076672.368858) can0 164#0008000000000D05
(1487076672.370166) can0 4F0#0000560000121402
(1487076672.371249) can0 4F1#CCFF000000000000
(1487076672.372350) can0 316#059D0000002F007F
(1487076672.372351) can0 080#001700009D2F0010
(1487076672.372352) can0 081#40000000000000C0
(1487076672.372353) can0 18F#002C000000720000
(1487076672.373465) can0 260#0500000013A75F02
(1487076672.373466) can0 2A0#02005D806C12A900
(1487076672.373466) can0 153#200000FF00FF001E
(1487076672.373466) can0 329#8060810E11320010
(1487076672.373467) can0 545#DF00005E54FE54FE
(1487076672.374538) can0 2C0#0000000000000000
(1487076672.375607) can0 165#0708800000000689
(1487076672.375609) can0 2B0#FD060007B8
(1487076672.377755) can0 220#F50300000000DA0F
(1487076672.378799) can0 164#0008000000000E06
(1487076672.378800) can0 1F1#0000000000000000
(1487076672.381667) can0 316#059D0000002F007F
(1487076672.382761) can0 080#001700009D2F0001
(1487076672.382762) can0 081#40000000000000B1
(1487076672.382762) can0 18F#002C000000720000
(1487076672.382763) can0 260#0500000013A75F11
(1487076672.383896) can0 153#200000FF00FF102E
(1487076672.383898) can0 2A0#A2005D806C12A900
(1487076672.383898) can0 0A0#0040000000280000
(1487076672.383898) can0 0A1#8080808066000000
(1487076672.383899) can0 329#8060810E11320010
(1487076672.385020) can0 4B0#0040000000000000
(1487076672.385021) can0 2C0#0000000000000000
(1487076672.385022) can0 545#DF00005F54FE54FE
(1487076672.385022) can0 165#0708800000000788
(1487076672.385022) can0 2B0#FD060007A9
(1487076672.386089) can0 5F0#0100
(1487076672.387758) can0 220#F50300000000DA0F
(1487076672.388842) can0 164#0008000000000F07
(1487076672.389916) can0 5E4#040000
(1487076672.391000) can0 4F0#0000580000121402
(1487076672.391001) can0 4F1#CCFF000000000000
(1487076672.392052) can0 316#059D0000002F007F
(1487076672.392053) can0 080#001700009D2F00F2
(1487076672.392054) can0 081#40000000000000A2
(1487076672.393221) can0 18F#002C000000720000
(1487076672.393223) can0 260#0500000013A75F20
(1487076672.393223) can0 153#200000FF00FF203E
(1487076672.393223) can0 2A0#C2005D806C12A900
(1487076672.394289) can0 329#D760810E11320010
(1487076672.394290) can0 545#DF00005F54FE54FE
(1487076672.394290) can0 2C0#0000000000000000
(1487076672.395381) can0 165#0708800000000887
(1487076672.395382) can0 2B0#FD0600079A
(1487076672.397735) can0 220#F50300000000DA0F
(1487076672.398831) can0 164#0008000000000008
(1487076672.398832) can0 1F1#0000000000000000
(1487076672.401493) can0 316#059D0000002F007F
(1487076672.402547) can0 080#001700009D2F00E3
(1487076672.402548) can0 081#4000000000000093
(1487076672.402548) can0 18F#002C000000720000
(1487076672.402549) can0 260#0500000013A75F3F
(1487076672.403709) can0 2A0#62005D806C12A900
(1487076672.403710) can0 153#200000FF00FF304E
(1487076672.403711) can0 329#D760810E11320010
(1487076672.403711) can0 4B0#0080000000000000
(1487076672.403711) can0 545#DF00005F54FE54FE
(1487076672.404758) can0 165#0708800000000986
(1487076672.404759) can0 2B0#FF060007AB
(1487076672.404759) can0 2C0#0000000000000000
(1487076672.407769) can0 220#F50300000000CD0F
(1487076672.408843) can0 164#0008000000000109
(1487076672.410105) can0 4F0#00005A0000121402
(1487076672.411182) can0 4F1#CCFF000000000000
(1487076672.412324) can0 316#059D0000002F007F
(1487076672.412326) can0 080#001700009D2F00D4
(1487076672.412326) can0 081#4000000000000084
(1487076672.412327) can0 18F#002C000000720000
(1487076672.413455) can0 260#0500000013A75F02
(1487076672.413456) can0 2A0#02005D806C12A900
(1487076672.413456) can0 153#200000FF00FF405E
(1487076672.413457) can0 329#D760810E11320010
(1487076672.413457) can0 165#0708800000000A85
(1487076672.414529) can0 2B0#FF060007DC
(1487076672.414530) can0 545#DF00005F54FE54FE
(1487076672.414531) can0 2C0#0000000000000000
(1487076672.417743) can0 220#F50300000000C10F
(1487076672.418826) can0 164#000800000000020A
(1487076672.418828) can0 1F1#0000000000000000
(1487076672.421682) can0 316#059D0000002F007F
(1487076672.422748) can0 080#001700009D2F00C5
(1487076672.422749) can0 081#4000000000000075
(1487076672.422750) can0 18F#002C000000720000
(1487076672.422750) can0 260#0500000013A75F11
(1487076672.423889) can0 153#200000FF00FF506E
(1487076672.423890) can0 2A0#A2005D806C12A900
(1487076672.423890) can0 2B0#FD060007ED
(1487076672.423891) can0 165#0708800000000B84
(1487076672.423891) can0 329#D760810E11320010
(1487076672.424961) can0 4B0#00C0000000000000
(1487076672.424962) can0 2C0#0000000000000000
(1487076672.424962) can0 545#DF00005E54FE54FE
(1487076672.427746) can0 220#F50300000000BB0F
(1487076672.428792) can0 164#000800000000030B
(1487076672.430592) can0 4F0#00005C0000121402
(1487076672.431663) can0 4F1#CCFF000000000000
(1487076672.431664) can0 690#4000400000201800
(1487076672.431666) can0 316#059D0000002F007F
(1487076672.432782) can0 080#001700009D2F00B6
(1487076672.432783) can0 081#4000000000000066
(1487076672.432783) can0 18F#002C000000720000
(1487076672.432784) can0 165#0708800000000C83
(1487076672.433855) can0 153#200000FF00FF607E
(1487076672.433856) can0 260#0500000013A75F20
(1487076672.433857) can0 2A0#C2005D806C12A900
(1487076672.433857) can0 2B0#FD060007DE
(1487076672.433858) can0 329#D760810E11320010
(1487076672.434992) can0 545#DF00005F54FE54FE
(1487076672.434993) can0 2C0#0000000000000000
(1487076672.434993) can0 5F0#0100
(1487076672.437766) can0 220#F50300000000B40F
(1487076672.438843) can0 164#000800000000040C
(1487076672.438844) can0 1F1#0000000000000000
(1487076672.441533) can0 316#059D0000002F007F
(1487076672.442615) can0 080#001700009D2F00A7
(1487076672.442616) can0 081#4000000000000057
(1487076672.442617) can0 18F#002C000000720000
(1487076672.442622) can0 260#0500000013A75F3F
(1487076672.443719) can0 2A0#62005D806C12A900
(1487076672.443721) can0 153#200000FF00FF708E
(1487076672.443721) can0 2B0#FF060007EF
(1487076672.443721) can0 165#0708800000000D82
(1487076672.443722) can0 329#D760810E11320010
(1487076672.444783) can0 4B0#0000004000000000
(1487076672.444784) can0 545#DF00005F54FE54FE
(1487076672.444785) can0 2C0#0000000000000000
(1487076672.447743) can0 220#F50300000000C70F
(1487076672.448831) can0 164#000800000000050D
(1487076672.450178) can0 4F0#00005E0000121402
(1487076672.451242) can0 4F1#CCFF000000000000
(1487076672.452375) can0 165#0708800000000E81
(1487076672.452377) can0 2B0#FD06000730
(1487076672.452377) can0 080#001700009D2F0098
(1487076672.452378) can0 081#4000000000000048
(1487076672.453470) can0 18F#002C000000720000
(1487076672.453472) can0 260#0500000013A75F02
(1487076672.453472) can0 153#200000FF00FF809E
(1487076672.453472) can0 2A0#02005D806C12A900
(1487076672.453473) can0 316#059D0000002F007F
(1487076672.454553) can0 329#0F60810E11320010
(1487076672.454554) can0 545#DF00005F54FE54FE
(1487076672.454555) can0 2C0#0000000000000000
(1487076672.457765) can0 220#F50300000000DA0F
(1487076672.458842) can0 164#000800000000060E
(1487076672.458843) can0 1F1#0000000000000000
(1487076672.461015) can0 165#0708800000000F80
(1487076672.462137) can0 2B0#FD06000721
(1487076672.462138) can0 316#059D0000002F007F
(1487076672.462138) can0 080#001700009D2F0089
(1487076672.463220) can0 081#4000000000000039
(1487076672.463221) can0 18F#002C000000720000
(1487076672.463222) can0 260#0500000013A75F11
(1487076672.463222) can0 153#200000FF00FF90AE
(1487076672.463222) can0 2A0#A2005D806C12A900
(1487076672.464317) can0 329#0F60810E11320010
(1487076672.464319) can0 4B0#0040004000000000
(1487076672.464319) can0 545#DF00005F54FE54FE
(1487076672.464319) can0 2C0#0000000000000000
(1487076672.467764) can0 220#F50300000000F30F
(1487076672.468844) can0 164#000800000000070F
(1487076672.470118) can0 4F0#0000600000121402
(1487076672.471221) can0 4F1#CCFF000000000000
(1487076672.471222) can0 165#070880000000008F
(1487076672.471222) can0 2B0#FD06000712
(1487076672.472332) can0 316#059D0000002F007F
(1487076672.472333) can0 080#001700009D2F007A
(1487076672.472334) can0 081#400000000000002A
(1487076672.473426) can0 18F#002C000000720000
(1487076672.473427) can0 260#0500000013A75F20
(1487076672.473428) can0 153#200000FF00FFA0BE
(1487076672.473428) can0 2A0#C2005D806C12A900
(1487076672.473428) can0 329#0F60810E11320010
(1487076672.474509) can0 545#DF00005E54FE54FE
(1487076672.474510) can0 2C0#0000000000000000
(1487076672.477762) can0 220#F50300000000ED0F
(1487076672.478849) can0 164#0008000000000800
(1487076672.478850) can0 1F1#0000000000000000
(1487076672.480144) can0 165#070880000000018E
(1487076672.481220) can0 2B0#FD06000703
(1487076672.482275) can0 316#059D0000002F007F
(1487076672.482276) can0 080#001700009D2F006B
(1487076672.482277) can0 081#400000000000001B
(1487076672.482278) can0 18F#002C000000720000
(1487076672.483442) can0 260#0500000013A75F3F
(1487076672.483443) can0 2A0#62005D806C12A900
(1487076672.483444) can0 153#200000FF00FFB0CE
(1487076672.483444) can0 329#0F60810E11320010
(1487076672.483444) can0 4B0#0080004000000000
(1487076672.484553) can0 545#DF00005F54FE54FE
(1487076672.484554) can0 5F0#0100
(1487076672.484559) can0 0A0#0040000000280000
(1487076672.484560) can0 0A1#8080808066000000
(1487076672.484560) can0 2C0#0000000000000000
(1487076672.487762) can0 220#F50300000000C70F
(1487076672.488828) can0 164#0008000000000901
(1487076672.489905) can0 5E4#040000
(1487076672.489906) can0 2B0#FD06000774
(1487076672.490990) can0 165#070880000000028D
(1487076672.490991) can0 4F0#0000620000121402
(1487076672.490991) can0 4F1#CCFF000000000000
(1487076672.492097) can0 316#059D0000002F007F
(1487076672.492099) can0 080#001700009D2F005C
(1487076672.492099) can0 081#400000000000000C
(1487076672.493196) can0 18F#002C000000720000
(1487076672.493197) can0 260#0500000013A75F02
(1487076672.493198) can0 2A0#02005D806C12A900
(1487076672.493198) can0 153#200000FF00FFC0DE
(1487076672.493198) can0 329#0F60810E11320010
(1487076672.494281) can0 545#DF00005E54FE54FE
(1487076672.494282) can0 2C0#0000000000000000
(1487076672.497755) can0 220#F50300000000C10F
(1487076672.498852) can0 164#0008000000000A02
(1487076672.498853) can0 1F1#0000000000000000
(1487076672.499960) can0 165#070880000000038C
(1487076672.499961) can0 2B0#FD06000765
(1487076672.501682) can0 316#059D0000002F007F
(1487076672.502764) can0 080#001700009D2F004D
(1487076672.502765) can0 081#40000000000000FD
(1487076672.502766) can0 18F#002C000000720000
(1487076672.502767) can0 260#0500000013A75F11
(1487076672.503891) can0 153#200000FF00FFD0EE
(1487076672.503892) can0 2A0#A2005D806C12A900
(1487076672.503893) can0 329#0F60810E11320010
(1487076672.503893) can0 4B0#00C0004000000000
(1487076672.503893) can0 545#DF00005F54FE54FE
(1487076672.504958) can0 2C0#0000000000000000
(1487076672.507765) can0 220#F50300000000DA0F
(1487076672.508817) can0 164#0008000000000B03
(1487076672.509956) can0 165#070880000000048B
(1487076672.509957) can0 2B0#FF06000776
(1487076672.511034) can0 4F0#0000640000121402
(1487076672.511036) can0 4F1#CCFF000000000000
(1487076672.512123) can0 316#059D0000002F007F
(1487076672.512124) can0 080#001700009D2F003E
(1487076672.512124) can0 081#40000000000000EE
(1487076672.513242) can0 18F#002C000000720000
(1487076672.513244) can0 260#0500000013A75F20
(1487076672.513244) can0 153#200000FF00FFE0FE
(1487076672.513244) can0 2A0#C2005D806C12A900
(1487076672.514331) can0 329#4F60810E11320010
(1487076672.514332) can0 545#DF00005F54FE54FE
(1487076672.514332) can0 2C0#0000000000000000
(1487076672.517762) can0 220#F50300000000CD0F
(1487076672.518842) can0 164#0008000000000C04
(1487076672.518843) can0 1F1#0000000000000000
(1487076672.518844) can0 165#070880000000058A
(1487076672.518845) can0 2B0#FD06000747
(1487076672.521472) can0 316#059D0000002F007F
(1487076672.522581) can0 080#001700009D2F002F
(1487076672.522582) can0 081#40000000000000DF
(1487076672.522583) can0 18F#002C000000720000
(1487076672.522583) can0 260#0500000013A75F3F
(1487076672.523682) can0 2A0#62005D806C12A900
(1487076672.523683) can0 153#200000FF00FF001E
(1487076672.523683) can0 329#4F60810E11320010
(1487076672.523684) can0 4B0#0000008000000000
(1487076672.523684) can0 545#DF00005F54FE54FE
(1487076672.524762) can0 2C0#0000000000000000
(1487076672.527764) can0 220#F50300000000D40F
(1487076672.528845) can0 164#0008000000000D05
(1487076672.528846) can0 165#0708800000000689
(1487076672.528846) can0 2B0#FD060007B8
(1487076672.529929) can0 5F0#0100
(1487076672.531012) can0 4F0#0000660000121402
(1487076672.531013) can0 4F1#CCFF000000000000
(1487076672.531014) can0 690#4000400000201C00
(1487076672.532125) can0 316#059D0000002F007F
(1487076672.532126) can0 080#001700009D2F0010
(1487076672.532126) can0 081#40000000000000C0
(1487076672.533240) can0 18F#002C000000720000
(1487076672.533241) can0 260#0500000013A75F02
(1487076672.533242) can0 2A0#02005D806C12A900
(1487076672.533242) can0 153#200000FF00FF102E
(1487076672.533242) can0 329#4F60810E11320010
(1487076672.534285) can0 545#DF00005F54FE54FE
(1487076672.534286) can0 2C0#0000000000000000
(1487076672.537512) can0 165#0708800000000788
(1487076672.538617) can0 2B0#FD060007A9
(1487076672.538619) can0 220#F50300000000CD0F
(1487076672.538619) can0 164#0008000000000E06
(1487076672.538619) can0 1F1#0000000000000000
(1487076672.541702) can0 316#059D0000002F007F
(1487076672.542801) can0 080#001700009D2F0001
(1487076672.542802) can0 081#40000000000000B1
(1487076672.542802) can0 18F#002C000000720000
(1487076672.542803) can0 260#0500000013A75F11
(1487076672.543886) can0 153#200000FF00FF203E
(1487076672.543887) can0 2A0#A2005D806C12A900
(1487076672.543888) can0 329#4F60810E11320010
(1487076672.543888) can0 4B0#0040008000000000
(1487076672.543889) can0 545#DF00005E54FE54FE
(1487076672.544995) can0 2C0#0000000000000000
(1487076672.547160) can0 165#0708800000000887
(1487076672.548264) can0 2B0#FD0600079A
(1487076672.548265) can0 220#F50300000000C10F
(1487076672.548266) can0 164#0008000000000F07
(1487076672.550119) can0 4F0#0000680000121402
(1487076672.551209) can0 4F1#CCFF000000000000
(1487076672.552291) can0 316#059D0000002F007F
(1487076672.552293) can0 080#001700009D2F00F2
(1487076672.552293) can0 081#40000000000000A2
(1487076672.553409) can0 18F#002C000000720000
(1487076672.553410) can0 260#0500000013A75F20
(1487076672.553410) can0 153#200000FF00FF304E
(1487076672.553411) can0 2A0#C2005D806C12A900
(1487076672.553411) can0 329#4F60810E11320010
(1487076672.554491) can0 545#DF00005F54FE54FE
(1487076672.554492) can0 2C0#0000000000000000
(1487076672.556767) can0 165#0708800000000986
(1487076672.557830) can0 2B0#FD0600078B
(1487076672.557831) can0 220#F50300000000CD0F
(1487076672.558927) can0 164#0008000000000008
(1487076672.558928) can0 1F1#0000000000000000
(1487076672.561475) can0 316#059D0000002F007F
(1487076672.562555) can0 080#001700009D2F00E3
(1487076672.562556) can0 081#4000000000000093
(1487076672.562557) can0 18F#002C000000720000
(1487076672.562558) can0 260#0500000013A75F3F
(1487076672.563684) can0 2A0#62005D806C12A900
(1487076672.563685) can0 153#200000FF00FF405E
(1487076672.563686) can0 329#4F60810E11320010
(1487076672.563686) can0 4B0#0080008000000000
(1487076672.563686) can0 545#DF00005F54FE54FE
(1487076672.564743) can0 2C0#0000000000000000
(1487076672.566333) can0 165#0708800000000A85
(1487076672.567385) can0 2B0#FD060007FC
(1487076672.568504) can0 220#F50300000000E60F
(1487076672.568505) can0 164#0008000000000109
(1487076672.570136) can0 4F0#00006A0000121402
(1487076672.571221) can0 4F1#CCFF000000000000
(1487076672.572348) can0 316#059D0000002F007F
(1487076672.572349) can0 080#001700009D2F00D4
(1487076672.572350) can0 081#4000000000000084
(1487076672.573401) can0 18F#002C000000720000
(1487076672.573402) can0 260#0500000013A75F02
(1487076672.573403) can0 153#200000FF00FF506E
(1487076672.573408) can0 2A0#02005D806C12A900
(1487076672.573408) can0 329#8060810E11320010
(1487076672.574502) can0 545#DF00005F54FE54FE
(1487076672.574503) can0 2C0#0000000000000000
(1487076672.575903) can0 165#0708800000000B84
(1487076672.576978) can0 2B0#FD060007ED
(1487076672.578092) can0 5F0#0100
(1487076672.578093) can0 220#F50300000000ED0F
(1487076672.578093) can0 164#000800000000020A
(1487076672.579145) can0 1F1#0000000000000000
(1487076672.581667) can0 316#059D0000002F007F
(1487076672.582772) can0 080#001700009D2F00C5
(1487076672.582773) can0 081#4000000000000075
(1487076672.582774) can0 18F#002C000000720000
(1487076672.582774) can0 260#0500000013A75F11
(1487076672.583879) can0 153#200000FF00FF607E
(1487076672.583880) can0 2A0#A2005D806C12A900
(1487076672.583881) can0 329#8060810E11320010
(1487076672.583881) can0 4B0#00C0008000000000
(1487076672.583881) can0 545#DF00005F54FE54FE
(1487076672.584940) can0 2C0#0000000000000000
(1487076672.586005) can0 165#0708800000000C83
(1487076672.586006) can0 0A0#0040000000280000
(1487076672.586007) can0 0A1#8080808066000000
(1487076672.587106) can0 2B0#FD060007DE
(1487076672.588195) can0 220#F50300000000E00F
(1487076672.588196) can0 164#000800000000030B
(1487076672.590143) can0 4F0#00006C0000121402
(1487076672.591237) can0 5E4#040000
(1487076672.591238) can0 4F1#CCFF000000000000
(1487076672.592343) can0 316#059D0000002F007F
(1487076672.592344) can0 080#001700009D2F00B6
(1487076672.592344) can0 081#4000000000000066
(1487076672.592345) can0 18F#002C000000720000
(1487076672.593419) can0 260#0500000013A75F20
(1487076672.593420) can0 153#200000FF00FF708E
(1487076672.593420) can0 2A0#C2005D806C12A900
(1487076672.593421) can0 329#8060810E11320010
(1487076672.594564) can0 545#DF00005E54FE54FE
(1487076672.594565) can0 2C0#0000000000000000
(1487076672.595576) can0 165#0708800000000D82
(1487076672.595577) can0 2B0#FD060007CF
(1487076672.597728) can0 220#F50300000000DA0F
(1487076672.598857) can0 164#000800000000040C
(1487076672.598858) can0 1F1#0000000000000000
(1487076672.601479) can0 316#059D0000002F007F
(1487076672.602592) can0 080#001700009D2F00A7
(1487076672.602593) can0 081#4000000000000057
(1487076672.602594) can0 18F#002C000000720000
(1487076672.602594) can0 260#0500000013A75F3F
(1487076672.603639) can0 2A0#62005D806C12A900
(1487076672.603640) can0 153#200000FF00FF809E
(1487076672.603641) can0 329#8060810E11320010
(1487076672.603641) can0 4B0#000000C000000000
(1487076672.603641) can0 545#DF00005F54FE54FE
(1487076672.604794) can0 2C0#0000000000000000
(1487076672.604795) can0 165#0708800000000E81
(1487076672.604796) can0 2B0#FD06000730
(1487076672.607796) can0 220#F50300000000E00F
(1487076672.608808) can0 164#000800000000050D
(1487076672.610097) can0 4F0#00006E0000121402
(1487076672.611167) can0 4F1#CCFF000000000000
(1487076672.612316) can0 316#059D0000002F007F
(1487076672.612317) can0 080#001700009D2F0098
(1487076672.612319) can0 081#4000000000000048
(1487076672.612319) can0 18F#002C000000720000
(1487076672.613443) can0 260#0500000013A75F02
(1487076672.613444) can0 2A0#02005D806C12A900
(1487076672.613444) can0 153#200000FF00FF90AE
(1487076672.613444) can0 329#8060810E11320010
(1487076672.613445) can0 545#DF00005F54FE54FE
(1487076672.614566) can0 2C0#0000000000000000
(1487076672.614568) can0 165#0708800000000F80
(1487076672.614572) can0 2B0#FD06000721
(1487076672.617780) can0 220#F50300000000ED0F
(1487076672.618859) can0 164#000800000000060E
(1487076672.618860) can0 1F1#0000000000000000
(1487076672.621618) can0 316#059D0000002F007F
(1487076672.622771) can0 080#001700009D2F0089
(1487076672.622772) can0 081#4000000000000039
(1487076672.622772) can0 18F#002C000000720000
(1487076672.622773) can0 260#0500000013A75F11
(1487076672.623880) can0 153#200000FF00FFA0BE
(1487076672.623881) can0 2A0#A2005D806C12A900
(1487076672.623882) can0 329#8060810E11320010
(1487076672.623882) can0 4B0#004000C000000000
(1487076672.623882) can0 165#070880000000008F
(1487076672.624961) can0 2B0#FD06000712
(1487076672.624962) can0 2C0#0000000000000000
(1487076672.624962) can0 545#DF00005F54FE54FE
(1487076672.626043) can0 5F0#0100
(1487076672.627776) can0 220#F50300000000E60F
(1487076672.628840) can0 164#000800000000070F
(1487076672.630629) can0 4F0#0000700000121402
(1487076672.631722) can0 4F1#CCFF000000000000
(1487076672.631723) can0 690#4000400000202000
(1487076672.631723) can0 316#059D0000002F007F
(1487076672.632845) can0 080#001700009D2F007A
(1487076672.632846) can0 081#400000000000002A
(1487076672.632847) can0 18F#002C000000720000
(1487076672.632847) can0 260#0500000013A75F20
(1487076672.632847) can0 153#200000FF00FFB0CE
(1487076672.633969) can0 2A0#C2005D806C12A900
(1487076672.633970) can0 165#070880000000018E
(1487076672.633970) can0 2B0#FD06000703
(1487076672.633971) can0 329#D760810E11320010
(1487076672.633971) can0 545#DF00005F54FE54FE
(1487076672.635043) can0 2C0#0000000000000000
(1487076672.637780) can0 220#F50300000000ED0F
(1487076672.638843) can0 164#0008000000000800
(1487076672.638844) can0 1F1#0000000000000000
(1487076672.641545) can0 316#059D0000002F007F
(1487076672.642627) can0 080#001700009D2F006B
(1487076672.642628) can0 081#400000000000001B
(1487076672.642629) can0 18F#002C000000720000
(1487076672.642629) can0 260#0500000013A75F3F
(1487076672.643679) can0 2A0#62005D806C12A900
(1487076672.643680) can0 153#200000FF00FFC0DE
(1487076672.643681) can0 2B0#FD06000774
(1487076672.643681) can0 165#070880000000028D
(1487076672.643682) can0 329#D760810E11320010
(1487076672.644815) can0 4B0#008000C000000000
(1487076672.644816) can0 2C0#0000000000000000
(1487076672.644817) can0 545#DF00005E54FE54FE
(1487076672.647782) can0 220#F50300000000F30F
(1487076672.648858) can0 164#0008000000000901
(1487076672.650173) can0 4F0#0000720000121402
(1487076672.651253) can0 4F1#CCFF000000000000
(1487076672.652348) can0 316#059D0000002F007F
(1487076672.652349) can0 080#001700009D2F005C
(1487076672.652350) can0 081#400000000000000C
(1487076672.652351) can0 18F#002C000000720000
(1487076672.653441) can0 165#070880000000038C
(1487076672.653442) can0 260#0500000013A75F02
(1487076672.653442) can0 153#200000FF00FFD0EE
(1487076672.653443) can0 2A0#02005D806C12A900
(1487076672.653443) can0 2B0#FF06000745
(1487076672.654525) can0 329#D760810E11320010
(1487076672.654526) can0 545#DF00005F54FE54FE
(1487076672.654527) can0 2C0#0000000000000000
(1487076672.657798) can0 220#F50300000000F30F
(1487076672.658859) can0 164#0008000000000A02
(1487076672.658860) can0 1F1#0000000000000000
(1487076672.661678) can0 316#059D0000002F007F
(1487076672.662774) can0 080#001700009D2F004D
(1487076672.662775) can0 081#40000000000000FD
(1487076672.662780) can0 18F#002C000000720000
(1487076672.662781) can0 260#0500000013A75F11
(1487076672.663883) can0 153#200000FF00FFE0FE
(1487076672.663884) can0 2A0#A2005D806C12A900
(1487076672.663884) can0 2B0#FD06000756
(1487076672.663885) can0 165#070880000000048B
(1487076672.663885) can0 329#D760810E11320010
(1487076672.664969) can0 4B0#0000000000000000
(1487076672.664970) can0 2C0#0000000000000000
(1487076672.664970) can0 545#DF00005F54FE54FE
(1487076672.667778) can0 220#F50300000000BB0F
(1487076672.668860) can0 164#0008000000000B03
(1487076672.670081) can0 4F0#0000740000121402
(1487076672.671219) can0 4F1#CCFF000000000000
(1487076672.672298) can0 165#070880000000058A
(1487076672.672299) can0 2A0#C2005D806C12A900
(1487076672.672300) can0 260#0500000013A75F20
(1487076672.672301) can0 080#001700009D2F003E
(1487076672.673421) can0 081#40000000000000EE
(1487076672.673422) can0 18F#002C000000720000
(1487076672.673423) can0 153#200000FF00FF001E
(1487076672.673423) can0 2B0#FD06000747
(1487076672.673424) can0 316#059D0000002F007F
(1487076672.674505) can0 329#D760810E11320010
(1487076672.674506) can0 545#DF00005F54FE54FE
(1487076672.674507) can0 5F0#0100
(1487076672.674507) can0 2C0#0000000000000000
(1487076672.677798) can0 220#F50300000000A80F
(1487076672.678879) can0 164#0008000000000C04
(1487076672.678880) can0 1F1#0000000000000000
(1487076672.680952) can0 165#0708800000000689
(1487076672.682092) can0 2B0#FD060007B8
(1487076672.682093) can0 316#059D0000002F007F
(1487076672.682094) can0 080#001700009D2F002F
(1487076672.682094) can0 081#40000000000000DF
(1487076672.683220) can0 18F#002C000000720000
(1487076672.683221) can0 260#0500000013A75F3F
(1487076672.683221) can0 2A0#62005D806C12A900
(1487076672.683222) can0 153#200000FF00FF102E
(1487076672.683222) can0 329#D760810E11320010
(1487076672.684299) can0 4B0#0040000000000000
(1487076672.684300) can0 545#DF00005F54FE54FE
(1487076672.684300) can0 2C0#0000000000000000
(1487076672.686389) can0 0A0#0040000000280000
(1487076672.687485) can0 0A1#8080808066000000
(1487076672.688597) can0 220#F50300000000C10F
(1487076672.688598) can0 164#0008000000000D05
(1487076672.690132) can0 4F0#0000760000121402
(1487076672.691220) can0 4F1#CCFF000000000000
(1487076672.691221) can0 5E4#040000
(1487076672.691221) can0 2B0#FD060007A9
(1487076672.691222) can0 165#0708800000000788
(1487076672.692246) can0 316#059D0000002F007F
(1487076672.692247) can0 080#001700009D2F0010
(1487076672.692247) can0 081#40000000000000C0
(1487076672.692248) can0 18F#002C000000720000
(1487076672.693372) can0 260#0500000013A75F02
(1487076672.693373) can0 2A0#02005D806C12A900
(1487076672.693373) can0 153#200000FF00FF203E
(1487076672.693373) can0 329#0F60810E11320010
(1487076672.693374) can0 545#DF00005D54FE54FE
(1487076672.694510) can0 2C0#0000000000000000
(1487076672.697745) can0 220#F50300000000E60F
(1487076672.698865) can0 164#0008000000000E06
(1487076672.698866) can0 1F1#0000000000000000
(1487076672.700223) can0 165#0708800000000887
(1487076672.701292) can0 2B0#FD0600079A
(1487076672.702371) can0 316#059D0000002F007F
(1487076672.702372) can0 080#001700009D2F0001
(1487076672.702373) can0 081#40000000000000B1
(1487076672.702374) can0 18F#002C000000720000
(1487076672.703529) can0 260#0500000013A75F11
(1487076672.703530) can0 153#200000FF00FF304E
(1487076672.703535) can0 2A0#A2005D806C12A900
(1487076672.703535) can0 329#0F60810E11320010
(1487076672.704595) can0 4B0#0080000000000000
(1487076672.704596) can0 545#DF00005F54FE54FE
(1487076672.704597) can0 2C0#0000000000000000
(1487076672.707801) can0 220#F50300000000E60F
(1487076672.708878) can0 164#0008000000000F07
(1487076672.709984) can0 165#0708800000000986
(1487076672.709985) can0 2B0#FD0600078B
(1487076672.711067) can0 4F0#0000780000121402
(1487076672.711068) can0 4F1#CCFF000000000000
(1487076672.712152) can0 316#059D0000002F007F
(1487076672.712153) can0 080#001700009D2F00F2
(1487076672.712154) can0 081#40000000000000A2
(1487076672.713256) can0 18F#002C000000720000
(1487076672.713257) can0 260#0500000013A75F20
(1487076672.713258) can0 153#200000FF00FF405E
(1487076672.713258) can0 2A0#C2005D806C12A900
(1487076672.714362) can0 329#0F60810E11320010
(1487076672.714363) can0 545#DF00005F54FE54FE
(1487076672.714363) can0 2C0#0000000000000000
(1487076672.717799) can0 220#F50300000000E00F
(1487076672.718849) can0 164#0008000000000008
(1487076672.718850) can0 1F1#0000000000000000
(1487076672.719974) can0 165#0708800000000A85
(1487076672.719975) can0 2B0#FD060007FC
(1487076672.721470) can0 316#059D0000002F007F
(1487076672.722565) can0 080#001700009D2F00E3
(1487076672.722566) can0 081#4000000000000093
(1487076672.722567) can0 18F#002C000000720000
(1487076672.722567) can0 260#0500000013A75F3F
(1487076672.723676) can0 2A0#62005D806C12A900
(1487076672.723677) can0 153#200000FF00FF506E
(1487076672.723678) can0 329#0F60810E11320010
(1487076672.723678) can0 4B0#00C0000000000000
(1487076672.723678) can0 545#DF00005F54FE54FE
(1487076672.724755) can0 5F0#0100
(1487076672.724756) can0 2C0#0000000000000000
(1487076672.727803) can0 220#F50300000000CD0F
(1487076672.728880) can0 164#0008000000000109
(1487076672.728881) can0 165#0708800000000B84
(1487076672.729970) can0 2B0#FD060007ED
(1487076672.731045) can0 4F0#00007A0000121402
(1487076672.731046) can0 4F1#CCFF000000000000
(1487076672.731047) can0 690#4000400000202400
(1487076672.732155) can0 316#059D0000002F007F
(1487076672.732156) can0 080#001700009D2F00D4
(1487076672.732156) can0 081#4000000000000084
(1487076672.733252) can0 18F#002C000000720000
(1487076672.733253) can0 260#0500000013A75F02
(1487076672.733253) can0 2A0#02005D806C12A900
(1487076672.733253) can0 153#200000FF00FF607E
(1487076672.733254) can0 329#0F60810E11320010
(1487076672.734328) can0 545#DF00005F54FE54FE
(1487076672.734329) can0 2C0#0000000000000000
(1487076672.737801) can0 220#F50300000000C10F
(1487076672.738899) can0 164#000800000000020A
(1487076672.738900) can0 1F1#0000000000000000
(1487076672.738900) can0 165#0708800000000C83
(1487076672.738901) can0 2B0#FF060007FE
(1487076672.741738) can0 316#059D0000002F007F
(1487076672.742817) can0 080#001700009D2F00C5
(1487076672.742818) can0 081#4000000000000075
(1487076672.742819) can0 18F#002C000000720000
(1487076672.742819) can0 260#0500000013A75F11
(1487076672.743946) can0 153#200000FF00FF708E
(1487076672.743947) can0 2A0#A2005D806C12A900
(1487076672.743948) can0 329#0F60810E11320010
(1487076672.743948) can0 4B0#0000004000000000
(1487076672.743949) can0 545#DF00005E54FE54FE
(1487076672.745005) can0 2C0#0000000000000000
(1487076672.747802) can0 220#F50300000000E60F
(1487076672.748881) can0 164#000800000000030B
(1487076672.748887) can0 2B0#FD060007CF
(1487076672.748887) can0 165#0708800000000D82
(1487076672.750152) can0 4F0#00007C0000121402
(1487076672.751221) can0 4F1#CCFF000000000000
(1487076672.752346) can0 316#059D0000002F007F
(1487076672.752347) can0 080#001700009D2F00B6
(1487076672.752347) can0 081#4000000000000066
(1487076672.753439) can0 18F#002C000000720000
(1487076672.753440) can0 260#0500000013A75F20
(1487076672.753441) can0 153#200000FF00FF809E
(1487076672.753441) can0 2A0#C2005D806C12A900
(1487076672.753442) can0 329#4F60810E11320010
(1487076672.754508) can0 545#DF00005F54FE54FE
(1487076672.754509) can0 2C0#0000000000000000
(1487076672.757615) can0 165#0708800000000E81
(1487076672.758674) can0 220#F50300000000E00F
(1487076672.758675) can0 164#000800000000040C
(1487076672.758675) can0 1F1#0000000000000000
(1487076672.758675) can0 2B0#FD06000730
(1487076672.761487) can0 316#059D0000002F007F
(1487076672.762597) can0 080#001700009D2F00A7
(1487076672.762598) can0 081#4000000000000057
(1487076672.762598) can0 18F#002C000000720000
(1487076672.762599) can0 260#0500000013A75F3F
(1487076672.763695) can0 2A0#62005D806C12A900
(1487076672.763696) can0 153#200000FF00FF90AE
(1487076672.763697) can0 329#4F60810E11320010
(1487076672.763697) can0 4B0#0040004000000000
(1487076672.763697) can0 545#DF00005E54FE54FE
(1487076672.764777) can0 2C0#0000000000000000
(1487076672.767119) can0 165#0708800000000F80
(1487076672.768261) can0 2B0#FD06000721
(1487076672.768262) can0 220#F50300000000CD0F
(1487076672.768262) can0 164#000800000000050D
(1487076672.769426) can0 5F0#0100
(1487076672.770504) can0 4F0#00007E0000121402
(1487076672.770505) can0 4F1#CCFF000000000000
(1487076672.771572) can0 316#059D0000002F007F
(1487076672.772693) can0 080#001700009D2F0098
(1487076672.772694) can0 081#4000000000000048
(1487076672.772695) can0 18F#002C000000720000
(1487076672.772695) can0 260#0500000013A75F02
(1487076672.773776) can0 2A0#02005D806C12A900
(1487076672.773777) can0 153#200000FF00FFA0BE
(1487076672.773777) can0 329#4F60810E11320010
(1487076672.773778) can0 545#DF00005F54FE54FE
(1487076672.774840) can0 2C0#0000000000000000
(1487076672.776742) can0 165#070880000000008F
(1487076672.777819) can0 2B0#FD06000712
(1487076672.777820) can0 220#F50300000000E00F
(1487076672.778903) can0 164#000800000000060E
(1487076672.778905) can0 1F1#0000000000000000
(1487076672.781676) can0 316#059D0000002F007F
(1487076672.782778) can0 080#001700009D2F0089
(1487076672.782779) can0 081#4000000000000039
(1487076672.782780) can0 18F#002C000000720000
(1487076672.782780) can0 260#0500000013A75F11
(1487076672.783833) can0 0A0#0040000000280000
(1487076672.783834) can0 0A1#8080808066000000
(1487076672.783845) can0 153#200000FF00FFB0CE
(1487076672.783846) can0 2A0#A2005D806C12A900
(1487076672.783846) can0 329#4F60810E11320010
(1487076672.784969) can0 4B0#0080004000000000
(1487076672.784970) can0 2C0#0000000000000000
(1487076672.784971) can0 545#DF00005F54FE54FE
(1487076672.786301) can0 165#070880000000018E
(1487076672.787381) can0 2B0#FD06000703
(1487076672.788462) can0 220#F50300000000CD0F
(1487076672.788463) can0 164#000800000000070F
(1487076672.790124) can0 4F0#0000800000121402
(1487076672.791204) can0 4F1#CCFF000000000000
(1487076672.791206) can0 5E4#040000
(1487076672.792265) can0 316#059D0000002F007F
(1487076672.792270) can0 080#001700009D2F007A
(1487076672.792271) can0 081#400000000000002A
(1487076672.792272) can0 18F#002C000000720000
(1487076672.793399) can0 260#0500000013A75F20
(1487076672.793399) can0 153#200000FF00FFC0DE
(1487076672.793400) can0 2A0#C2005D806C12A900
(1487076672.793400) can0 329#4F60810E11320010
(1487076672.794513) can0 545#DF00005F54FE54FE
(1487076672.794514) can0 2C0#0000000000000000
(1487076672.795876) can0 165#070880000000028D
(1487076672.796961) can0 2B0#FD06000774
(1487076672.797987) can0 220#F50300000000DA0F
(1487076672.797988) can0 164#0008000000000800
(1487076672.799114) can0 1F1#0000000000000000
(1487076672.801495) can0 316#059D0000002F007F
(1487076672.802542) can0 080#001700009D2F006B
(1487076672.802543) can0 081#400000000000001B
(1487076672.802543) can0 18F#002C000000720000
(1487076672.802544) can0 260#0500000013A75F3F
(1487076672.803686) can0 2A0#62005D806C12A900
(1487076672.803687) can0 153#200000FF00FFD0EE
(1487076672.803687) can0 329#4F60810E11320010
(1487076672.803687) can0 4B0#00C0004000000000
(1487076672.803688) can0 545#DF00005F54FE54FE
(1487076672.804768) can0 2C0#0000000000000000
(1487076672.805839) can0 165#070880000000038C
(1487076672.805840) can0 2B0#FD06000765
(1487076672.807779) can0 220#F50300000000E60F
(1487076672.808827) can0 164#0008000000000901
(1487076672.810087) can0 4F0#0000820000121402
(1487076672.811170) can0 4F1#CCFF000000000000
(1487076672.812312) can0 316#059D0000002F007F
(1487076672.812313) can0 080#001700009D2F005C
(1487076672.812313) can0 081#400000000000000C
(1487076672.812314) can0 18F#002C000000720000
(1487076672.813435) can0 260#0500000013A75F02
(1487076672.813436) can0 2A0#02005D806C12A900
(1487076672.813436) can0 153#200000FF00FFE0FE
(1487076672.813437) can0 329#8060810E11320010
(1487076672.813437) can0 545#DF00005E54FE54FE
(1487076672.814517) can0 2C0#0000000000000000
(1487076672.815553) can0 165#070880000000048B
(1487076672.815554) can0 2B0#FD06000756
(1487076672.817412) can0 5F0#0100
(1487076672.818497) can0 220#F50300000000E00F
(1487076672.818498) can0 164#0008000000000A02
(1487076672.818498) can0 1F1#0000000000000000
(1487076672.821633) can0 316#059D0000002F007F
(1487076672.822770) can0 080#001700009D2F004D
(1487076672.822771) can0 081#40000000000000FD
(1487076672.822771) can0 18F#002C000000720000
(1487076672.822772) can0 260#0500000013A75F11
(1487076672.823901) can0 153#200000FF00FF001E
(1487076672.823902) can0 2A0#A2005D806C12A900
(1487076672.823902) can0 329#8060810E11320010
(1487076672.823903) can0 4B0#0000008000000000
(1487076672.823903) can0 545#DF00005F54FE54FE
(1487076672.824904) can0 2C0#0000000000000000
(1487076672.824905) can0 165#070880000000058A
(1487076672.824906) can0 2B0#FD06000747
(1487076672.827814) can0 220#F50300000000CD0F
(1487076672.828895) can0 164#0008000000000B03
(1487076672.830417) can0 4F0#0000840000121402
(1487076672.831542) can0 4F1#CCFF000000000000
(1487076672.831543) can0 690#4000400000202800
(1487076672.832609) can0 316#059D0000002F007F
(1487076672.832610) can0 080#001700009D2F003E
(1487076672.832611) can0 081#40000000000000EE
(1487076672.832612) can0 18F#002C000000720000
(1487076672.832612) can0 260#0500000013A75F20
(1487076672.833725) can0 153#200000FF00FF102E
(1487076672.833727) can0 2A0#C2005D806C12A900
(1487076672.833727) can0 329#8060810E11320010
(1487076672.833727) can0 545#DF00005F54FE54FE
(1487076672.834808) can0 2C0#0000000000000000
(1487076672.834810) can0 165#0708800000000689
(1487076672.834814) can0 2B0#FD060007B8
(1487076672.837766) can0 220#F50300000000CD0F
(1487076672.838873) can0 164#0008000000000C04
(1487076672.838874) can0 1F1#0000000000000000
(1487076672.841516) can0 316#059D0000002F007F
(1487076672.842603) can0 080#001700009D2F002F
(1487076672.842604) can0 081#40000000000000DF
(1487076672.842605) can0 18F#002C000000720000
(1487076672.842606) can0 260#0500000013A75F3F
(1487076672.843717) can0 2A0#62005D806C12A900
(1487076672.843719) can0 153#200000FF00FF203E
(1487076672.843719) can0 329#8060810E11320010
(1487076672.843720) can0 4B0#0040008000000000
(1487076672.843720) can0 545#DF00005F54FE54FE
(1487076672.844811) can0 165#0708800000000788
(1487076672.844812) can0 2B0#FF06000789
(1487076672.844812) can0 2C0#0000000000000000
(1487076672.847764) can0 220#F50300000000DA0F
(1487076672.848894) can0 164#0008000000000D05
(1487076672.850185) can0 4F0#0000860000121402
(1487076672.851248) can0 4F1#CCFF000000000000
(1487076672.852357) can0 316#059D0000002F007F
(1487076672.852358) can0 080#001700009D2F0010
(1487076672.852359) can0 081#40000000000000C0
(1487076672.852360) can0 18F#002C000000720000
(1487076672.853474) can0 260#0500000013A75F02
(1487076672.853476) can0 2A0#02005D806C12A900
(1487076672.853476) can0 153#200000FF00FF304E
(1487076672.853476) can0 329#8060810E11320010
(1487076672.853477) can0 165#0708800000000887
(1487076672.854559) can0 2B0#FD0600079A
(1487076672.854560) can0 545#DF00005F54FE54FE
(1487076672.854560) can0 2C0#0000000000000000
(1487076672.857792) can0 220#F50300000000CD0F
(1487076672.858872) can0 164#0008000000000E06
(1487076672.858873) can0 1F1#0000000000000000
(1487076672.861689) can0 316#059D0000002F007F
(1487076672.862771) can0 080#001700009D2F0001
(1487076672.862772) can0 081#40000000000000B1
(1487076672.862772) can0 18F#002C000000720000
(1487076672.862773) can0 260#0500000013A75F11
(1487076672.863832) can0 153#200000FF00FF405E
(1487076672.863834) can0 2A0#A2005D806C12A900
(1487076672.863834) can0 2B0#FD0600078B
(1487076672.863834) can0 165#0708800000000986
(1487076672.863835) can0 329#8060810E11320010
(1487076672.864975) can0 4B0#0080008000000000
(1487076672.864976) can0 2C0#0000000000000000
(1487076672.864977) can0 545#DF00005E54FE54FE
(1487076672.866038) can0 5F0#0100
(1487076672.867777) can0 220#F50300000000DA0F
(1487076672.868873) can0 164#0008000000000F07
(1487076672.870124) can0 4F0#0000880000121402
(1487076672.871212) can0 4F1#CCFF000000000000
(1487076672.872341) can0 316#059D0000002F007F
(1487076672.872343) can0 080#001700009D2F00F2
(1487076672.872344) can0 081#40000000000000A2
(1487076672.873463) can0 18F#002C000000720000
(1487076672.873464) can0 165#0708800000000A85
(1487076672.873465) can0 153#200000FF00FF506E
(1487076672.873465) can0 260#0500000013A75F20
(1487076672.873466) can0 2A0#C2005D806C12A900
(1487076672.874537) can0 2B0#FD060007FC
(1487076672.874538) can0 329#D760810E11320010
(1487076672.874538) can0 545#DF00005F54FE54FE
(1487076672.874539) can0 2C0#0000000000000000
(1487076672.877814) can0 220#F50300000000E00F
(1487076672.878894) can0 164#0008000000000008
(1487076672.878895) can0 1F1#0000000000000000
(1487076672.881478) can0 316#059D0000002F007F
(1487076672.882561) can0 080#001700009D2F00E3
(1487076672.882562) can0 081#4000000000000093
(1487076672.882563) can0 18F#002C000000720000
(1487076672.882568) can0 260#0500000013A75F3F
(1487076672.883619) can0 2A0#62005D806C12A900
(1487076672.883621) can0 153#200000FF00FF607E
(1487076672.883621) can0 2B0#FF060007CD
(1487076672.883621) can0 165#0708800000000B84
(1487076672.883622) can0 329#D760810E11320010
(1487076672.884790) can0 4B0#00C0008000000000
(1487076672.884791) can0 545#DF00005F54FE54FE
(1487076672.884791) can0 0A0#0040000000280000
(1487076672.884792) can0 0A1#8080808066000000
(1487076672.885833) can0 2C0#0000000000000000
(1487076672.887814) can0 220#F50300000000E60F
(1487076672.888873) can0 164#0008000000000109
(1487076672.890122) can0 4F0#00008A0000121402
(1487076672.891184) can0 4F1#CCFF000000000000
(1487076672.892293) can0 316#059D0000002F007F
(1487076672.892294) can0 080#001700009D2F00D4
(1487076672.892295) can0 081#4000000000000084
(1487076672.892296) can0 18F#002C000000720000
(1487076672.893393) can0 260#0500000013A75F02
(1487076672.893394) can0 2A0#02005D806C12A900
(1487076672.893395) can0 153#200000FF00FF708E
(1487076672.893395) can0 2B0#FD060007DE
(1487076672.893395) can0 329#D760810E11320010
(1487076672.894463) can0 545#DF00005F54FE54FE
(1487076672.894464) can0 5E4#040000
(1487076672.894465) can0 165#0708800000000C83
(1487076672.894465) can0 2C0#0000000000000000
(1487076672.897809) can0 220#F50300000000CD0F
(1487076672.898838) can0 164#000800000000020A
(1487076672.898839) can0 1F1#0000000000000000
(1487076672.901069) can0 165#0708800000000D82
(1487076672.902189) can0 2B0#FD060007CF
(1487076672.902190) can0 316#059D0000002F007F
(1487076672.902190) can0 080#001700009D2F00C5
(1487076672.902192) can0 081#4000000000000075
(1487076672.903291) can0 18F#002C000000720000
(1487076672.903292) can0 260#0500000013A75F11
(1487076672.903292) can0 153#200000FF00FF809E
(1487076672.903293) can0 2A0#A2005D806C12A900
(1487076672.904396) can0 329#D760810E11320010
(1487076672.904397) can0 4B0#000000C000000000
(1487076672.904398) can0 545#DF00005F54FE54FE
(1487076672.904398) can0 2C0#0000000000000000
(1487076672.907761) can0 220#F50300000000D40F
(1487076672.908894) can0 164#000800000000030B
(1487076672.910054) can0 4F0#00008C0000121402
(1487076672.911130) can0 4F1#CCFF000000000000
(1487076672.911131) can0 165#0708800000000E81
(1487076672.911131) can0 2B0#FD06000730
(1487076672.912253) can0 316#059D0000002F007F
(1487076672.912254) can0 080#001700009D2F00B6
(1487076672.912254) can0 081#4000000000000066
(1487076672.913333) can0 18F#002C000000720000
(1487076672.913334) can0 260#0500000013A75F20
(1487076672.913335) can0 153#200000FF00FF90AE
(1487076672.913335) can0 2A0#C2005D806C12A900
(1487076672.913335) can0 329#D760810E11320010
(1487076672.914437) can0 545#DF00005E54FE54FE
(1487076672.914438) can0 5F0#0100
(1487076672.914438) can0 2C0#0000000000000000
(1487076672.914439) can0 5A1#5442333046422644
(1487076672.917751) can0 220#F50300000000CD0F
(1487076672.918832) can0 164#000800000000040C
(1487076672.918833) can0 1F1#0000000000000000
(1487076672.920044) can0 165#0708800000000F80
(1487076672.921099) can0 2B0#FD06000721
(1487076672.922206) can0 316#059D0000002F007F
(1487076672.922206) can0 080#001700009D2F00A7
(1487076672.922207) can0 081#4000000000000057
(1487076672.922207) can0 18F#002C000000720000
(1487076672.923312) can0 260#0500000013A75F3F
(1487076672.923313) can0 2A0#62005D806C12A900
(1487076672.923316) can0 153#200000FF00FFA0BE
(1487076672.923316) can0 329#D760810E11320010
(1487076672.924415) can0 4B0#004000C000000000
(1487076672.924416) can0 545#DF00005F54FE54FE
(1487076672.924416) can0 2C0#0000000000000000
(1487076672.927750) can0 220#F50300000000CD0F
(1487076672.928832) can0 164#000800000000050D
(1487076672.929915) can0 165#070880000000008F
(1487076672.929916) can0 2B0#FF06000732
(1487076672.930998) can0 4F0#00008E0000121402
(1487076672.930998) can0 4F1#CCFF000000000000
(1487076672.930999) can0 690#4000400000202C00
(1487076672.932103) can0 316#059D0000002F007F
(1487076672.932104) can0 080#001700009D2F0098
(1487076672.932105) can0 081#4000000000000048
(1487076672.933208) can0 18F#002C000000720000
(1487076672.933209) can0 260#0500000013A75F02
(1487076672.933209) can0 2A0#02005D806C12A900
(1487076672.933210) can0 153#200000FF00FFB0CE
(1487076672.933210) can0 329#0F60810E11320010
(1487076672.934290) can0 545#DF00005F54FE54FE
(1487076672.934291) can0 2C0#0000000000000000
(1487076672.937752) can0 220#F50300000000D40F
(1487076672.938831) can0 164#000800000000060E
(1487076672.938832) can0 1F1#0000000000000000
(1487076672.939917) can0 165#070880000000018E
(1487076672.939918) can0 2B0#FD06000703
(1487076672.941649) can0 316#059D0000002F007F
(1487076672.942748) can0 080#001700009D2F0089
(1487076672.942749) can0 081#4000000000000039
(1487076672.942749) can0 18F#002C000000720000
(1487076672.942750) can0 260#0500000013A75F11
(1487076672.943855) can0 153#200000FF00FFC0DE
(1487076672.943856) can0 2A0#A2005D806C12A900
(1487076672.943857) can0 329#0F60810E11320010
(1487076672.943857) can0 4B0#008000C000000000
(1487076672.943857) can0 545#DF00005F54FE54FE
(1487076672.944936) can0 2C0#0000000000000000
(1487076672.947749) can0 220#F50300000000ED0F
(1487076672.948831) can0 164#000800000000070F
(1487076672.948831) can0 165#070880000000028D
(1487076672.949914) can0 2B0#FD06000774
(1487076672.950977) can0 4F0#0000900000121402
(1487076672.950977) can0 4F1#CCFF000000000000
(1487076672.952085) can0 316#059D0000002F007F
(1487076672.952085) can0 080#001700009D2F007A
(1487076672.952086) can0 081#400000000000002A
(1487076672.953185) can0 18F#002C000000720000
(1487076672.953186) can0 260#0500000013A75F20
(1487076672.953186) can0 153#200000FF00FFD0EE
(1487076672.953187) can0 2A0#C2005D806C12A900
(1487076672.954291) can0 329#0F60810E11320010
(1487076672.954292) can0 545#DF00005F54FE54FE
(1487076672.954292) can0 2C0#0000000000000000
(1487076672.957779) can0 220#F50300000000D40F
(1487076672.958851) can0 164#0008000000000800
(1487076672.958851) can0 1F1#0000000000000000
(1487076672.958852) can0 165#070880000000038C
(1487076672.958852) can0 2B0#FD06000765
(1487076672.961412) can0 316#059D0000002F007F
(1487076672.962497) can0 080#001700009D2F006B
(1487076672.962498) can0 081#400000000000001B
(1487076672.962498) can0 18F#002C000000720000
(1487076672.962499) can0 260#0500000013A75F3F
(1487076672.963628) can0 2A0#62005D806C12A900
(1487076672.963628) can0 153#200000FF00FFE0FE
(1487076672.963629) can0 329#0F60810E11320010
(1487076672.963629) can0 4B0#0000000000000000
(1487076672.963630) can0 545#DF00005E54FE54FE
(1487076672.964709) can0 5F0#0100
(1487076672.964710) can0 2C0#0000000000000000
(1487076672.967756) can0 220#F50300000000D40F
(1487076672.968834) can0 164#0008000000000901
(1487076672.968838) can0 2B0#FD06000756
(1487076672.968838) can0 165#070880000000048B
(1487076672.970084) can0 4F0#0000920000121402
(1487076672.971166) can0 4F1#CCFF000000000000
(1487076672.972280) can0 316#059D0000002F007F
(1487076672.972281) can0 080#001700009D2F005C
(1487076672.972282) can0 081#400000000000000C
(1487076672.972282) can0 18F#002C000000720000
(1487076672.973401) can0 260#0500000013A75F02
(1487076672.973402) can0 2A0#02005D806C12A900
(1487076672.973402) can0 153#200000FF00FF001E
(1487076672.973402) can0 329#0F60810E11320010
(1487076672.973403) can0 545#DF00005F54FE54FE
(1487076672.974456) can0 2C0#0000000000000000
(1487076672.977419) can0 165#070880000000058A
(1487076672.978500) can0 2B0#FD06000747
(1487076672.978500) can0 220#F50300000000DA0F
(1487076672.978501) can0 164#0008000000000A02
(1487076672.978501) can0 1F1#0000000000000000
(1487076672.981604) can0 316#059D0000002F007F
(1487076672.982687) can0 080#001700009D2F004D
(1487076672.982688) can0 081#40000000000000FD
(1487076672.982688) can0 18F#002C000000720000
(1487076672.982689) can0 260#0500000013A75F11
(1487076672.983792) can0 153#200000FF00FF102E
(1487076672.983793) can0 2A0#A2005D806C12A900
(1487076672.983793) can0 329#0F60810E11320010
(1487076672.983794) can0 4B0#0040000000000000
(1487076672.983794) can0 545#DF00005E54FE54FE
(1487076672.984875) can0 2C0#0000000000000000
(1487076672.985957) can0 0A0#0040000000280000
(1487076672.985958) can0 0A1#8080808066000000
(1487076672.987062) can0 165#0708800000000689
(1487076672.988154) can0 2B0#FD060007B8
(1487076672.988155) can0 220#F50300000000DA0F
(1487076672.988156) can0 164#0008000000000B03
(1487076672.990060) can0 4F0#0000940000121402
(1487076672.991121) can0 4F1#CCFF000000000000
(1487076672.992250) can0 316#059D0000002F007F
(1487076672.992251) can0 080#001700009D2F003E
(1487076672.992252) can0 081#40000000000000EE
(1487076672.993311) can0 18F#002C000000720000
(1487076672.993312) can0 260#0500000013A75F20
(1487076672.993312) can0 2A0#C2005D806C12A900
(1487076672.993313) can0 153#200000FF00FF203E
(1487076672.993313) can0 329#4F60810E11320010
(1487076672.994416) can0 545#DF00005F54FE54FE
(1487076672.994417) can0 5E4#040000
(1487076672.994417) can0 2C0#0000000000000000
(1487076672.996671) can0 165#0708800000000788
(1487076672.997779) can0 2B0#FD060007A9
(1487076672.997780) can0 220#F50300000000DA0F
(1487076672.998853) can0 164#0008000000000C04
(1487076672.998854) can0 1F1#0000000000000000
(1487076673.001420) can0 316#059D0000002F007F
(1487076673.002527) can0 080#001700009D2F002F
(1487076673.002527) can0 081#40000000000000DF
(1487076673.002528) can0 18F#002C000000720000
(1487076673.002529) can0 260#0500000013A75F3F
(1487076673.003625) can0 2A0#62005D806C12A900
(1487076673.003626) can0 153#200000FF00FF304E
(1487076673.003626) can0 329#4F60810E11320010
(1487076673.003626) can0 4B0#0080000000000000
(1487076673.003627) can0 545#DF00005F54FE54FE
(1487076673.004710) can0 2C0#0000000000000000
(1487076673.006231) can0 165#0708800000000887
(1487076673.007313) can0 2B0#FD0600079A
(1487076673.008404) can0 220#F50300000000DA0F
(1487076673.008405) can0 164#0008000000000D05
(1487076673.009455) can0 5F0#0100
(1487076673.010541) can0 4F0#0000960000121402
(1487076673.010542) can0 4F1#CCFF000000000000
(1487076673.011654) can0 316#059D0000002F007F
(1487076673.012748) can0 080#001700009D2F0010
(1487076673.012748) can0 081#40000000000000C0
(1487076673.012749) can0 18F#002C000000720000
(1487076673.012749) can0 260#0500000013A75F02
(1487076673.012750) can0 2A0#02005D806C12A900
(1487076673.013830) can0 153#200000FF00FF405E
(1487076673.013831) can0 329#4F60810E11320010
(1487076673.013831) can0 545#DF00005E54FE54FE
(1487076673.014915) can0 2C0#0000000000000000
(1487076673.016000) can0 165#0708800000000986
(1487076673.016001) can0 2B0#FD0600078B
(1487076673.017747) can0 220#F50300000000ED0F
(1487076673.018830) can0 164#0008000000000E06
(1487076673.018831) can0 1F1#0000000000000000
(1487076673.021607) can0 316#059D0000002F007F
(1487076673.022686) can0 080#001700009D2F0001
(1487076673.022687) can0 081#40000000000000B1
(1487076673.022688) can0 18F#002C000000720000
(1487076673.022688) can0 260#0500000013A75F11
(1487076673.023815) can0 153#200000FF00FF506E
(1487076673.023815) can0 2A0#A2005D806C12A900
(1487076673.023816) can0 329#4F60810E11320010
(1487076673.023816) can0 4B0#00C0000000000000
(1487076673.023816) can0 545#DF00005F54FE54FE
(1487076673.024906) can0 2C0#0000000000000000
(1487076673.025978) can0 165#0708800000000A85
(1487076673.025979) can0 2B0#FD060007FC
(1487076673.027780) can0 220#F50300000000E60F
(1487076673.028831) can0 164#0008000000000F07
(1487076673.030478) can0 4F0#0000980000121402
(1487076673.031565) can0 4F1#CCFF000000000000
(1487076673.031566) can0 690#4000400000203000
(1487076673.031567) can0 316#059D0000002F007F
(1487076673.032686) can0 080#001700009D2F00F2
(1487076673.032687) can0 081#40000000000000A2
(1487076673.032687) can0 18F#002C000000720000
(1487076673.032687) can0 260#0500000013A75F20
(1487076673.033778) can0 2A0#C2005D806C12A900
(1487076673.033779) can0 153#200000FF00FF607E
(1487076673.033779) can0 329#4F60810E11320010
(1487076673.033779) can0 545#DF00005E54FE54FE
(1487076673.034872) can0 2C0#0000000000000000
(1487076673.035961) can0 165#0708800000000B84
(1487076673.035962) can0 2B0#FD060007ED
(1487076673.037780) can0 220#F50300000000E60F
(1487076673.038852) can0 164#0008000000000008
(1487076673.038853) can0 1F1#0000000000000000
(1487076673.041459) can0 316#059D0000002F007F
(1487076673.042543) can0 080#001700009D2F00E3
(1487076673.042543) can0 081#4000000000000093
(1487076673.042544) can0 18F#002C000000720000
(1487076673.042544) can0 260#0500000013A75F3F
(1487076673.043658) can0 2A0#62005D806C12A900
(1487076673.043659) can0 153#200000FF00FF708E
(1487076673.043659) can0 329#4F60810E11320010
(1487076673.043659) can0 4B0#0000004000000000
(1487076673.043660) can0 545#DF00005F54FE54FE
(1487076673.044774) can0 2C0#0000000000000000
(1487076673.044775) can0 165#0708800000000C83
(1487076673.044775) can0 2B0#FD060007DE
(1487076673.047817) can0 220#F50300000000ED0F
(1487076673.048895) can0 164#0008000000000109
(1487076673.050167) can0 4F0#00009A0000121402
(1487076673.051249) can0 4F1#CCFF000000000000
(1487076673.052349) can0 316#059D0000002F007F
(1487076673.052350) can0 080#001700009D2F00D4
(1487076673.052352) can0 081#4000000000000084
(1487076673.052352) can0 18F#002C000000720000
(1487076673.053476) can0 260#0500000013A75F02
(1487076673.053478) can0 2A0#02005D806C12A900
(1487076673.053478) can0 153#200000FF00FF809E
(1487076673.053478) can0 329#8060810E11320010
(1487076673.053479) can0 545#DF00005F54FE54FE
(1487076673.054538) can0 2C0#0000000000000000
(1487076673.054540) can0 165#0708800000000D82
(1487076673.054540) can0 2B0#FD060007CF
(1487076673.057422) can0 5F0#0100
(1487076673.058500) can0 220#F50300000000D40F
(1487076673.058501) can0 164#000800000000020A
(1487076673.058501) can0 1F1#0000000000000000
(1487076673.061669) can0 316#059D0000002F007F
(1487076673.062748) can0 080#001700009D2F00C5
(1487076673.062750) can0 081#4000000000000075
(1487076673.062750) can0 18F#002C000000720000
(1487076673.062750) can0 260#0500000013A75F11
(1487076673.063860) can0 153#200000FF00FF90AE
(1487076673.063861) can0 2A0#A2005D806C12A900
(1487076673.063861) can0 329#8060810E11320010
(1487076673.063862) can0 4B0#0040004000000000
(1487076673.063862) can0 165#0708800000000E81
(1487076673.064886) can0 2B0#FD06000730
(1487076673.064887) can0 2C0#0000000000000000
(1487076673.064888) can0 545#DF00005F54FE54FE
(1487076673.067832) can0 220#F50300000000DA0F
(1487076673.068899) can0 164#000800000000030B
(1487076673.070125) can0 4F0#00009C0000121402
(1487076673.071216) can0 4F1#CCFF000000000000
(1487076673.072262) can0 316#059D0000002F007F
(1487076673.072263) can0 080#001700009D2F00B6
(1487076673.072263) can0 081#4000000000000066
(1487076673.073438) can0 18F#002C000000720000
(1487076673.073439) can0 260#0500000013A75F20
(1487076673.073440) can0 153#200000FF00FFA0BE
(1487076673.073440) can0 2A0#C2005D806C12A900
(1487076673.073440) can0 165#0708800000000F80
(1487076673.074542) can0 2B0#FF06000701
(1487076673.074543) can0 329#8060810E11320010
(1487076673.074544) can0 545#DF00005F54FE54FE
(1487076673.074544) can0 2C0#0000000000000000
(1487076673.077817) can0 220#F50300000000ED0F
(1487076673.078896) can0 164#000800000000040C
(1487076673.078897) can0 1F1#0000000000000000
(1487076673.081485) can0 316#059D0000002F007F
(1487076673.082563) can0 080#001700009D2F00A7
(1487076673.082564) can0 081#4000000000000057
(1487076673.082564) can0 18F#002C000000720000
(1487076673.082565) can0 260#0500000013A75F3F
(1487076673.083691) can0 2A0#62005D806C12A900
(1487076673.083693) can0 153#200000FF00FFB0CE
(1487076673.083693) can0 2B0#FD06000712
(1487076673.083694) can0 165#070880000000008F
(1487076673.083694) can0 329#8060810E11320010
(1487076673.084771) can0 4B0#0080004000000000
(1487076673.084772) can0 545#DF00005E54FE54FE
(1487076673.084772) can0 2C0#0000000000000000
(1487076673.086270) can0 0A0#0040000000280000
(1487076673.087322) can0 0A1#8080808066000000
(1487076673.088407) can0 220#F50300000000DA0F
(1487076673.088408) can0 164#000800000000050D
(1487076673.090103) can0 4F0#00009E0000121402
(1487076673.091166) can0 4F1#CCFF000000000000
(1487076673.092276) can0 316#059D0000002F007F
(1487076673.092277) can0 080#001700009D2F0098
(1487076673.092279) can0 081#4000000000000048
(1487076673.092279) can0 18F#002C000000720000
(1487076673.093400) can0 260#0500000013A75F02
(1487076673.093401) can0 2A0#02005D806C12A900
(1487076673.093401) can0 153#200000FF00FFC0DE
(1487076673.093402) can0 2B0#FD06000703
(1487076673.093402) can0 329#8060810E11320010
(1487076673.094432) can0 545#DF00005F54FE54FE
(1487076673.094433) can0 5E4#040000
(1487076673.094434) can0 165#070880000000018E
(1487076673.094434) can0 2C0#0000000000000000
(1487076673.097846) can0 220#F50300000000E00F
(1487076673.098858) can0 164#000800000000060E
(1487076673.098864) can0 1F1#0000000000000000
(1487076673.101672) can0 316#059D0000002F007F
(1487076673.102771) can0 080#001700009D2F0089
(1487076673.102773) can0 081#4000000000000039
(1487076673.102773) can0 18F#002C000000720000
(1487076673.102774) can0 260#0500000013A75F11
(1487076673.103844) can0 153#200000FF00FFD0EE
(1487076673.103845) can0 2A0#A2005D806C12A900
(1487076673.103845) can0 2B0#FD06000774
(1487076673.103846) can0 165#070880000000028D
(1487076673.103846) can0 329#8060810E11320010
(1487076673.104926) can0 2C0#0000000000000000
(1487076673.104927) can0 4B0#00C0004000000000
(1487076673.104927) can0 545#DF00005F54FE54FE
(1487076673.106039) can0 5F0#0100
(1487076673.107828) can0 220#F50300000000E00F
(1487076673.108916) can0 164#000800000000070F
(1487076673.110127) can0 4F0#0000A00000121402
(1487076673.111214) can0 4F1#CCFF000000000000
(1487076673.112277) can0 165#070880000000038C
(1487076673.112278) can0 2A0#C2005D806C12A900
(1487076673.112279) can0 260#0500000013A75F20
(1487076673.112279) can0 080#001700009D2F007A
(1487076673.113391) can0 081#400000000000002A
(1487076673.113392) can0 18F#002C000000720000
(1487076673.113393) can0 153#200000FF00FFE0FE
(1487076673.113393) can0 2B0#FD06000765
(1487076673.113394) can0 316#059D0000002F007F
(1487076673.114480) can0 329#D760810E11320010
(1487076673.114482) can0 545#DF00005F54FE54FE
(1487076673.114482) can0 2C0#0000000000000000
(1487076673.117847) can0 220#F50300000000C70F
(1487076673.118921) can0 164#0008000000000800
(1487076673.118922) can0 1F1#0000000000000000
(1487076673.120993) can0 165#070880000000048B
(1487076673.122147) can0 2B0#FD06000756
(1487076673.122148) can0 316#059D0000002F007F
(1487076673.122148) can0 080#001700009D2F006B
(1487076673.122149) can0 081#400000000000001B
(1487076673.123268) can0 18F#002C000000720000
(1487076673.123270) can0 260#0500000013A75F3F
(1487076673.123270) can0 2A0#62005D806C12A900
(1487076673.123270) can0 153#200000FF00FF001E
(1487076673.123271) can0 329#D760810E11320010
(1487076673.124359) can0 4B0#0000008000000000
(1487076673.124360) can0 545#DF00005F54FE54FE
(1487076673.124361) can0 2C0#0000000000000000
(1487076673.127859) can0 220#F50300000000DA0F
(1487076673.128918) can0 164#0008000000000901
(1487076673.130273) can0 4F0#0000A20000121402
(1487076673.131343) can0 4F1#CCFF000000000000
(1487076673.131344) can0 165#070880000000058A
(1487076673.131345) can0 2B0#FD06000747
(1487076673.131345) can0 690#4000400000203400
(1487076673.132481) can0 316#059D0000002F007F
(1487076673.132482) can0 080#001700009D2F005C
(1487076673.132483) can0 081#400000000000000C
(1487076673.132483) can0 18F#002C000000720000
(1487076673.132483) can0 260#0500000013A75F02
(1487076673.133564) can0 2A0#02005D806C12A900
(1487076673.133565) can0 153#200000FF00FF102E
(1487076673.133565) can0 329#D760810E11320010
(1487076673.133565) can0 545#DF00005E54FE54FE
(1487076673.134644) can0 2C0#0000000000000000
(1487076673.137837) can0 220#F50300000000D40F
(1487076673.138916) can0 164#0008000000000A02
(1487076673.138917) can0 1F1#0000000000000000
(1487076673.140151) can0 165#0708800000000689
(1487076673.141223) can0 2B0#FD060007B8
(1487076673.142314) can0 316#059D0000002F007F
(1487076673.142315) can0 080#001700009D2F004D
(1487076673.142315) can0 081#40000000000000FD
(1487076673.143418) can0 18F#002C000000720000
(1487076673.143424) can0 260#0500000013A75F11
(1487076673.143424) can0 153#200000FF00FF203E
(1487076673.143425) can0 2A0#A2005D806C12A900
(1487076673.143425) can0 329#D760810E11320010
(1487076673.144524) can0 4B0#0040008000000000
(1487076673.144525) can0 545#DF00005F54FE54FE
(1487076673.144525) can0 2C0#0000000000000000
(1487076673.147848) can0 220#F50300000000C10F
(1487076673.148921) can0 164#0008000000000B03
(1487076673.150001) can0 165#0708800000000788
(1487076673.150002) can0 2B0#FD060007A9
(1487076673.151076) can0 4F0#0000A40000121402
(1487076673.151077) can0 4F1#CCFF000000000000
(1487076673.152168) can0 316#059D0000002F007F
(1487076673.152169) can0 080#001700009D2F003E
(1487076673.152169) can0 081#40000000000000EE
(1487076673.153224) can0 18F#002C000000720000
(1487076673.153225) can0 260#0500000013A75F20
(1487076673.153225) can0 153#200000FF00FF304E
(1487076673.153226) can0 2A0#C2005D806C12A900
(1487076673.154376) can0 329#D760810E11320010
(1487076673.154377) can0 545#DF00005F54FE54FE
(1487076673.154378) can0 5F0#0100
(1487076673.154378) can0 2C0#0000000000000000
(1487076673.157846) can0 220#F50300000000E60F
(1487076673.158917) can0 164#0008000000000C04
(1487076673.158918) can0 1F1#0000000000000000
(1487076673.160007) can0 165#0708800000000887
(1487076673.160009) can0 2B0#FD0600079A
(1487076673.161467) can0 316#059D0000002F007F
(1487076673.162562) can0 080#001700009D2F002F
(1487076673.162564) can0 081#40000000000000DF
(1487076673.162564) can0 18F#002C000000720000
(1487076673.162564) can0 260#0500000013A75F3F
(1487076673.163673) can0 2A0#62005D806C12A900
(1487076673.163674) can0 153#200000FF00FF405E
(1487076673.163675) can0 329#D760810E11320010
(1487076673.163675) can0 4B0#0080008000000000
(1487076673.163676) can0 545#DF00005F54FE54FE
(1487076673.164753) can0 2C0#0000000000000000
(1487076673.167847) can0 220#F50300000000F90F
(1487076673.168921) can0 164#0008000000000D05
(1487076673.168922) can0 165#0708800000000986
(1487076673.169988) can0 2B0#FD0600078B
(1487076673.171089) can0 4F0#0000A60000121402
(1487076673.171090) can0 4F1#CCFF000000000000
(1487076673.172192) can0 316#059D0000002F007F
(1487076673.172193) can0 080#001700009D2F0010
(1487076673.172194) can0 081#40000000000000C0
(1487076673.173293) can0 18F#002C000000720000
(1487076673.173294) can0 260#0500000013A75F02
(1487076673.173294) can0 2A0#02005D806C12A900
(1487076673.173295) can0 153#200000FF00FF506E
(1487076673.173295) can0 329#0F60810E11320010
(1487076673.174381) can0 545#DF00005F54FE54FE
(1487076673.174382) can0 2C0#0000000000000000
(1487076673.174383) can0 5A0#0000000000000000
(1487076673.175467) can0 5A2#0400A503
(1487076673.177842) can0 220#F50300000000ED0F
(1487076673.178939) can0 164#0008000000000E06
(1487076673.178940) can0 1F1#0000000000000000
(1487076673.178941) can0 165#0708800000000A85
(1487076673.178941) can0 2B0#FD060007FC
(1487076673.181677) can0 316#059D0000002F007F
(1487076673.182755) can0 080#001700009D2F0001
(1487076673.182756) can0 081#40000000000000B1
(1487076673.182756) can0 18F#002C000000720000
(1487076673.182757) can0 260#0500000013A75F11
(1487076673.183824) can0 0A0#0040000000280000
(1487076673.183825) can0 0A1#8080808066000000
(1487076673.183826) can0 153#200000FF00FF607E
(1487076673.183826) can0 2A0#A2005D806C12A900
(1487076673.183827) can0 329#0F60810E11320010
(1487076673.184910) can0 2C0#0000000000000000
(1487076673.184910) can0 4B0#00C0008000000000
(1487076673.184911) can0 545#DF00005E54FE54FE
(1487076673.187788) can0 220#F50300000000DA0F
(1487076673.188857) can0 164#0008000000000F07
(1487076673.188858) can0 2B0#FD060007ED
(1487076673.188858) can0 165#0708800000000B84
(1487076673.190067) can0 4F0#0000A80000121402
(1487076673.191156) can0 4F1#CCFF000000000000
(1487076673.192283) can0 316#059D0000002F007F
(1487076673.192284) can0 080#001700009D2F00F2
(1487076673.192285) can0 081#40000000000000A2
(1487076673.192285) can0 18F#002C000000720000
(1487076673.193357) can0 260#0500000013A75F20
(1487076673.193358) can0 2A0#C2005D806C12A900
(1487076673.193358) can0 153#200000FF00FF708E
(1487076673.193359) can0 329#0F60810E11320010
(1487076673.194465) can0 545#DF00005F54FE54FE
(1487076673.194466) can0 5E4#040000
(1487076673.194467) can0 2C0#0000000000000000
(1487076673.197489) can0 165#0708800000000C83
(1487076673.198566) can0 2B0#FD060007DE
(1487076673.198567) can0 220#F50300000200C70F
(1487076673.198567) can0 164#0008000000000008
(1487076673.198568) can0 1F1#0000000000000000
(1487076673.201421) can0 316#059D0000002F007F
(1487076673.202533) can0 080#001700009D2F00E3
(1487076673.202534) can0 081#4000000000000093
(1487076673.202535) can0 18F#002C000000720000
(1487076673.202535) can0 260#0500000013A75F3F
(1487076673.203629) can0 2A0#62005D806C12A900
(1487076673.203629) can0 153#200000FF00FF809E
(1487076673.203630) can0 329#0F60810E11320010
(1487076673.203630) can0 4B0#000000C000000000
(1487076673.203631) can0 545#DF00005E54FE54FE
(1487076673.204732) can0 5F0#0100
(1487076673.204733) can0 2C0#0000000000000000
(1487076673.207064) can0 165#0708800000000D82
(1487076673.208158) can0 2B0#FD060007CF
(1487076673.208159) can0 220#F50300000000CD0F
(1487076673.208160) can0 164#0008000000000109
(1487076673.210061) can0 4F0#0000AA0000121402
(1487076673.211157) can0 4F1#CCFF000000000000
(1487076673.212255) can0 316#059D0000002F007F
(1487076673.212256) can0 080#001700009D2F00D4
(1487076673.212256) can0 081#4000000000000084
(1487076673.212256) can0 18F#002C000000720000
(1487076673.213358) can0 260#0500000013A75F02
(1487076673.213358) can0 2A0#02005D806C12A900
(1487076673.213359) can0 153#200000FF00FF90AE
(1487076673.213359) can0 329#0F60810E11320010
(1487076673.213359) can0 545#DF00005F54FE54FE
(1487076673.214441) can0 2C0#0000000000000000
(1487076673.216633) can0 165#0708800000000E81
(1487076673.217733) can0 2B0#FD06000730
(1487076673.218838) can0 220#F50300000000D40F
(1487076673.218839) can0 164#000800000000020A
(1487076673.218839) can0 1F1#0000000000000000
(1487076673.221608) can0 316#059D0000002F007F
(1487076673.222712) can0 080#001700009D2F00C5
(1487076673.222713) can0 081#4000000000000075
(1487076673.222713) can0 18F#002C000000720000
(1487076673.222714) can0 260#0500000013A75F11
(1487076673.223818) can0 153#200000FF00FFA0BE
(1487076673.223819) can0 2A0#A2005D806C12A900
(1487076673.223820) can0 329#0F60810E11320010
(1487076673.223820) can0 4B0#004000C000000000
(1487076673.223820) can0 545#DF00005F54FE54FE
(1487076673.224907) can0 2C0#0000000000000000
(1487076673.226213) can0 165#0708800000000F80
(1487076673.227282) can0 2B0#FD06000721
(1487076673.228358) can0 220#F50300000000D40F
(1487076673.228359) can0 164#000800000000030B
(1487076673.230358) can0 4F0#0000AC0000121402
(1487076673.231465) can0 4F1#CCFF000000000000
(1487076673.231465) can0 690#4000400000203800
(1487076673.232567) can0 316#059D0000002F007F
(1487076673.232568) can0 080#001700009D2F00B6
(1487076673.232568) can0 081#4000000000000066
(1487076673.232569) can0 18F#002C000000720000
(1487076673.232569) can0 260#0500000013A75F20
(1487076673.233655) can0 2A0#C2005D806C12A900
(1487076673.233656) can0 153#200000FF00FFB0CE
(1487076673.233656) can0 329#4F60810E11320010
(1487076673.233657) can0 545#DF00005E54FE54FE
(1487076673.234729) can0 2C0#0000000000000000
(1487076673.235798) can0 165#070880000000008F
(1487076673.236879) can0 2B0#FD06000712
(1487076673.237983) can0 220#F50300000000DA0F
(1487076673.239065) can0 164#000800000000040C
(1487076673.239066) can0 1F1#0000000000000000
(1487076673.241442) can0 316#059D0000002F007F
(1487076673.242544) can0 080#001700009D2F00A7
(1487076673.242545) can0 081#4000000000000057
(1487076673.242545) can0 18F#002C000000720000
(1487076673.242546) can0 260#0500000013A75F3F
(1487076673.243660) can0 2A0#62005D806C12A900
(1487076673.243661) can0 153#200000FF00FFC0DE
(1487076673.243661) can0 329#4F60810E11320010
(1487076673.243662) can0 4B0#008000C000000000
(1487076673.243662) can0 545#DF00005F54FE54FE
(1487076673.244731) can0 2C0#0000000000000000
(1487076673.245817) can0 165#070880000000018E
(1487076673.245818) can0 2B0#FD06000703
(1487076673.247798) can0 220#F50300000000DA0F
(1487076673.248857) can0 164#000800000000050D
(1487076673.249941) can0 5F0#0100
(1487076673.251033) can0 4F0#0000AE0000121402
(1487076673.251034) can0 4F1#CCFF000000000000
(1487076673.252160) can0 316#059D0000002F007F
(1487076673.252160) can0 080#001700009D2F0098
(1487076673.252161) can0 081#4000000000000048
(1487076673.253231) can0 18F#002C000000720000
(1487076673.253231) can0 260#0500000013A75F02
(1487076673.253232) can0 2A0#02005D806C12A900
(1487076673.253232) can0 153#200000FF00FFD0EE
(1487076673.253232) can0 329#4F60810E11320010
(1487076673.254316) can0 545#DF00005E54FE54FE
(1487076673.254317) can0 2C0#0000000000000000
(1487076673.255408) can0 165#070880000000028D
(1487076673.255409) can0 2B0#FD06000774
(1487076673.257783) can0 220#F50300000000DA0F
(1487076673.258878) can0 164#000800000000060E
(1487076673.258879) can0 1F1#0000000000000000
(1487076673.261633) can0 316#059D0000002F007F
(1487076673.262713) can0 080#001700009D2F0089
(1487076673.262713) can0 081#4000000000000039
(1487076673.262714) can0 18F#002C000000720000
(1487076673.262714) can0 260#0500000013A75F11
(1487076673.263818) can0 153#200000FF00FFE0FE
(1487076673.263819) can0 2A0#A2005D806C12A900
(1487076673.263820) can0 329#4F60810E11320010
(1487076673.263820) can0 4B0#0000000000000000
(1487076673.263820) can0 545#DF00005F54FE54FE
(1487076673.264919) can0 2C0#0000000000000000
(1487076673.264920) can0 165#070880000000038C
(1487076673.264920) can0 2B0#FF06000745
(1487076673.267801) can0 220#F50300000000DA0F
(1487076673.268879) can0 164#000800000000070F
(1487076673.270047) can0 4F0#0000B00000121402
(1487076673.271129) can0 4F1#CCFF000000000000
(1487076673.272235) can0 316#059D0000002F007F
(1487076673.272236) can0 080#001700009D2F007A
(1487076673.272236) can0 081#400000000000002A
(1487076673.273339) can0 18F#002C000000720000
(1487076673.273340) can0 260#0500000013A75F20
(1487076673.273343) can0 2A0#C2005D806C12A900
(1487076673.273343) can0 153#200000FF00FF001E
(1487076673.273344) can0 329#4F60810E11320010
(1487076673.274421) can0 545#DF00005F54FE54FE
(1487076673.274421) can0 2C0#0000000000000000
(1487076673.274422) can0 165#070880000000048B
(1487076673.274422) can0 2B0#FD06000756
(1487076673.277796) can0 220#F50300000000E00F
(1487076673.278877) can0 164#0008000000000800
(1487076673.278878) can0 1F1#0000000000000000
(1487076673.281421) can0 316#059D0000002F007F
(1487076673.282504) can0 080#001700009D2F006B
(1487076673.282505) can0 081#400000000000001B
(1487076673.282505) can0 18F#002C000000720000
(1487076673.282505) can0 260#0500000013A75F3F
(1487076673.283608) can0 2A0#62005D806C12A900
(1487076673.283608) can0 153#200000FF00FF102E
(1487076673.283609) can0 329#4F60810E11320010
(1487076673.283609) can0 4B0#0040000000000000
(1487076673.283609) can0 0A0#0040000000280000
(1487076673.284734) can0 0A1#8080808066000000
(1487076673.284735) can0 2B0#FD06000747
(1487076673.284736) can0 165#070880000000058A
(1487076673.284736) can0 2C0#0000000000000000
(1487076673.284736) can0 545#DF00005E54FE54FE
(1487076673.287803) can0 220#F50300000000DA0F
(1487076673.288916) can0 164#0008000000000901
(1487076673.290106) can0 4F0#0000B20000121402
(1487076673.291191) can0 4F1#CCFF000000000000
(1487076673.292280) can0 316#059D0000002F007F
(1487076673.292281) can0 080#001700009D2F005C
(1487076673.292282) can0 081#400000000000000C
(1487076673.292282) can0 18F#002C000000720000
(1487076673.293399) can0 260#0500000013A75F02
(1487076673.293401) can0 2A0#02005D806C12A900
(1487076673.293401) can0 153#200000FF00FF203E
(1487076673.293401) can0 329#8060810E11320010
(1487076673.293402) can0 545#DF00005F54FE54FE
(1487076673.294504) can0 2B0#FD060007B8
(1487076673.294505) can0 5E4#040000
(1487076673.294506) can0 165#0708800000000689
(1487076673.294506) can0 2C0#0000000000000000
(1487076673.297423) can0 5F0#0100
(1487076673.298513) can0 220#F50300000000ED0F
(1487076673.298514) can0 164#0008000000000A02
(1487076673.298515) can0 1F1#0000000000000000
(1487076673.301647) can0 316#059D0000002F007F
(1487076673.302755) can0 080#001700009D2F004D
(1487076673.302756) can0 081#40000000000000FD
(1487076673.302756) can0 18F#002C000000720000
(1487076673.302756) can0 260#0500000013A75F11
(1487076673.303862) can0 153#200000FF00FF304E
(1487076673.303863) can0 2A0#A2005D806C12A900
(1487076673.303863) can0 2B0#FD060007A9
(1487076673.303864) can0 165#0708800000000788
(1487076673.303864) can0 329#8060810E11320010
(1487076673.304941) can0 2C0#0000000000000000
(1487076673.304943) can0 4B0#0080000000000000
(1487076673.304943) can0 545#DF00005E54FE54FE
(1487076673.307851) can0 220#F50300000000F30F
(1487076673.308927) can0 164#0008000000000B03
(1487076673.310094) can0 4F0#0000B40000121402
(1487076673.311168) can0 4F1#CCFF000000000000
(1487076673.312297) can0 316#059D0000002F007F
(1487076673.312298) can0 080#001700009D2F003E
(1487076673.312299) can0 081#40000000000000EE
(1487076673.313402) can0 165#0708800000000887
(1487076673.313403) can0 18F#002C000000720000
(1487076673.313403) can0 260#0500000013A75F20
(1487076673.313404) can0 153#200000FF00FF405E
(1487076673.313404) can0 2A0#C2005D806C12A900
(1487076673.314485) can0 2B0#FD0600079A
(1487076673.314486) can0 329#8060810E11320010
(1487076673.314491) can0 545#DF00005F54FE54FE
(1487076673.314491) can0 2C0#0000000000000000
(1487076673.317858) can0 220#F50300000000E60F
(1487076673.318870) can0 164#0008000000000C04
(1487076673.318871) can0 1F1#0000000000000000
(1487076673.321486) can0 316#059D0000002F007F
(1487076673.322569) can0 080#001700009D2F002F
(1487076673.322570) can0 081#40000000000000DF
(1487076673.322570) can0 18F#002C000000720000
(1487076673.322571) can0 260#0500000013A75F3F
(1487076673.323698) can0 2A0#62005D806C12A900
(1487076673.323699) can0 153#200000FF00FF506E
(1487076673.323699) can0 2B0#FD0600078B
(1487076673.323700) can0 165#0708800000000986
(1487076673.323700) can0 329#8060810E11320010
(1487076673.324776) can0 4B0#00C0000000000000
(1487076673.324777) can0 2C0#0000000000000000
(1487076673.324777) can0 545#DF00005F54FE54FE
(1487076673.327862) can0 220#F50300000000E60F
(1487076673.328941) can0 164#0008000000000D05
(1487076673.330400) can0 4F0#0000B60000121402
(1487076673.331467) can0 4F1#CCFF000000000000
(1487076673.331469) can0 690#4000400000203C00
(1487076673.331469) can0 165#0708800000000A85
(1487076673.332608) can0 2B0#FD060007FC
(1487076673.332610) can0 080#001700009D2F0010
(1487076673.332610) can0 081#40000000000000C0
(1487076673.332610) can0 18F#002C000000720000
(1487076673.332611) can0 260#0500000013A75F02
(1487076673.333691) can0 153#200000FF00FF607E
(1487076673.333692) can0 2A0#02005D806C12A900
(1487076673.333692) can0 316#059D0000002F007F
(1487076673.333692) can0 329#8060810E11320010
(1487076673.334773) can0 545#DF00005F54FE54FE
(1487076673.334774) can0 2C0#0000000000000000
(1487076673.337862) can0 220#F50300000000E60F
(1487076673.338944) can0 164#0008000000000E06
(1487076673.338945) can0 1F1#0000000000000000
(1487076673.340849) can0 165#0708800000000B84
(1487076673.341993) can0 2B0#FD060007ED
(1487076673.341994) can0 316#059D0000002F007F
(1487076673.341994) can0 080#001700009D2F0001
(1487076673.343131) can0 081#40000000000000B1
(1487076673.343132) can0 18F#002C000000720000
(1487076673.343132) can0 260#0500000013A75F11
(1487076673.343133) can0 153#200000FF00FF708E
(1487076673.343133) can0 2A0#A2005D806C12A900
(1487076673.344237) can0 329#8060810E11320010
(1487076673.344238) can0 4B0#0000004000000000
(1487076673.344239) can0 545#DF00005F54FE54FE
(1487076673.344239) can0 2C0#0000000000000000
(1487076673.345423) can0 5F0#0100
(1487076673.347855) can0 220#F50300000000D40F
(1487076673.348939) can0 164#0008000000000F07
(1487076673.350150) can0 4F0#0000B80000121402
(1487076673.351234) can0 4F1#CCFF000000000000
(1487076673.351235) can0 165#0708800000000C83
(1487076673.351235) can0 2B0#FD060007DE
(1487076673.352360) can0 316#059D0000002F007F
(1487076673.352361) can0 080#001700009D2F00F2
(1487076673.352362) can0 081#40000000000000A2
(1487076673.352362) can0 18F#002C000000720000
(1487076673.353470) can0 260#0500000013A75F20
(1487076673.353471) can0 2A0#C2005D806C12A900
(1487076673.353472) can0 153#200000FF00FF809E
(1487076673.353472) can0 329#D760810E11320010
(1487076673.354545) can0 545#DF00005E54FE54FE
(1487076673.354546) can0 2C0#0000000000000000
(1487076673.357860) can0 220#F50300000000C70F
(1487076673.358943) can0 164#0008000000000008
(1487076673.358944) can0 1F1#0000000000000000
(1487076673.360119) can0 165#0708800000000D82
(1487076673.361220) can0 2B0#FD060007CF
(1487076673.362315) can0 316#059D0000002F007F
(1487076673.362316) can0 080#001700009D2F00E3
(1487076673.362317) can0 081#4000000000000093
(1487076673.362323) can0 18F#002C000000720000
(1487076673.363374) can0 260#0500000013A75F3F
(1487076673.363375) can0 2A0#62005D806C12A900
(1487076673.363376) can0 153#200000FF00FF90AE
(1487076673.363376) can0 329#D760810E11320010
(1487076673.363376) can0 4B0#0040004000000000
(1487076673.364524) can0 545#DF00005F54FE54FE
(1487076673.364525) can0 2C0#0000000000000000
(1487076673.367864) can0 220#F50300000000C10F
(1487076673.368942) can0 164#0008000000000109
(1487076673.370005) can0 165#0708800000000E81
(1487076673.370006) can0 2B0#FD06000730
(1487076673.371097) can0 4F0#0000BA0000121402
(1487076673.371099) can0 4F1#CCFF000000000000
(1487076673.372225) can0 316#059D0000002F007F
(1487076673.372226) can0 080#001700009D2F00D4
(1487076673.372226) can0 081#4000000000000084
(1487076673.373295) can0 18F#002C000000720000
(1487076673.373296) can0 260#0500000013A75F02
(1487076673.373297) can0 2A0#02005D806C12A900
(1487076673.373297) can0 153#200000FF00FFA0BE
(1487076673.373297) can0 329#D760810E11320010
(1487076673.374380) can0 545#DF00005F54FE54FE
(1487076673.374381) can0 2C0#0000000000000000
(1487076673.377864) can0 220#F50300000000DA0F
(1487076673.378942) can0 164#000800000000020A
(1487076673.378943) can0 1F1#0000000000000000
(1487076673.379982) can0 165#0708800000000F80
(1487076673.379983) can0 2B0#FD06000721
(1487076673.381649) can0 316#059D0000002F007F
(1487076673.382756) can0 080#001700009D2F00C5
(1487076673.382757) can0 081#4000000000000075
(1487076673.382757) can0 18F#002C000000720000
(1487076673.382758) can0 260#0500000013A75F11
(1487076673.383862) can0 153#200000FF00FFB0CE
(1487076673.383863) can0 2A0#A2005D806C12A900
(1487076673.383864) can0 329#D760810E11320010
(1487076673.383864) can0 4B0#0080004000000000
(1487076673.383865) can0 545#DF00005F54FE54FE
(1487076673.384942) can0 2C0#0000000000000000
(1487076673.384943) can0 0A0#0040000000280000
(1487076673.384944) can0 0A1#8080808066000000
(1487076673.387866) can0 220#F50300000000E00F
(1487076673.388942) can0 164#000800000000030B
(1487076673.388944) can0 165#070880000000008F
(1487076673.388944) can0 2B0#FD06000712
(1487076673.390112) can0 4F0#0000BC0000121402
(1487076673.391185) can0 4F1#CCFF000000000000
(1487076673.392323) can0 316#059D0000002F007F
(1487076673.392324) can0 080#001700009D2F00B6
(1487076673.392325) can0 081#4000000000000066
(1487076673.392326) can0 18F#002C000000720000
(1487076673.393401) can0 260#0500000013A75F20
(1487076673.393402) can0 2A0#C2005D806C12A900
(1487076673.393402) can0 153#200000FF00FFC0DE
(1487076673.393403) can0 329#D760810E11320010
(1487076673.394508) can0 545#DF00005F54FE54FE
(1487076673.394509) can0 5E4#040000
(1487076673.394510) can0 5F0#0100
(1487076673.394510) can0 2C0#0000000000000000
(1487076673.397861) can0 220#F50300000000F90F
(1487076673.398971) can0 164#000800000000040C
(1487076673.398972) can0 165#070880000000018E
(1487076673.398972) can0 1F1#0000000000000000
(1487076673.398973) can0 2B0#FD06000703
(1487076673.401479) can0 316#059D0000002F007F
(1487076673.402568) can0 080#001700009D2F00A7
(1487076673.402569) can0 081#4000000000000057
(1487076673.402569) can0 18F#002C000000720000
(1487076673.402569) can0 260#0500000013A75F3F
(1487076673.403677) can0 2A0#62005D806C12A900
(1487076673.403678) can0 153#200000FF00FFD0EE
(1487076673.403678) can0 329#D760810E11320010
(1487076673.403684) can0 4B0#00C0004000000000
(1487076673.403684) can0 545#DF00005E54FE54FE
(1487076673.404753) can0 2C0#0000000000000000
(1487076673.407829) can0 220#F50300000000E00F
(1487076673.408917) can0 164#000800000000050D
(1487076673.408918) can0 2B0#FD06000774
(1487076673.408918) can0 165#070880000000028D
(1487076673.410050) can0 4F0#0000BE0000121402
(1487076673.411133) can0 4F1#CCFF000000000000
(1487076673.412274) can0 316#059D0000002F007F
(1487076673.412275) can0 080#001700009D2F0098
(1487076673.412275) can0 081#4000000000000048
(1487076673.412275) can0 18F#002C000000720000
(1487076673.413403) can0 260#0500000013A75F02
(1487076673.413404) can0 2A0#02005D806C12A900
(1487076673.413404) can0 153#200000FF00FFE0FE
(1487076673.413405) can0 329#0F60810E11320010
(1487076673.414483) can0 545#DF00005F54FE54FE
(1487076673.414484) can0 2C0#0000000000000000
(1487076673.417512) can0 165#070880000000038C
(1487076673.418562) can0 2B0#FD06000765
(1487076673.418563) can0 220#F50300000000CD0F
(1487076673.418564) can0 164#000800000000060E
(1487076673.418564) can0 1F1#0000000000000000
(1487076673.421658) can0 316#059D0000002F007F
(1487076673.422757) can0 080#001700009D2F0089
(1487076673.422758) can0 081#4000000000000039
(1487076673.422758) can0 18F#002C000000720000
(1487076673.422759) can0 260#0500000013A75F11
(1487076673.423864) can0 153#200000FF00FF001E
(1487076673.423865) can0 2A0#A2005D806C12A900
(1487076673.423866) can0 329#0F60810E11320010
(1487076673.423866) can0 4B0#0000008000000000
(1487076673.423867) can0 545#DF00005F54FE54FE
(1487076673.424919) can0 2C0#0000000000000000
(1487076673.427095) can0 165#070880000000048B
(1487076673.428119) can0 2B0#FD06000756
(1487076673.428120) can0 220#F50300000000C10F
(1487076673.428121) can0 164#000800000000070F
(1487076673.430596) can0 4F0#0000C00000121402
(1487076673.431672) can0 4F1#CCFF000000000000
(1487076673.431673) can0 690#4000400000200000
(1487076673.431673) can0 316#059D0000002F007F
(1487076673.432776) can0 080#001700009D2F007A
(1487076673.432777) can0 081#400000000000002A
(1487076673.432777) can0 18F#002C000000720000
(1487076673.432778) can0 260#0500000013A75F20
(1487076673.433875) can0 2A0#C2005D806C12A900
(1487076673.433877) can0 153#200000FF00FF102E
(1487076673.433877) can0 329#0F60810E11320010
(1487076673.433878) can0 545#DF00005F54FE54FE
(1487076673.434970) can0 2C0#0000000000000000
(1487076673.436664) can0 165#070880000000058A
(1487076673.437799) can0 2B0#FD06000747
(1487076673.438882) can0 220#F50300000000CD0F
(1487076673.438883) can0 164#0008000000000800
(1487076673.438884) can0 1F1#0000000000000000
(1487076673.441464) can0 316#059D0000002F007F
(1487076673.442545) can0 080#001700009D2F006B
(1487076673.442546) can0 081#400000000000001B
(1487076673.442547) can0 18F#002C000000720000
(1487076673.442547) can0 260#0500000013A75F3F
(1487076673.443638) can0 2A0#62005D806C12A900
(1487076673.443639) can0 153#200000FF00FF203E
(1487076673.443639) can0 329#0F60810E11320010
(1487076673.443640) can0 4B0#0040008000000000
(1487076673.443640) can0 545#DF00005F54FE54FE
(1487076673.444733) can0 5F0#0100
(1487076673.444734) can0 2C0#0000000000000000
(1487076673.446159) can0 165#0708800000000689
(1487076673.447233) can0 2B0#FD060007B8
(1487076673.448320) can0 220#F50300000000BB0F
(1487076673.448321) can0 164#0008000000000901
(1487076673.450087) can0 4F0#0000C20000121402
(1487076673.451170) can0 4F1#CCFF000000000000
(1487076673.452257) can0 316#059D0000002F007F
(1487076673.452258) can0 080#001700009D2F005C
(1487076673.452259) can0 081#400000000000000C
(1487076673.452259) can0 18F#002C000000720000
(1487076673.453381) can0 260#0500000013A75F02
(1487076673.453382) can0 2A0#02005D806C12A900
(1487076673.453383) can0 153#200000FF00FF304E
(1487076673.453383) can0 329#0F60810E11320010
(1487076673.453383) can0 545#DF00005E54FE54FE
(1487076673.454465) can0 2C0#0000000000000000
(1487076673.455760) can0 165#0708800000000788
(1487076673.456818) can0 2B0#FD060007A9
(1487076673.457910) can0 220#F50300000000C10F
(1487076673.458983) can0 164#0008000000000A02
(1487076673.458984) can0 1F1#0000000000000000
(1487076673.461611) can0 316#059D0000002F007F
(1487076673.462715) can0 080#001700009D2F004D
(1487076673.462716) can0 081#40000000000000FD
(1487076673.462716) can0 18F#002C000000720000
(1487076673.462717) can0 260#0500000013A75F11
(1487076673.463819) can0 2A0#A2005D806C12A900
(1487076673.463820) can0 153#200000FF00FF405E
(1487076673.463820) can0 329#0F60810E11320010
(1487076673.463820) can0 4B0#0080008000000000
(1487076673.463821) can0 545#DF00005F54FE54FE
(1487076673.464881) can0 2C0#0000000000000000
(1487076673.465966) can0 165#0708800000000887
(1487076673.465967) can0 2B0#FD0600079A
(1487076673.467821) can0 220#F50300000000C70F
(1487076673.468880) can0 164#0008000000000B03
(1487076673.470049) can0 4F0#0000C40000121402
(1487076673.471131) can0 4F1#CCFF000000000000
(1487076673.472239) can0 316#059D0000002F007F
(1487076673.472240) can0 080#001700009D2F003E
(1487076673.472241) can0 081#40000000000000EE
(1487076673.473319) can0 18F#002C000000720000
(1487076673.473320) can0 260#0500000013A75F20
(1487076673.473320) can0 2A0#C2005D806C12A900
(1487076673.473321) can0 153#200000FF00FF506E
(1487076673.473321) can0 329#4F60810E11320010
(1487076673.474423) can0 545#DF00005F54FE54FE
(1487076673.474424) can0 2C0#0000000000000000
(1487076673.475487) can0 165#0708800000000986
(1487076673.475487) can0 2B0#FD0600078B
(1487076673.477818) can0 220#F50300000000DA0F
(1487076673.478911) can0 164#0008000000000C04
(1487076673.478911) can0 1F1#0000000000000000
(1487076673.481424) can0 316#059D0000002F007F
(1487076673.482507) can0 080#001700009D2F002F
(1487076673.482508) can0 081#40000000000000DF
(1487076673.482509) can0 18F#002C000000720000
(1487076673.482509) can0 260#0500000013A75F3F
(1487076673.483636) can0 2A0#62005D806C12A900
(1487076673.483637) can0 153#200000FF00FF607E
(1487076673.483637) can0 329#4F60810E11320010
(1487076673.483638) can0 4B0#00C0008000000000
(1487076673.483638) can0 545#DF00005F54FE54FE
(1487076673.484716) can0 2C0#0000000000000000
(1487076673.484717) can0 165#0708800000000A85
(1487076673.484717) can0 2B0#FD060007FC
(1487076673.485800) can0 0A0#0040000000280000
(1487076673.486861) can0 0A1#8080808066000000
(1487076673.487949) can0 220#F50300000000D40F
(1487076673.489037) can0 164#0008000000000D05
(1487076673.490111) can0 5F0#0100
(1487076673.490111) can0 4F0#0000C60000121402
(1487076673.491172) can0 4F1#CCFF000000000000
(1487076673.492289) can0 316#059D0000002F007F
(1487076673.492289) can0 080#001700009D2F0010
(1487076673.492290) can0 081#40000000000000C0
(1487076673.492290) can0 18F#002C000000720000
(1487076673.493382) can0 260#0500000013A75F02
(1487076673.493383) can0 2A0#02005D806C12A900
(1487076673.493384) can0 153#200000FF00FF708E
(1487076673.493384) can0 329#4F60810E11320010
(1487076673.493384) can0 545#DF00005F54FE54FE
(1487076673.494487) can0 2C0#0000000000000000
(1487076673.494488) can0 5E4#040000
(1487076673.494488) can0 2B0#FD060007ED
(1487076673.494489) can0 165#0708800000000B84
(1487076673.497801) can0 220#F50300000000DA0F
(1487076673.498882) can0 164#0008000000000E06
(1487076673.498883) can0 1F1#0000000000000000
(1487076673.501614) can0 316#059D0000002F007F
(1487076673.502696) can0 080#001700009D2F0001
(1487076673.502697) can0 081#40000000000000B1
(1487076673.502697) can0 18F#002C000000720000
(1487076673.502697) can0 260#0500000013A75F11
(1487076673.503822) can0 153#200000FF00FF809E
(1487076673.503823) can0 2A0#A2005D806C12A900
(1487076673.503823) can0 329#4F60810E11320010
(1487076673.503824) can0 4B0#000000C000000000
(1487076673.503824) can0 165#0708800000000C83
(1487076673.504911) can0 2B0#FF060007FE
(1487076673.504912) can0 2C0#0000000000000000
(1487076673.504912) can0 545#DF00005E54FE54FE
(1487076673.507825) can0 220#F50300000000E60F
(1487076673.508883) can0 164#0008000000000F07
(1487076673.510051) can0 4F0#0000C80000121402
(1487076673.511133) can0 4F1#CCFF000000000000
(1487076673.512239) can0 316#059D0000002F007F
(1487076673.512240) can0 080#001700009D2F00F2
(1487076673.512241) can0 081#40000000000000A2
(1487076673.513363) can0 18F#002C000000720000
(1487076673.513363) can0 260#0500000013A75F20
(1487076673.513364) can0 2A0#C2005D806C12A900
(1487076673.513364) can0 153#200000FF00FF90AE
(1487076673.513364) can0 165#0708800000000D82
(1487076673.514467) can0 2B0#FD060007CF
(1487076673.514468) can0 329#4F60810E11320010
(1487076673.514468) can0 2C0#0000000000000000
(1487076673.514469) can0 545#DF00005F54FE54FE
(1487076673.517801) can0 220#F50300000000DA0F
(1487076673.518883) can0 164#0008000000000008
(1487076673.518884) can0 1F1#0000000000000000
(1487076673.521413) can0 316#059D0000002F007F
(1487076673.522487) can0 080#001700009D2F00E3
(1487076673.522487) can0 081#4000000000000093
(1487076673.522488) can0 18F#002C000000720000
(1487076673.522489) can0 260#0500000013A75F3F
(1487076673.523616) can0 2A0#62005D806C12A900
(1487076673.523616) can0 153#200000FF00FFA0BE
(1487076673.523617) can0 2B0#FD06000730
(1487076673.523617) can0 165#0708800000000E81
(1487076673.523617) can0 329#4F60810E11320010
(1487076673.524695) can0 4B0#004000C000000000
(1487076673.524696) can0 2C0#0000000000000000
(1487076673.524696) can0 545#DF00005E54FE54FE
(1487076673.527820) can0 220#F50300000000C70F
(1487076673.528882) can0 164#0008000000000109
(1487076673.530323) can0 4F0#0000CA0000121402
(1487076673.531426) can0 4F1#CCFF000000000000
(1487076673.531427) can0 690#4000400000200400
(1487076673.531428) can0 316#059D0000002F007F
(1487076673.532508) can0 080#001700009D2F00D4
(1487076673.532509) can0 081#4000000000000084
(1487076673.532509) can0 18F#002C000000720000
(1487076673.532510) can0 165#0708800000000F80
(1487076673.533613) can0 260#0500000013A75F02
(1487076673.533614) can0 153#200000FF00FFB0CE
(1487076673.533614) can0 2A0#02005D806C12A900
(1487076673.533615) can0 2B0#FD06000721
(1487076673.533615) can0 329#8060810E11320010
(1487076673.534696) can0 545#DF00005F54FE54FE
(1487076673.534700) can0 2C0#0000000000000000
(1487076673.537386) can0 5F0#0100
(1487076673.538468) can0 220#F50300000000C70F
(1487076673.538469) can0 164#000800000000020A
(1487076673.538469) can0 1F1#0000000000000000
(1487076673.541675) can0 316#059D0000002F007F
(1487076673.542758) can0 080#001700009D2F00C5
(1487076673.542759) can0 081#4000000000000075
(1487076673.542759) can0 18F#002C000000720000
(1487076673.542760) can0 260#0500000013A75F11
(1487076673.543863) can0 153#200000FF00FFC0DE
(1487076673.543864) can0 2A0#A2005D806C12A900
(1487076673.543864) can0 2B0#FD06000712
(1487076673.543865) can0 165#070880000000008F
(1487076673.543865) can0 329#8060810E11320010
(1487076673.544946) can0 2C0#0000000000000000
(1487076673.544947) can0 4B0#008000C000000000
(1487076673.544947) can0 545#DF00005F54FE54FE
(1487076673.547889) can0 220#F50300000000E60F
(1487076673.548973) can0 164#000800000000030B
(1487076673.550112) can0 4F0#0000CC0000121402
(1487076673.551173) can0 4F1#CCFF000000000000
(1487076673.552304) can0 165#070880000000018E
(1487076673.552305) can0 2B0#FD06000703
(1487076673.552306) can0 316#059D0000002F007F
(1487076673.552307) can0 080#001700009D2F00B6
(1487076673.553400) can0 081#4000000000000066
(1487076673.553401) can0 18F#002C000000720000
(1487076673.553402) can0 260#0500000013A75F20
(1487076673.553402) can0 153#200000FF00FFD0EE
(1487076673.553402) can0 2A0#C2005D806C12A900
(1487076673.554490) can0 329#8060810E11320010
(1487076673.554491) can0 545#DF00005E54FE54FE
(1487076673.554491) can0 2C0#0000000000000000
(1487076673.557882) can0 220#F50300000000E60F
(1487076673.558973) can0 164#000800000000040C
(1487076673.558974) can0 1F1#0000000000000000
(1487076673.560992) can0 165#070880000000028D
(1487076673.562098) can0 2B0#FD06000774
(1487076673.562099) can0 316#059D0000002F007F
(1487076673.562100) can0 080#001700009D2F00A7
(1487076673.562100) can0 081#4000000000000057
(1487076673.563193) can0 18F#002C000000720000
(1487076673.563195) can0 260#0500000013A75F3F
(1487076673.563195) can0 2A0#62005D806C12A900
(1487076673.563195) can0 153#200000FF00FFE0FE
(1487076673.563196) can0 329#8060810E11320010
(1487076673.564283) can0 4B0#0000000000000000
(1487076673.564284) can0 545#DF00005F54FE54FE
(1487076673.564284) can0 2C0#0000000000000000
(1487076673.567814) can0 220#F50300000000E60F
(1487076673.568910) can0 164#000800000000050D
(1487076673.570080) can0 4F0#0000CE0000121402
(1487076673.571164) can0 4F1#CCFF000000000000
(1487076673.571165) can0 165#070880000000038C
(1487076673.571166) can0 2B0#FD06000765
(1487076673.572241) can0 316#059D0000002F007F
(1487076673.572242) can0 080#001700009D2F0098
(1487076673.572242) can0 081#4000000000000048
(1487076673.572243) can0 18F#002C000000720000
(1487076673.573342) can0 260#0500000013A75F02
(1487076673.573343) can0 2A0#02005D806C12A900
(1487076673.573344) can0 153#200000FF00FF001E
(1487076673.573344) can0 329#8060810E11320010
(1487076673.573344) can0 545#DF00005E54FE54FE
(1487076673.574426) can0 2C0#0000000000000000
(1487076673.577828) can0 220#F50300000000CD0F
(1487076673.578911) can0 164#000800000000060E
(1487076673.578912) can0 1F1#0000000000000000
(1487076673.580090) can0 165#070880000000048B
(1487076673.581114) can0 2B0#FF06000776
(1487076673.582209) can0 316#059D0000002F007F
(1487076673.582210) can0 080#001700009D2F0089
(1487076673.582211) can0 081#4000000000000039
(1487076673.583312) can0 18F#002C000000720000
(1487076673.583313) can0 0A0#0040000000280000
(1487076673.583314) can0 0A1#8080808066000000
(1487076673.583314) can0 153#200000FF00FF102E
(1487076673.583314) can0 260#0500000013A75F11
(1487076673.584474) can0 2A0#A2005D806C12A900
(1487076673.584475) can0 329#8060810E11320010
(1487076673.584475) can0 2C0#0000000000000000
(1487076673.584480) can0 4B0#0040000000000000
(1487076673.585553) can0 545#DF00005F54FE54FE
(1487076673.585554) can0 5F0#0100
(1487076673.587829) can0 220#F50300000000DA0F
(1487076673.588916) can0 164#000800000000070F
(1487076673.590012) can0 165#070880000000058A
(1487076673.590013) can0 2B0#FF06000767
(1487076673.591098) can0 4F0#0000D00000121402
(1487076673.591099) can0 4F1#CCFF000000000000
(1487076673.592201) can0 316#059D0000002F007F
(1487076673.592202) can0 080#001700009D2F007A
(1487076673.592202) can0 081#400000000000002A
(1487076673.593300) can0 18F#002C000000720000
(1487076673.593301) can0 260#0500000013A75F20
(1487076673.593302) can0 2A0#C2005D806C12A900
(1487076673.593302) can0 153#200000FF00FF203E
(1487076673.593302) can0 329#D760810E11320010
(1487076673.594384) can0 545#DF00005F54FE54FE
(1487076673.594385) can0 2C0#0000000000000000
(1487076673.594386) can0 5E4#040000
(1487076673.597825) can0 220#F50300000000CD0F
(1487076673.598913) can0 164#0008000000000800
(1487076673.598913) can0 1F1#0000000000000000
(1487076673.599990) can0 165#0708800000000689
(1487076673.599991) can0 2B0#FD060007B8
(1487076673.601430) can0 316#059D0000002F007F
(1487076673.602510) can0 080#001700009D2F006B
(1487076673.602511) can0 081#400000000000001B
(1487076673.602512) can0 18F#002C000000720000
(1487076673.602512) can0 260#0500000013A75F3F
(1487076673.603614) can0 2A0#62005D806C12A900
(1487076673.603615) can0 153#200000FF00FF304E
(1487076673.603615) can0 329#D760810E11320010
(1487076673.603616) can0 4B0#0080000000000000
(1487076673.603616) can0 545#DF00005F54FE54FE
(1487076673.604697) can0 2C0#0000000000000000
(1487076673.607818) can0 220#F50300000000C70F
(1487076673.608927) can0 164#0008000000000901
(1487076673.608928) can0 165#0708800000000788
(1487076673.610009) can0 2B0#FF06000789
(1487076673.611093) can0 4F0#0000D20000121402
(1487076673.611093) can0 4F1#CCFF000000000000
(1487076673.612199) can0 316#059D0000002F007F
(1487076673.612199) can0 080#001700009D2F005C
(1487076673.612200) can0 081#400000000000000C
(1487076673.612201) can0 18F#002C000000720000
(1487076673.613323) can0 260#0500000013A75F02
(1487076673.613324) can0 2A0#02005D806C12A900
(1487076673.613324) can0 153#200000FF00FF405E
(1487076673.613325) can0 329#D760810E11320010
(1487076673.614414) can0 545#DF00005F54FE54FE
(1487076673.614415) can0 2C0#0000000000000000
(1487076673.617845) can0 220#F50300000000C10F
(1487076673.618928) can0 164#0008000000000A02
(1487076673.618929) can0 165#0708800000000887
(1487076673.618929) can0 1F1#0000000000000000
(1487076673.618930) can0 2B0#FD0600079A
(1487076673.621617) can0 316#059D0000002F007F
(1487076673.622698) can0 080#001700009D2F004D
(1487076673.622699) can0 081#40000000000000FD
(1487076673.622699) can0 18F#002C000000720000
(1487076673.622699) can0 260#0500000013A75F11
