(1487076724.324436) can0 220#F50300000000E60F
(1487076724.324437) can0 164#0008000000000800
(1487076724.324438) can0 1F1#0000000000000000
(1487076724.328157) can0 165#0908800000000E8F
(1487076724.329297) can0 153#200000FF00FF506E
(1487076724.329298) can0 2B0#FD06000730
(1487076724.329299) can0 4B0#00C0000000000000
(1487076724.329300) can0 4F0#0000A20000121402
(1487076724.330370) can0 4F1#CCFF000000000000
(1487076724.330371) can0 690#4000400000203400
(1487076724.331477) can0 316#059D0000002F007F
(1487076724.332560) can0 080#001700009D2F005C
(1487076724.332561) can0 081#400000000000000C
(1487076724.332562) can0 18F#002C000000720000
(1487076724.332562) can0 260#0500000014A75F01
(1487076724.332562) can0 2A0#02005D806C12A900
(1487076724.333671) can0 329#0F60810E11320010
(1487076724.333672) can0 545#DF00005F54FE54FE
(1487076724.333673) can0 2C0#0000000000000000
(1487076724.333673) can0 220#F50300000000DA0F
(1487076724.334695) can0 164#0008000000000901
(1487076724.337698) can0 165#0908800000000F8E
(1487076724.338764) can0 2B0#FD06000721
(1487076724.338765) can0 153#200000FF00FF607E
(1487076724.341477) can0 316#059D0000002F007F
(1487076724.342504) can0 080#001700009D2F004D
(1487076724.342505) can0 081#40000000000000FD
(1487076724.342506) can0 18F#002C000000720000
(1487076724.342506) can0 260#0500000014A75F10
(1487076724.343635) can0 2A0#A2005D806C12A900
(1487076724.343636) can0 329#0F60810E11320010
(1487076724.343637) can0 545#DF00005F54FE54FE
(1487076724.343637) can0 220#F50300000000DA0F
(1487076724.343638) can0 164#0008000000000A02
(1487076724.344769) can0 1F1#0000000000000000
(1487076724.344770) can0 2C0#0000000000000000
(1487076724.347292) can0 165#0908800000000081
(1487076724.348376) can0 2B0#FD06000712
(1487076724.348377) can0 153#200000FF00FF708E
(1487076724.349438) can0 4B0#0000004000000000
(1487076724.349439) can0 4F0#0000A40000121402
(1487076724.349440) can0 4F1#CCFF000000000000
(1487076724.351414) can0 316#059D0000002F007F
(1487076724.352490) can0 080#001700009D2F003E
(1487076724.352491) can0 081#40000000000000EE
(1487076724.352491) can0 18F#002C000000720000
(1487076724.352491) can0 260#0500000014A75F2F
(1487076724.353613) can0 2A0#C2005D806C12A900
(1487076724.353614) can0 329#4F60810E11320010
(1487076724.353614) can0 545#DF00005F54FE54FE
(1487076724.353615) can0 220#F50300000000BB0F
(1487076724.353615) can0 164#0008000000000B03
(1487076724.354678) can0 2C0#0000000000000000
(1487076724.356784) can0 165#0908800000000180
(1487076724.357852) can0 2B0#FD06000703
(1487076724.358928) can0 153#200000FF00FF809E
(1487076724.361203) can0 316#059D0000002F007F
(1487076724.362300) can0 080#001700009D2F002F
(1487076724.362301) can0 081#40000000000000DF
(1487076724.362302) can0 18F#002C000000720000
(1487076724.362302) can0 260#0500000014A75F3E
(1487076724.363411) can0 2A0#62005D806C12A900
(1487076724.363412) can0 329#4F60810E11320010
(1487076724.363412) can0 545#DF00005F54FE54FE
(1487076724.363418) can0 2C0#0000000000000000
(1487076724.364486) can0 220#F50300000000DA0F
(1487076724.364487) can0 164#0008000000000C04
(1487076724.364488) can0 1F1#0000000000000000
(1487076724.366427) can0 165#0908800000000283
(1487076724.367517) can0 2B0#FD06000774
(1487076724.368592) can0 153#200000FF00FF90AE
(1487076724.368594) can0 4B0#0040004000000000
(1487076724.369623) can0 4F0#0000A60000121402
(1487076724.369624) can0 4F1#CCFF000000000000
(1487076724.370885) can0 5F0#0100
(1487076724.372013) can0 316#059D0000002F007F
(1487076724.372015) can0 080#001700009D2F0010
(1487076724.372015) can0 081#40000000000000C0
(1487076724.373091) can0 18F#002C000000720000
(1487076724.373092) can0 260#0500000014A75F01
(1487076724.373092) can0 2A0#02005D806C12A900
(1487076724.373092) can0 329#4F60810E11320010
(1487076724.373093) can0 545#DF00005E54FE54FE
(1487076724.374161) can0 2C0#0000000000000000
(1487076724.374162) can0 220#F50300000000DA0F
(1487076724.374162) can0 164#0008000000000D05
(1487076724.376017) can0 165#0908800000000382
(1487076724.377091) can0 2B0#FD06000765
(1487076724.378300) can0 153#200000FF00FFA0BE
(1487076724.381340) can0 316#059D0000002F007F
(1487076724.382468) can0 080#001700009D2F0001
(1487076724.382469) can0 081#40000000000000B1
(1487076724.382469) can0 18F#002C000000720000
(1487076724.382470) can0 260#0500000014A75F10
(1487076724.383539) can0 2A0#A2005D806C12A900
(1487076724.383540) can0 329#4F60810E11320010
(1487076724.383540) can0 0A0#0040000000280000
(1487076724.383541) can0 0A1#8080808066000000
(1487076724.383541) can0 220#F50300000000E60F
(1487076724.384618) can0 164#0008000000000E06
(1487076724.384618) can0 1F1#0000000000000000
(1487076724.384619) can0 2C0#0000000000000000
(1487076724.384619) can0 545#DF00005F54FE54FE
(1487076724.385728) can0 165#0908800000000485
(1487076724.385729) can0 2B0#FD06000756
(1487076724.388245) can0 153#200000FF00FFB0CE
(1487076724.389324) can0 4B0#0080004000000000
(1487076724.389325) can0 4F0#0000A80000121402
(1487076724.389325) can0 4F1#CCFF000000000000
(1487076724.391353) can0 316#059D0000002F007F
(1487076724.392450) can0 080#001700009D2F00F2
(1487076724.392450) can0 081#40000000000000A2
(1487076724.392451) can0 18F#002C000000720000
(1487076724.392451) can0 260#0500000014A75F2F
(1487076724.393553) can0 2A0#C2005D806C12A900
(1487076724.393553) can0 329#4F60810E11320010
(1487076724.393554) can0 545#DF00005F54FE54FE
(1487076724.393554) can0 220#F50300000000E60F
(1487076724.393554) can0 164#0008000000000F07
(1487076724.394636) can0 2C0#0000000000000000
(1487076724.395728) can0 165#0908800000000584
(1487076724.395729) can0 2B0#FD06000747
(1487076724.398237) can0 153#200000FF00FFC0DE
(1487076724.401159) can0 316#059D0000002F007F
(1487076724.402261) can0 080#001700009D2F00E3
(1487076724.402262) can0 081#4000000000000093
(1487076724.402262) can0 18F#002C000000720000
(1487076724.402263) can0 260#0500000014A75F3E
(1487076724.403365) can0 2A0#62005D806C12A900
(1487076724.403366) can0 329#4F60810E11320010
(1487076724.403366) can0 545#DF00005F54FE54FE
(1487076724.403367) can0 2C0#0000000000000000
(1487076724.403367) can0 220#F50300000000E60F
(1487076724.404449) can0 164#0008000000000008
(1487076724.404450) can0 1F1#0000000000000000
(1487076724.405531) can0 165#0908800000000687
(1487076724.405532) can0 2B0#FD060007B8
(1487076724.408243) can0 153#200000FF00FFD0EE
(1487076724.409350) can0 4B0#00C0004000000000
(1487076724.409351) can0 4F0#0000AA0000121402
(1487076724.409351) can0 4F1#CCFF000000000000
(1487076724.409352) can0 5E4#040000
(1487076724.411282) can0 316#059D0000002F007F
(1487076724.412365) can0 080#001700009D2F00D4
(1487076724.412366) can0 081#4000000000000084
(1487076724.412366) can0 18F#002B000000720000
(1487076724.412367) can0 260#0500000014A75F01
(1487076724.413491) can0 2A0#02005D806C12A900
(1487076724.413491) can0 329#8060810E11320010
(1487076724.413492) can0 545#DF00005F54FE54FE
(1487076724.413492) can0 2C0#0000000000000000
(1487076724.413493) can0 220#F50300000000E60F
(1487076724.414573) can0 164#0008000000000109
(1487076724.414573) can0 165#0908800000000786
(1487076724.414574) can0 2B0#FF06000789
(1487076724.418245) can0 153#200000FF00FFE0FE
(1487076724.419322) can0 5F0#0100
(1487076724.421351) can0 316#059D0000002F007F
(1487076724.422448) can0 080#001700009D2F00C5
(1487076724.422448) can0 081#4000000000000075
(1487076724.422449) can0 18F#002B000000720000
(1487076724.422449) can0 260#0500000014A75F10
(1487076724.423554) can0 2A0#A2005D806C12A900
(1487076724.423555) can0 329#8060810E11320010
(1487076724.423556) can0 545#DF00005E54FE54FE
(1487076724.423556) can0 2C0#0000000000000000
(1487076724.423556) can0 220#F50300000000CD0F
(1487076724.424637) can0 164#000800000000020A
(1487076724.424637) can0 1F1#0000000000000000
(1487076724.424638) can0 2B0#FD0600079A
(1487076724.424638) can0 165#0908800000000889
(1487076724.428245) can0 153#200000FF00FF001E
(1487076724.429323) can0 4B0#0000008000000000
(1487076724.429324) can0 4F0#0000AC0000121402
(1487076724.430407) can0 4F1#CCFF000000000000
(1487076724.430408) can0 690#4000400000203800
(1487076724.431512) can0 316#059D0000002F007F
(1487076724.432616) can0 080#001700009D2F00B6
(1487076724.432616) can0 081#4000000000000066
(1487076724.432617) can0 18F#002B000000720000
(1487076724.432617) can0 260#0500000014A75F2F
(1487076724.432618) can0 2A0#C2005D806C12A900
(1487076724.433740) can0 329#8060810E11320010
(1487076724.433741) can0 545#DF00005F54FE54FE
(1487076724.433741) can0 2C0#0000000000000000
(1487076724.433742) can0 165#0908800000000988
(1487076724.433742) can0 220#F50300000200E60F
(1487076724.434823) can0 164#000800000000030B
(1487076724.434823) can0 2B0#FD0600078B
(1487076724.438242) can0 153#200000FF00FF102E
(1487076724.441203) can0 316#059D0000002F007F
(1487076724.442303) can0 080#001700009D2F00A7
(1487076724.442303) can0 081#4000000000000057
(1487076724.442304) can0 18F#002C000000720000
(1487076724.442304) can0 260#0500000014A75F3E
(1487076724.443407) can0 2A0#62005D806C12A900
(1487076724.443408) can0 329#8060810E11320010
(1487076724.443408) can0 165#0908800000000A8B
(1487076724.443408) can0 2B0#FD060007FC
(1487076724.443409) can0 220#F50300000000E60F
(1487076724.444511) can0 164#000800000000040C
(1487076724.444512) can0 1F1#0000000000000000
(1487076724.444512) can0 2C0#0000000000000000
(1487076724.444512) can0 545#DF00005F54FE54FE
(1487076724.448267) can0 153#200000FF00FF203E
(1487076724.449352) can0 4B0#0040008000000000
(1487076724.449353) can0 4F0#0000AE0000121402
(1487076724.449353) can0 4F1#CCFF000000000000
(1487076724.451281) can0 316#059D0000002F007F
(1487076724.452389) can0 080#001700009D2F0098
(1487076724.452393) can0 081#4000000000000048
(1487076724.452393) can0 18F#002C000000720000
(1487076724.452394) can0 260#0500000014A75F01
(1487076724.453477) can0 165#0908800000000B8A
(1487076724.453478) can0 2A0#02005D806C12A900
(1487076724.453479) can0 2B0#FD060007ED
(1487076724.453479) can0 2C0#0000000000000000
(1487076724.453479) can0 220#F50300000000DA0F
(1487076724.454573) can0 164#000800000000050D
(1487076724.454574) can0 329#8060810E11320010
(1487076724.454574) can0 545#DF00005F54FE54FE
(1487076724.458267) can0 153#200000FF00FF304E
(1487076724.461329) can0 316#059D0000002F007F
(1487076724.462430) can0 080#001700009D2F0089
(1487076724.462431) can0 081#4000000000000039
(1487076724.462431) can0 165#0908800000000C8D
(1487076724.462432) can0 18F#002C000000720000
(1487076724.463533) can0 260#0500000014A75F10
(1487076724.463534) can0 2A0#A2005D806C12A900
(1487076724.463535) can0 2B0#FD060007DE
(1487076724.463535) can0 2C0#0000000000000000
(1487076724.463535) can0 220#F50300000000DA0F
(1487076724.464617) can0 164#000800000000060E
(1487076724.464617) can0 1F1#0000000000000000
(1487076724.464618) can0 329#8060810E11320010
(1487076724.464618) can0 545#DF00005F54FE54FE
(1487076724.466827) can0 5F0#0100
(1487076724.468265) can0 153#200000FF00FF405E
(1487076724.469352) can0 4B0#0080008000000000
(1487076724.469353) can0 4F0#0000B00000121402
(1487076724.469354) can0 4F1#CCFF000000000000
(1487076724.471389) can0 316#059D0000002F007F
(1487076724.472479) can0 080#001700009D2F007A
(1487076724.472480) can0 081#400000000000002A
(1487076724.472480) can0 18F#002C000000720000
(1487076724.472481) can0 260#0500000014A75F2F
(1487076724.473603) can0 2A0#C2005D806C12A900
(1487076724.473604) can0 2B0#FD060007CF
(1487076724.473604) can0 165#0908800000000D8C
(1487076724.473605) can0 220#F50300000000CD0F
(1487076724.473605) can0 164#000800000000070F
(1487076724.474677) can0 2C0#0000000000000000
(1487076724.474678) can0 329#D760810E11320010
(1487076724.474678) can0 545#DF00005E54FE54FE
(1487076724.478267) can0 153#200000FF00FF506E
(1487076724.481104) can0 165#0908800000000E8F
(1487076724.482198) can0 260#0500000014A75F3E
(1487076724.482199) can0 18F#002C000000720000
(1487076724.482200) can0 080#001700009D2F006B
(1487076724.482200) can0 081#400000000000001B
(1487076724.483282) can0 2A0#62005D806C12A900
(1487076724.483283) can0 2B0#FD06000730
(1487076724.483283) can0 316#059D0000002F007F
(1487076724.483284) can0 329#D760810E11320010
(1487076724.483284) can0 2C0#0000000000000000
(1487076724.484428) can0 220#F50300000000CD0F
(1487076724.484429) can0 164#0008000000000800
(1487076724.484429) can0 0A0#0040000000280000
(1487076724.484430) can0 0A1#8080808066000000
(1487076724.485513) can0 1F1#0000000000000000
(1487076724.485513) can0 545#DF00005F54FE54FE
(1487076724.488262) can0 153#200000FF00FF607E
(1487076724.489353) can0 4B0#00C0008000000000
(1487076724.489354) can0 4F0#0000B20000121402
(1487076724.489354) can0 4F1#CCFF000000000000
(1487076724.490657) can0 165#0908800000000F8E
(1487076724.491764) can0 2B0#FD06000721
(1487076724.491764) can0 316#059D0000002F007F
(1487076724.491765) can0 080#001700009D2F005C
(1487076724.491766) can0 081#400000000000000C
(1487076724.492866) can0 18F#002B000000720000
(1487076724.492866) can0 260#0500000014A75F01
(1487076724.492867) can0 2A0#02005D806C12A900
(1487076724.492870) can0 329#D760810E11320010
(1487076724.493979) can0 545#DF00005E54FE54FE
(1487076724.493980) can0 2C0#0000000000000000
(1487076724.493980) can0 220#F50300000000E60F
(1487076724.493980) can0 164#0008000000000901
(1487076724.498264) can0 153#200000FF00FF708E
(1487076724.500245) can0 165#0908800000000081
(1487076724.501325) can0 2B0#FD06000712
(1487076724.501326) can0 316#059D0000002F007F
(1487076724.502409) can0 080#001700009D2F004D
(1487076724.502410) can0 081#40000000000000FD
(1487076724.502410) can0 18F#002C000000720000
(1487076724.502410) can0 260#0500000014A75F10
(1487076724.503535) can0 2A0#A2005D806C12A900
(1487076724.503536) can0 329#D760810E11320010
(1487076724.503536) can0 545#DF00005F54FE54FE
(1487076724.503537) can0 2C0#0000000000000000
(1487076724.503537) can0 220#F50300000000F30F
(1487076724.504617) can0 164#0008000000000A02
(1487076724.504618) can0 1F1#0000000000000000
(1487076724.508266) can0 153#200000FF00FF809E
(1487076724.509353) can0 4B0#000000C000000000
(1487076724.509354) can0 4F0#0000B40000121402
(1487076724.509354) can0 4F1#CCFF000000000000
(1487076724.510427) can0 5E4#040000
(1487076724.510428) can0 165#0908800000000180
(1487076724.510428) can0 2B0#FF06000723
(1487076724.511513) can0 316#059D0000002F007F
(1487076724.512617) can0 080#001700009D2F003E
(1487076724.512617) can0 081#40000000000000EE
(1487076724.512618) can0 18F#002C000000720000
(1487076724.512618) can0 260#0500000014A75F2F
(1487076724.512618) can0 2A0#C2005D806C12A900
(1487076724.513728) can0 329#D760810E11320010
(1487076724.513729) can0 545#DF00005F54FE54FE
(1487076724.513729) can0 220#F50300000000DA0F
(1487076724.513729) can0 164#0008000000000B03
(1487076724.514824) can0 2C0#0000000000000000
(1487076724.514824) can0 5F0#0100
(1487076724.518245) can0 153#200000FF00FF90AE
(1487076724.519350) can0 165#0908800000000283
(1487076724.520430) can0 2B0#FD06000774
(1487076724.521512) can0 316#059D0000002F007F
(1487076724.521513) can0 080#001700009D2F002F
(1487076724.522616) can0 081#40000000000000DF
(1487076724.522617) can0 18F#002B000000720000
(1487076724.522617) can0 260#0500000014A75F3E
(1487076724.522618) can0 2A0#62005D806C12A900
(1487076724.522618) can0 329#D760810E11320010
(1487076724.523730) can0 545#DF00005E54FE54FE
(1487076724.523731) can0 2C0#0000000000000000
(1487076724.523731) can0 220#F50300000000C10F
(1487076724.523732) can0 164#0008000000000C04
(1487076724.524783) can0 1F1#0000000000000000
(1487076724.528267) can0 153#200000FF00FFA0BE
(1487076724.529366) can0 4B0#004000C000000000
(1487076724.529366) can0 165#0908800000000382
(1487076724.529367) can0 2B0#FD06000765
(1487076724.529367) can0 4F0#0000B60000121402
(1487076724.530450) can0 4F1#CCFF000000000000
(1487076724.530450) can0 690#4000400000203C00
(1487076724.531512) can0 316#059D0000002F007F
(1487076724.531512) can0 080#001700009D2F0010
(1487076724.532638) can0 081#40000000000000C0
(1487076724.532639) can0 18F#002B000000720000
(1487076724.532639) can0 260#0500000014A75F01
(1487076724.532639) can0 2A0#02005D806C12A900
(1487076724.532640) can0 329#0F60810E11320010
(1487076724.533742) can0 545#DF00005F54FE54FE
(1487076724.533743) can0 2C0#0000000000000000
(1487076724.533743) can0 220#F50300000000C10F
(1487076724.533744) can0 164#0008000000000D05
(1487076724.538244) can0 153#200000FF00FFB0CE
(1487076724.539325) can0 165#0908800000000485
(1487076724.539326) can0 2B0#FD06000756
(1487076724.541413) can0 316#059D0000002F007F
(1487076724.542491) can0 080#001700009D2F0001
(1487076724.542492) can0 081#40000000000000B1
(1487076724.542493) can0 18F#002C000000720000
(1487076724.542493) can0 260#0500000014A75F10
(1487076724.543616) can0 2A0#A2005D806C12A900
(1487076724.543617) can0 329#0F60810E11320010
(1487076724.543617) can0 545#DF00005E54FE54FE
(1487076724.543618) can0 220#F50300000000DA0F
(1487076724.543618) can0 164#0008000000000E06
(1487076724.544700) can0 1F1#0000000000000000
(1487076724.544701) can0 2C0#0000000000000000
(1487076724.548057) can0 165#0908800000000584
(1487076724.549159) can0 153#200000FF00FFC0DE
(1487076724.549160) can0 2B0#FD06000747
(1487076724.549160) can0 4B0#008000C000000000
(1487076724.549160) can0 4F0#0000B80000121402
(1487076724.550242) can0 4F1#CCFF000000000000
(1487076724.551367) can0 316#059D0000002F007F
(1487076724.552450) can0 080#001700009D2F00F2
(1487076724.552451) can0 081#40000000000000A2
(1487076724.552451) can0 18F#002B000000720000
(1487076724.552451) can0 260#0500000014A75F2F
(1487076724.553556) can0 2A0#C2005D806C12A900
(1487076724.553557) can0 329#0F60810E11320010
(1487076724.553557) can0 545#DF00005F54FE54FE
(1487076724.553558) can0 220#F50300000000DA0F
(1487076724.553558) can0 164#0008000000000F07
(1487076724.554638) can0 2C0#0000000000000000
(1487076724.557681) can0 165#0908800000000687
(1487076724.558766) can0 2B0#FD060007B8
(1487076724.558767) can0 153#200000FF00FFD0EE
(1487076724.561266) can0 316#059D0000002F007F
(1487076724.562368) can0 080#001700009D2F00E3
(1487076724.562369) can0 081#4000000000000093
(1487076724.562369) can0 18F#002C000000720000
(1487076724.562370) can0 260#0500000014A75F3E
(1487076724.563471) can0 2A0#62005D806C12A900
(1487076724.563472) can0 329#0F60810E11320010
(1487076724.563473) can0 545#DF00005F54FE54FE
(1487076724.563473) can0 5F0#0100
(1487076724.563474) can0 2C0#0000000000000000
(1487076724.564555) can0 220#F50300000000AE0F
(1487076724.564556) can0 164#0008000000000008
(1487076724.564556) can0 1F1#0000000000000000
(1487076724.567165) can0 165#0908800000000786
(1487076724.568251) can0 2B0#FF06000789
(1487076724.569368) can0 153#200000FF00FFE0FE
(1487076724.569369) can0 4B0#0000000000000000
(1487076724.569370) can0 4F0#0000BA0000121402
(1487076724.569370) can0 4F1#CCFF000000000000
(1487076724.571347) can0 316#059D0000002F007F
(1487076724.572433) can0 080#001700009D2F00D4
(1487076724.572434) can0 081#4000000000000084
(1487076724.572434) can0 18F#002B000000720000
(1487076724.572435) can0 260#0500000014A75F01
(1487076724.573539) can0 2A0#02005D806C12A900
(1487076724.573541) can0 329#0F60810E11320010
(1487076724.573541) can0 545#DF00005F54FE54FE
(1487076724.573541) can0 2C0#0000000000000000
(1487076724.573542) can0 220#F50300000200C70F
(1487076724.574614) can0 164#0008000000000109
(1487076724.576831) can0 165#0908800000000889
(1487076724.577892) can0 2B0#FF060007BA
(1487076724.578968) can0 153#200000FF00FF001E
(1487076724.581387) can0 316#059D0000002F007F
(1487076724.582473) can0 080#001700009D2F00C5
(1487076724.582474) can0 081#4000000000000075
(1487076724.582475) can0 18F#002B000000720000
(1487076724.582475) can0 260#0500000014A75F10
(1487076724.583528) can0 2A0#A2005D806C12A900
(1487076724.583534) can0 329#0F60810E11320010
(1487076724.583535) can0 545#DF00005F54FE54FE
(1487076724.583535) can0 2C0#0000000000000000
(1487076724.583536) can0 220#F50300000000E60F
(1487076724.584624) can0 164#000800000000020A
(1487076724.584626) can0 1F1#0000000000000000
(1487076724.585704) can0 0A0#0040000000280000
(1487076724.585705) can0 0A1#8080808066000000
(1487076724.586786) can0 165#0908800000000988
(1487076724.586787) can0 2B0#FD0600078B
(1487076724.588250) can0 153#200000FF00FF102E
(1487076724.589359) can0 4B0#0040000000000000
(1487076724.589360) can0 4F0#0000BC0000121402
(1487076724.589361) can0 4F1#CCFF000000000000
(1487076724.591369) can0 316#059D0000002F007F
(1487076724.592479) can0 080#001700009D2F00B6
(1487076724.592480) can0 081#4000000000000066
(1487076724.592480) can0 18F#002C000000720000
(1487076724.592481) can0 260#0500000014A75F2F
(1487076724.593576) can0 2A0#C2005D806C12A900
(1487076724.593577) can0 329#4F60810E11320010
(1487076724.593577) can0 545#DF00005E54FE54FE
(1487076724.593577) can0 220#F50300000000E60F
(1487076724.593578) can0 164#000800000000030B
(1487076724.594659) can0 2C0#0000000000000000
(1487076724.595913) can0 165#0908800000000A8B
(1487076724.596993) can0 2B0#FD060007FC
(1487076724.598265) can0 153#200000FF00FF203E
(1487076724.601141) can0 316#059D0000002F007F
(1487076724.602229) can0 080#001700009D2F00A7
(1487076724.602230) can0 081#4000000000000057
(1487076724.602230) can0 18F#002C000000720000
(1487076724.602231) can0 260#0500000014A75F3E
(1487076724.603356) can0 2A0#62005D806C12A900
(1487076724.603356) can0 329#4F60810E11320010
(1487076724.603357) can0 545#DF00005F54FE54FE
(1487076724.603357) can0 2C0#0000000000000000
(1487076724.603358) can0 220#F50300000000E60F
(1487076724.604430) can0 164#000800000000040C
(1487076724.604431) can0 1F1#0000000000000000
(1487076724.605513) can0 165#0908800000000B8A
(1487076724.606604) can0 2B0#FD060007ED
(1487076724.608271) can0 153#200000FF00FF304E
(1487076724.609354) can0 4B0#0080000000000000
(1487076724.609355) can0 4F0#0000BE0000121402
(1487076724.609355) can0 4F1#CCFF000000000000
(1487076724.610428) can0 5E4#040000
(1487076724.611536) can0 5F0#0100
(1487076724.611537) can0 316#059D0000002F007F
(1487076724.611537) can0 080#001700009D2F0098
(1487076724.612618) can0 081#4000000000000048
(1487076724.612618) can0 18F#002B000000720000
(1487076724.612619) can0 260#0500000014A75F01
(1487076724.612619) can0 2A0#02005D806C12A900
(1487076724.613730) can0 329#4F60810E11320010
(1487076724.613731) can0 545#DF00005F54FE54FE
(1487076724.613731) can0 2C0#0000000000000000
(1487076724.613732) can0 220#F50300000000DA0F
(1487076724.613732) can0 164#000800000000050D
(1487076724.615055) can0 165#0908800000000C8D
(1487076724.616117) can0 2B0#FD060007DE
(1487076724.618288) can0 153#200000FF00FF405E
(1487076724.621328) can0 316#059D0000002F007F
(1487076724.622410) can0 080#001700009D2F0089
(1487076724.622411) can0 081#4000000000000039
(1487076724.622411) can0 18F#002B000000720000
(1487076724.622412) can0 260#0500000014A75F10
(1487076724.623536) can0 2A0#A2005D806C12A900
(1487076724.623536) can0 329#4F60810E11320010
(1487076724.623537) can0 545#DF00005F54FE54FE
(1487076724.623537) can0 2C0#0000000000000000
(1487076724.623537) can0 220#F50300000000DA0F
(1487076724.624619) can0 164#000800000000060E
(1487076724.624622) can0 1F1#0000000000000000
(1487076724.624623) can0 165#0908800000000D8C
(1487076724.625701) can0 2B0#FD060007CF
(1487076724.628266) can0 153#200000FF00FF506E
(1487076724.629368) can0 4B0#00C0000000000000
(1487076724.629369) can0 4F0#0000C00000121402
(1487076724.630452) can0 4F1#CCFF000000000000
(1487076724.630453) can0 690#4000400000200000
(1487076724.631557) can0 316#059D0000002F007F
(1487076724.632661) can0 080#001700009D2F007A
(1487076724.632661) can0 081#400000000000002A
(1487076724.632662) can0 18F#002C000000720000
(1487076724.632662) can0 260#0500000014A75F2F
(1487076724.632663) can0 2A0#C2005D806C12A900
(1487076724.633785) can0 329#4F60810E11320010
(1487076724.633786) can0 545#DF00005F54FE54FE
(1487076724.633786) can0 2C0#0000000000000000
(1487076724.633787) can0 220#F50300000000E00F
(1487076724.633787) can0 164#000800000000070F
(1487076724.634869) can0 165#0908800000000E8F
(1487076724.634869) can0 2B0#FD06000730
(1487076724.638286) can0 153#200000FF00FF607E
(1487076724.641250) can0 316#059D0000002F007F
(1487076724.642326) can0 080#001700009D2F006B
(1487076724.642326) can0 081#400000000000001B
(1487076724.642327) can0 18F#002C000000720000
(1487076724.642327) can0 260#0500000014A75F3E
(1487076724.643452) can0 2A0#62005D806C12A900
(1487076724.643453) can0 329#4F60810E11320010
(1487076724.643453) can0 545#DF00005E54FE54FE
(1487076724.643454) can0 2C0#0000000000000000
(1487076724.643454) can0 220#F50300000000CD0F
(1487076724.644536) can0 164#0008000000000800
(1487076724.644537) can0 165#0908800000000F8E
(1487076724.644537) can0 1F1#0000000000000000
(1487076724.644538) can0 2B0#FD06000721
(1487076724.648270) can0 153#200000FF00FF708E
(1487076724.649358) can0 4B0#0000004000000000
(1487076724.649358) can0 4F0#0000C20000121402
(1487076724.649359) can0 4F1#CCFF000000000000
(1487076724.651263) can0 316#059D0000002F007F
(1487076724.652371) can0 080#001700009D2F005C
(1487076724.652372) can0 081#400000000000000C
(1487076724.652373) can0 18F#002C000000720000
(1487076724.652373) can0 260#0500000014A75F01
(1487076724.653480) can0 2A0#02005D806C12A900
(1487076724.653481) can0 329#8060810E11320010
(1487076724.653481) can0 545#DF00005F54FE54FE
(1487076724.653482) can0 2C0#0000000000000000
(1487076724.653482) can0 165#0908800000000081
(1487076724.654554) can0 220#F50300000000E60F
(1487076724.654555) can0 164#0008000000000901
(1487076724.654555) can0 2B0#FD06000712
(1487076724.658291) can0 153#200000FF00FF809E
(1487076724.659356) can0 5F0#0100
(1487076724.661329) can0 316#059D0000002F007F
(1487076724.662411) can0 080#001700009D2F004D
(1487076724.662412) can0 081#40000000000000FD
(1487076724.662412) can0 18F#002C000000720000
(1487076724.662412) can0 260#0500000014A75F10
(1487076724.663516) can0 2A0#A2005D806C12A900
(1487076724.663517) can0 329#8060810E11320010
(1487076724.663517) can0 165#0908800000000180
(1487076724.663518) can0 2B0#FF06000723
(1487076724.663518) can0 220#F50300000000DA0F
(1487076724.664584) can0 164#0008000000000A02
(1487076724.664585) can0 1F1#0000000000000000
(1487076724.664585) can0 2C0#0000000000000000
(1487076724.664589) can0 545#DF00005E54FE54FE
(1487076724.668269) can0 153#200000FF00FF90AE
(1487076724.669369) can0 4B0#0040004000000000
(1487076724.669370) can0 4F0#0000C40000121402
(1487076724.669370) can0 4F1#CCFF000000000000
(1487076724.671413) can0 316#059D0000002F007F
(1487076724.672494) can0 080#001700009D2F003E
(1487076724.672494) can0 081#40000000000000EE
(1487076724.672495) can0 18F#002C000000720000
(1487076724.672498) can0 260#0500000014A75F2F
(1487076724.673606) can0 165#0908800000000283
(1487076724.673607) can0 2A0#C2005D806C12A900
(1487076724.673607) can0 2B0#FD06000774
(1487076724.673608) can0 2C0#0000000000000000
(1487076724.673608) can0 220#F50300000000DA0F
(1487076724.674680) can0 164#0008000000000B03
(1487076724.674680) can0 329#8060810E11320010
(1487076724.674681) can0 545#DF00005F54FE54FE
(1487076724.678290) can0 153#200000FF00FFA0BE
(1487076724.681141) can0 316#059D0000002F007F
(1487076724.682243) can0 080#001700009D2F002F
(1487076724.682244) can0 081#40000000000000DF
(1487076724.682244) can0 18F#002C000000720000
(1487076724.682245) can0 165#0908800000000382
(1487076724.683356) can0 260#0500000014A75F3E
(1487076724.683357) can0 2A0#62005D806C12A900
(1487076724.683357) can0 2B0#FD06000765
(1487076724.683358) can0 329#8060810E11320010
(1487076724.683358) can0 2C0#0000000000000000
(1487076724.684430) can0 220#F50300000000ED0F
(1487076724.684431) can0 164#0008000000000C04
(1487076724.684431) can0 1F1#0000000000000000
(1487076724.684431) can0 545#DF00005F54FE54FE
(1487076724.686055) can0 0A0#0040000000280000
(1487076724.687140) can0 0A1#8080808066000000
(1487076724.688264) can0 153#200000FF00FFB0CE
(1487076724.689369) can0 4B0#0080004000000000
(1487076724.689370) can0 4F0#0000C60000121402
(1487076724.689370) can0 4F1#CCFF000000000000
(1487076724.691266) can0 316#059D0000002F007F
(1487076724.692359) can0 080#001700009D2F0010
(1487076724.692359) can0 081#40000000000000C0
(1487076724.692360) can0 18F#002B000000720000
(1487076724.692360) can0 260#0500000014A75F01
(1487076724.693450) can0 2A0#02005D806C12A900
(1487076724.693451) can0 2B0#FD06000756
(1487076724.693452) can0 165#0908800000000485
(1487076724.693452) can0 2C0#0000000000000000
(1487076724.693452) can0 220#F50300000000ED0F
(1487076724.694536) can0 164#0008000000000D05
(1487076724.694537) can0 329#8060810E11320010
(1487076724.694537) can0 545#DF00005E54FE54FE
(1487076724.698290) can0 153#200000FF00FFC0DE
(1487076724.701080) can0 165#0908800000000584
(1487076724.702203) can0 2B0#FD06000747
(1487076724.702204) can0 316#059D0000002F007F
(1487076724.702204) can0 18F#002B000000720000
(1487076724.702205) can0 080#001700009D2F0001
(1487076724.703307) can0 081#40000000000000B1
(1487076724.703307) can0 260#0500000014A75F10
(1487076724.703308) can0 2A0#A2005D806C12A900
(1487076724.703308) can0 329#8060810E11320010
(1487076724.703309) can0 2C0#0000000000000000
(1487076724.704389) can0 220#F50300000000ED0F
(1487076724.704389) can0 164#0008000000000E06
(1487076724.704390) can0 1F1#0000000000000000
(1487076724.704390) can0 545#DF00005F54FE54FE
(1487076724.706827) can0 5F0#0100
(1487076724.708291) can0 153#200000FF00FFD0EE
(1487076724.709397) can0 4B0#00C0004000000000
(1487076724.709398) can0 4F0#0000C80000121402
(1487076724.709398) can0 4F1#CCFF000000000000
(1487076724.710543) can0 5E4#040000
(1487076724.711669) can0 165#0908800000000687
(1487076724.711670) can0 2B0#FD060007B8
(1487076724.711670) can0 316#059D0000002F007F
(1487076724.711671) can0 080#001700009D2F00F2
(1487076724.712742) can0 081#40000000000000A2
(1487076724.712743) can0 18F#002C000000720000
(1487076724.712743) can0 260#0500000014A75F2F
(1487076724.712744) can0 2A0#C2005D806C12A900
(1487076724.713857) can0 329#D760810E11320010
(1487076724.713863) can0 545#DF00005E54FE54FE
(1487076724.713863) can0 2C0#0000000000000000
(1487076724.713864) can0 220#F50300000000C70F
(1487076724.713864) can0 164#0008000000000F07
(1487076724.718355) can0 153#200000FF00FFE0FE
(1487076724.720268) can0 165#0908800000000786
(1487076724.721348) can0 2B0#FF06000789
(1487076724.721349) can0 316#059D0000002F007F
(1487076724.722473) can0 080#001700009D2F00E3
(1487076724.722475) can0 081#4000000000000093
(1487076724.722475) can0 18F#002B000000720000
(1487076724.722476) can0 260#0500000014A75F3E
(1487076724.722476) can0 2A0#62005D806C12A900
(1487076724.723579) can0 329#D760810E11320010
(1487076724.723581) can0 545#DF00005F54FE54FE
(1487076724.723581) can0 2C0#0000000000000000
(1487076724.723581) can0 220#F50300000000C70F
(1487076724.724671) can0 164#0008000000000008
(1487076724.724672) can0 1F1#0000000000000000
(1487076724.728350) can0 153#200000FF00FF001E
(1487076724.729419) can0 4B0#0000008000000000
(1487076724.729420) can0 4F0#0000CA0000121402
(1487076724.730494) can0 4F1#CCFF000000000000
(1487076724.730495) can0 690#4000400000200400
(1487076724.730496) can0 165#0908800000000889
(1487076724.730496) can0 2B0#FD0600079A
(1487076724.731599) can0 316#059D0000002F007F
(1487076724.731600) can0 080#001700009D2F00D4
(1487076724.732726) can0 081#4000000000000084
(1487076724.732727) can0 18F#002C000000720000
(1487076724.732727) can0 260#0500000014A75F01
(1487076724.732727) can0 2A0#02005D806C12A900
(1487076724.732728) can0 329#D760810E11320010
(1487076724.733807) can0 545#DF00005F54FE54FE
(1487076724.733808) can0 2C0#0000000000000000
(1487076724.733808) can0 220#F50300000000E00F
(1487076724.733809) can0 164#0008000000000109
(1487076724.738350) can0 153#200000FF00FF102E
(1487076724.739417) can0 165#0908800000000988
(1487076724.740492) can0 2B0#FD0600078B
(1487076724.741557) can0 316#059D0000002F007F
(1487076724.742645) can0 080#001700009D2F00C5
(1487076724.742646) can0 081#4000000000000075
(1487076724.742646) can0 18F#002C000000720000
(1487076724.742647) can0 260#0500000014A75F10
(1487076724.742647) can0 2A0#A2005D806C12A900
(1487076724.743794) can0 329#D760810E11320010
(1487076724.743795) can0 2C0#0000000000000000
(1487076724.743795) can0 220#F50300000000E00F
(1487076724.743796) can0 164#000800000000020A
(1487076724.744869) can0 1F1#0000000000000000
(1487076724.744870) can0 545#DF00005E54FE54FE
(1487076724.748354) can0 153#200000FF00FF203E
(1487076724.749415) can0 4B0#0040008000000000
(1487076724.749416) can0 165#0908800000000A8B
(1487076724.749417) can0 2B0#FD060007FC
(1487076724.749417) can0 4F0#0000CC0000121402
(1487076724.750518) can0 4F1#CCFF000000000000
(1487076724.751619) can0 316#059D0000002F007F
(1487076724.752702) can0 080#001700009D2F00B6
(1487076724.752703) can0 081#4000000000000066
(1487076724.752704) can0 18F#002C000000720000
(1487076724.752704) can0 260#0500000014A75F2F
(1487076724.752704) can0 2A0#C2005D806C12A900
(1487076724.753827) can0 329#D760810E11320010
(1487076724.753828) can0 545#DF00005F54FE54FE
(1487076724.753828) can0 2C0#0000000000000000
(1487076724.753829) can0 220#F50300000000E60F
(1487076724.754930) can0 164#000800000000030B
(1487076724.754932) can0 5F0#0100
(1487076724.758354) can0 153#200000FF00FF304E
(1487076724.759432) can0 165#0908800000000B8A
(1487076724.759433) can0 2B0#FD060007ED
(1487076724.761226) can0 316#059D0000002F007F
(1487076724.762292) can0 080#001700009D2F00A7
(1487076724.762293) can0 081#4000000000000057
(1487076724.762294) can0 18F#002C000000720000
(1487076724.762294) can0 260#0500000014A75F3E
(1487076724.763432) can0 2A0#62005D806C12A900
(1487076724.763434) can0 329#D760810E11320010
(1487076724.763434) can0 545#DF00005E54FE54FE
(1487076724.763434) can0 2C0#0000000000000000
(1487076724.763435) can0 220#F50300000000E60F
(1487076724.764515) can0 164#000800000000040C
(1487076724.764516) can0 1F1#0000000000000000
(1487076724.768105) can0 165#0908800000000C8D
(1487076724.769222) can0 2B0#FD060007DE
(1487076724.769223) can0 153#200000FF00FF405E
(1487076724.769223) can0 4B0#0080008000000000
(1487076724.769223) can0 4F0#0000CE0000121402
(1487076724.770275) can0 4F1#CCFF000000000000
(1487076724.771368) can0 316#059D0000002F007F
(1487076724.772473) can0 080#001700009D2F0098
(1487076724.772474) can0 081#4000000000000048
(1487076724.772474) can0 18F#002C000000720000
(1487076724.772475) can0 260#0500000014A75F01
(1487076724.773578) can0 2A0#02005D806C12A900
(1487076724.773579) can0 329#0F60810E11320010
(1487076724.773579) can0 545#DF00005F54FE54FE
(1487076724.773579) can0 2C0#0000000000000000
(1487076724.773580) can0 220#F50300000000E00F
(1487076724.774667) can0 164#000800000000050D
(1487076724.777673) can0 165#0908800000000D8C
(1487076724.778741) can0 2B0#FD060007CF
(1487076724.778742) can0 153#200000FF00FF506E
(1487076724.781423) can0 316#059D0000002F007F
(1487076724.782494) can0 080#001700009D2F0089
(1487076724.782495) can0 081#4000000000000039
(1487076724.782496) can0 18F#002C000000720000
(1487076724.782497) can0 0A0#0040000000280000
(1487076724.783563) can0 0A1#8080808066000000
(1487076724.783564) can0 260#0500000014A75F10
(1487076724.783564) can0 2A0#A2005D806C12A900
(1487076724.783565) can0 220#F50300000000E00F
(1487076724.783565) can0 164#000800000000060E
(1487076724.784647) can0 1F1#0000000000000000
(1487076724.784649) can0 2C0#0000000000000000
(1487076724.784649) can0 329#0F60810E11320010
(1487076724.784650) can0 545#DF00005F54FE54FE
(1487076724.787184) can0 165#0908800000000E8F
(1487076724.788273) can0 2B0#FD06000730
(1487076724.789376) can0 153#200000FF00FF607E
(1487076724.789377) can0 4B0#00C0008000000000
(1487076724.789378) can0 4F0#0000D00000121402
(1487076724.789378) can0 4F1#CCFF000000000000
(1487076724.791374) can0 316#059D0000002F007F
(1487076724.792431) can0 080#001700009D2F007A
(1487076724.792433) can0 081#400000000000002A
(1487076724.792433) can0 18F#002C000000720000
(1487076724.792434) can0 260#0500000014A75F2F
(1487076724.793559) can0 2A0#C2005D806C12A900
(1487076724.793559) can0 329#0F60810E11320010
(1487076724.793560) can0 545#DF00005E54FE54FE
(1487076724.793560) can0 2C0#0000000000000000
(1487076724.793561) can0 220#F50300000000E60F
(1487076724.794644) can0 164#000800000000070F
(1487076724.796750) can0 165#0908800000000F8E
(1487076724.797830) can0 2B0#FD06000721
(1487076724.798912) can0 153#200000FF00FF708E
(1487076724.801168) can0 316#059D0000002F007F
(1487076724.802267) can0 080#001700009D2F006B
(1487076724.802267) can0 081#400000000000001B
(1487076724.802268) can0 18F#002C000000720000
(1487076724.802268) can0 260#0500000014A75F3E
(1487076724.803372) can0 2A0#62005D806C12A900
(1487076724.803372) can0 329#0F60810E11320010
(1487076724.803373) can0 545#DF00005F54FE54FE
(1487076724.803373) can0 2C0#0000000000000000
(1487076724.803373) can0 220#F50300000000E00F
(1487076724.804456) can0 164#0008000000000800
(1487076724.804460) can0 1F1#0000000000000000
(1487076724.804460) can0 5F0#0100
(1487076724.806358) can0 165#0908800000000081
(1487076724.807432) can0 2B0#FF06000732
(1487076724.808537) can0 153#200000FF00FF809E
(1487076724.808538) can0 4B0#000000C000000000
(1487076724.809619) can0 4F0#0000D20000121402
(1487076724.809620) can0 4F1#CCFF000000000000
(1487076724.810891) can0 5E4#040000
(1487076724.812018) can0 316#059D0000002F007F
(1487076724.812019) can0 080#001700009D2F005C
(1487076724.812019) can0 081#400000000000000C
(1487076724.812020) can0 18F#002C000000720000
(1487076724.813122) can0 260#0500000014A75F01
(1487076724.813123) can0 2A0#02005D806C12A900
(1487076724.813123) can0 329#0F60810E11320010
(1487076724.813123) can0 545#DF00005E54FE54FE
(1487076724.814204) can0 2C0#0000000000000000
(1487076724.814205) can0 220#F50300000000E00F
(1487076724.814205) can0 164#0008000000000901
(1487076724.815894) can0 165#0908800000000180
(1487076724.816982) can0 2B0#FD06000703
(1487076724.818289) can0 153#200000FF00FF90AE
(1487076724.821371) can0 316#059D0000002F007F
(1487076724.822434) can0 080#001700009D2F004D
(1487076724.822435) can0 081#40000000000000FD
(1487076724.822435) can0 18F#002C000000720000
(1487076724.822436) can0 260#0500000014A75F10
(1487076724.823539) can0 2A0#A2005D806C12A900
(1487076724.823540) can0 329#0F60810E11320010
(1487076724.823541) can0 545#DF00005F54FE54FE
(1487076724.823541) can0 2C0#0000000000000000
(1487076724.823541) can0 220#F50300000000ED0F
(1487076724.824622) can0 164#0008000000000A02
(1487076724.824623) can0 1F1#0000000000000000
(1487076724.825705) can0 165#0908800000000283
(1487076724.825705) can0 2B0#FF06000754
(1487076724.828312) can0 153#200000FF00FFA0BE
(1487076724.829392) can0 4B0#004000C000000000
(1487076724.829393) can0 4F0#0000D40000121402
(1487076724.830483) can0 4F1#CCFF000000000000
(1487076724.830484) can0 690#4000400000200800
(1487076724.831558) can0 316#059D0000002F007F
(1487076724.831559) can0 080#001700009D2F003E
(1487076724.832663) can0 081#40000000000000EE
(1487076724.832664) can0 18F#002C000000720000
(1487076724.832664) can0 260#0500000014A75F2F
(1487076724.832665) can0 2A0#C2005D806C12A900
(1487076724.833767) can0 329#4F60810E11320010
(1487076724.833768) can0 545#DF00005F54FE54FE
(1487076724.833768) can0 2C0#0000000000000000
(1487076724.833769) can0 220#F50300000000ED0F
(1487076724.833769) can0 164#0008000000000B03
(1487076724.835019) can0 165#0908800000000382
(1487076724.836110) can0 2B0#FD06000765
(1487076724.838289) can0 153#200000FF00FFB0CE
(1487076724.841212) can0 316#059D0000002F007F
(1487076724.842309) can0 080#001700009D2F002F
(1487076724.842310) can0 081#40000000000000DF
(1487076724.842310) can0 18F#002C000000720000
(1487076724.842311) can0 260#0500000014A75F3E
(1487076724.843415) can0 2A0#62005D806C12A900
(1487076724.843415) can0 329#4F60810E11320010
(1487076724.843416) can0 545#DF00005E54FE54FE
(1487076724.843416) can0 2C0#0000000000000000
(1487076724.843417) can0 220#F50300000000D40F
(1487076724.844496) can0 164#0008000000000C04
(1487076724.844497) can0 1F1#0000000000000000
(1487076724.845580) can0 165#0908800000000485
(1487076724.845580) can0 2B0#FD06000756
(1487076724.848293) can0 153#200000FF00FFC0DE
(1487076724.849393) can0 4B0#008000C000000000
(1487076724.849394) can0 4F0#0000D60000121402
(1487076724.849397) can0 4F1#CCFF000000000000
(1487076724.850859) can0 5F0#0100
(1487076724.851955) can0 316#059D0000002F007F
(1487076724.851956) can0 080#001700009D2F0010
(1487076724.851957) can0 081#40000000000000C0
(1487076724.853060) can0 18F#002B000000720000
(1487076724.853060) can0 260#0500000014A75F01
(1487076724.853061) can0 2A0#02005D806C12A900
(1487076724.853061) can0 329#4F60810E11320010
(1487076724.853061) can0 545#DF00005F54FE54FE
(1487076724.854163) can0 2C0#0000000000000000
(1487076724.854164) can0 220#F50300000000E60F
(1487076724.854164) can0 164#0008000000000D05
(1487076724.854164) can0 165#0908800000000584
(1487076724.855247) can0 2B0#FD06000747
(1487076724.858293) can0 153#200000FF00FFD0EE
(1487076724.861373) can0 316#059D0000002F007F
(1487076724.862454) can0 080#001700009D2F0001
(1487076724.862455) can0 081#40000000000000B1
(1487076724.862455) can0 18F#002C000000720000
(1487076724.862456) can0 260#0500000014A75F10
(1487076724.863581) can0 2A0#A2005D806C12A900
(1487076724.863582) can0 329#4F60810E11320010
(1487076724.863582) can0 545#DF00005E54FE54FE
(1487076724.863583) can0 2C0#0000000000000000
(1487076724.863583) can0 220#F50300000000ED0F
(1487076724.864664) can0 164#0008000000000E06
(1487076724.864665) can0 1F1#0000000000000000
(1487076724.864666) can0 2B0#FD060007B8
(1487076724.864666) can0 165#0908800000000687
(1487076724.868293) can0 153#200000FF00FFE0FE
(1487076724.869371) can0 4B0#0000000000000000
(1487076724.869372) can0 4F0#0000D80000121402
(1487076724.869373) can0 4F1#CCFF000000000000
(1487076724.871393) can0 316#059D0000002F007F
(1487076724.872486) can0 080#001700009D2F00F2
(1487076724.872487) can0 081#40000000000000A2
(1487076724.872487) can0 18F#002C000000720000
(1487076724.872488) can0 260#0500000014A75F2F
(1487076724.873609) can0 2A0#C2005D806C12A900
(1487076724.873609) can0 329#4F60810E11320010
(1487076724.873610) can0 545#DF00005F54FE54FE
(1487076724.873610) can0 165#0908800000000786
(1487076724.873610) can0 220#F50300000000F30F
(1487076724.874684) can0 164#0008000000000F07
(1487076724.874684) can0 2B0#FD060007A9
(1487076724.874685) can0 2C0#0000000000000000
(1487076724.878313) can0 153#200000FF00FF001E
(1487076724.881147) can0 316#059D0000002F007F
(1487076724.882237) can0 080#001700009D2F00E3
(1487076724.882237) can0 081#4000000000000093
(1487076724.882238) can0 18F#002C000000720000
(1487076724.882238) can0 260#0500000014A75F3E
(1487076724.883330) can0 2A0#62005D806C12A900
(1487076724.883331) can0 329#4F60810E11320010
(1487076724.883331) can0 545#DF00005E54FE54FE
(1487076724.883331) can0 165#0908800000000889
(1487076724.883332) can0 2B0#FD0600079A
(1487076724.884456) can0 220#F50300000000F30F
(1487076724.884457) can0 0A0#0040000000280000
(1487076724.884457) can0 0A1#8080808066000000
(1487076724.884458) can0 164#0008000000000008
(1487076724.884458) can0 1F1#0000000000000000
(1487076724.885540) can0 2C0#0000000000000000
(1487076724.888292) can0 153#200000FF00FF102E
(1487076724.889372) can0 4B0#0040000000000000
(1487076724.889372) can0 4F0#0000DA0000121402
(1487076724.889373) can0 4F1#CCFF000000000000
(1487076724.891234) can0 316#059D0000002F007F
(1487076724.892331) can0 080#001700009D2F00D4
(1487076724.892332) can0 081#4000000000000084
(1487076724.892332) can0 18F#002B000000720000
(1487076724.892332) can0 260#0500000014A75F01
(1487076724.893434) can0 165#0908800000000988
(1487076724.893435) can0 2A0#02005D806C12A900
(1487076724.893435) can0 2B0#FD0600078B
(1487076724.893436) can0 2C0#0000000000000000
(1487076724.893436) can0 220#F50300000000B40F
(1487076724.894518) can0 164#0008000000000109
(1487076724.894519) can0 329#8060810E11320010
(1487076724.894519) can0 545#DF00005F54FE54FE
(1487076724.898316) can0 153#200000FF00FF203E
(1487076724.899393) can0 5F0#0100
(1487076724.901334) can0 316#059D0000002F007F
(1487076724.902414) can0 080#001700009D2F00C5
(1487076724.902415) can0 081#4000000000000075
(1487076724.902415) can0 165#0908800000000A8B
(1487076724.902416) can0 18F#002C000000720000
(1487076724.903519) can0 260#0500000014A75F10
(1487076724.903520) can0 2A0#A2005D806C12A900
(1487076724.903520) can0 2B0#FD060007FC
(1487076724.903521) can0 2C0#0000000000000000
(1487076724.903521) can0 220#F50300000000B40F
(1487076724.904609) can0 164#000800000000020A
(1487076724.904610) can0 1F1#0000000000000000
(1487076724.904610) can0 329#8060810E11320010
(1487076724.904611) can0 545#DF00005F54FE54FE
(1487076724.908291) can0 153#200000FF00FF304E
(1487076724.909394) can0 4B0#0080000000000000
(1487076724.909395) can0 4F0#0000DC0000121402
(1487076724.909395) can0 4F1#CCFF000000000000
(1487076724.911374) can0 316#059D0000002F007F
(1487076724.912487) can0 080#001700009D2F00B6
(1487076724.912488) can0 081#4000000000000066
(1487076724.912488) can0 18F#002B000000720000
(1487076724.912488) can0 260#0500000014A75F2F
(1487076724.913579) can0 2A0#C2005D806C12A900
(1487076724.913580) can0 2B0#FD060007ED
(1487076724.913580) can0 329#8060810E11320010
(1487076724.913580) can0 2C0#0000000000000000
(1487076724.913581) can0 220#F50300000000DA0F
(1487076724.914686) can0 164#000800000000030B
(1487076724.914687) can0 545#DF00005E54FE54FE
(1487076724.914687) can0 5E4#040000
(1487076724.914688) can0 165#0908800000000B8A
(1487076724.918358) can0 153#200000FF00FF405E
(1487076724.921104) can0 165#0908800000000C8D
(1487076724.922206) can0 260#0500000014A75F3E
(1487076724.922207) can0 2A0#62005D806C12A900
(1487076724.922207) can0 080#001700009D2F00A7
(1487076724.922208) can0 081#4000000000000057
(1487076724.923309) can0 18F#002B000000720000
(1487076724.923310) can0 2B0#FD060007DE
(1487076724.923311) can0 316#059D0000002F007F
(1487076724.923311) can0 329#8060810E11320010
(1487076724.923311) can0 2C0#0000000000000000
(1487076724.924411) can0 220#F50300000000D40F
(1487076724.924412) can0 164#000800000000040C
(1487076724.924413) can0 1F1#0000000000000000
(1487076724.924413) can0 545#DF00005F54FE54FE
(1487076724.928379) can0 153#200000FF00FF506E
(1487076724.929454) can0 4B0#00C0000000000000
(1487076724.929455) can0 4F0#0000DE0000121402
(1487076724.930547) can0 4F1#CCFF000000000000
(1487076724.930548) can0 690#4000400000200C00
(1487076724.931622) can0 165#0908800000000D8C
(1487076724.931623) can0 2B0#FD060007CF
(1487076724.931624) can0 316#059D0000002F007F
(1487076724.931624) can0 080#001700009D2F0098
(1487076724.932748) can0 081#4000000000000048
(1487076724.932749) can0 18F#002C000000720000
(1487076724.932750) can0 260#0500000014A75F01
(1487076724.932750) can0 2A0#02005D806C12A900
(1487076724.932750) can0 329#8060810E11320010
(1487076724.933828) can0 545#DF00005F54FE54FE
(1487076724.933829) can0 2C0#0000000000000000
(1487076724.933834) can0 220#F50300000000CD0F
(1487076724.933835) can0 164#000800000000050D
(1487076724.938354) can0 153#200000FF00FF607E
(1487076724.940122) can0 165#0908800000000E8F
(1487076724.941186) can0 2B0#FD06000730
(1487076724.942273) can0 316#059D0000002F007F
(1487076724.942274) can0 080#001700009D2F0089
(1487076724.942274) can0 081#4000000000000039
(1487076724.942275) can0 18F#002C000000720000
(1487076724.943394) can0 260#0500000014A75F10
(1487076724.943395) can0 2A0#A2005D806C12A900
(1487076724.943395) can0 329#8060810E11320010
(1487076724.943396) can0 2C0#0000000000000000
(1487076724.943396) can0 220#F50300000000D40F
(1487076724.944485) can0 164#000800000000060E
(1487076724.944486) can0 1F1#0000000000000000
(1487076724.944486) can0 545#DF00005F54FE54FE
(1487076724.946834) can0 5F0#0100
(1487076724.948295) can0 153#200000FF00FF708E
(1487076724.949374) can0 4B0#0000004000000000
(1487076724.949374) can0 4F0#0000E00000121402
(1487076724.949375) can0 4F1#CCFF000000000000
(1487076724.950456) can0 165#0908800000000F8E
(1487076724.950456) can0 2B0#FD06000721
(1487076724.951540) can0 316#059D0000002F007F
(1487076724.952644) can0 080#001700009D2F007A
(1487076724.952645) can0 081#400000000000002A
(1487076724.952645) can0 18F#002C000000720000
(1487076724.952646) can0 260#0500000014A75F2F
(1487076724.952646) can0 2A0#C2005D806C12A900
(1487076724.953769) can0 329#D760810E11320010
(1487076724.953769) can0 2C0#0000000000000000
(1487076724.953770) can0 220#F50300000000D40F
(1487076724.953770) can0 164#000800000000070F
(1487076724.954830) can0 545#DF00005F54FE54FE
(1487076724.958291) can0 153#200000FF00FF809E
(1487076724.959373) can0 165#0908800000000081
(1487076724.960457) can0 2B0#FF06000732
(1487076724.961561) can0 316#059D0000002F007F
(1487076724.961562) can0 080#001700009D2F006B
(1487076724.962666) can0 081#400000000000001B
(1487076724.962666) can0 18F#002C000000720000
(1487076724.962667) can0 260#0500000014A75F3E
(1487076724.962667) can0 2A0#62005D806C12A900
(1487076724.962668) can0 329#D760810E11320010
(1487076724.963772) can0 545#DF00005E54FE54FE
(1487076724.963772) can0 2C0#0000000000000000
(1487076724.963773) can0 220#F50300000000ED0F
(1487076724.963773) can0 164#0008000000000800
(1487076724.964831) can0 1F1#0000000000000000
(1487076724.968314) can0 153#200000FF00FF90AE
(1487076724.969415) can0 4B0#0040004000000000
(1487076724.969415) can0 165#0908800000000180
(1487076724.969416) can0 2B0#FD06000703
(1487076724.969416) can0 4F0#0000E20000121402
(1487076724.970499) can0 4F1#CCFF000000000000
(1487076724.971561) can0 316#059D0000002F007F
(1487076724.971562) can0 080#001700009D2F005C
(1487076724.972687) can0 081#400000000000000C
(1487076724.972688) can0 18F#002C000000720000
(1487076724.972688) can0 260#0500000014A75F01
(1487076724.972688) can0 2A0#02005D806C12A900
(1487076724.972689) can0 329#D760810E11320010
(1487076724.973791) can0 545#DF00005F54FE54FE
(1487076724.973792) can0 2C0#0000000000000000
(1487076724.973793) can0 220#F50300000000ED0F
(1487076724.973793) can0 164#0008000000000901
(1487076724.978297) can0 153#200000FF00FFA0BE
(1487076724.979375) can0 165#0908800000000283
(1487076724.979376) can0 2B0#FD06000774
(1487076724.981361) can0 316#059D0000002F007F
(1487076724.982435) can0 080#001700009D2F004D
(1487076724.982436) can0 081#40000000000000FD
(1487076724.982439) can0 18F#002C000000720000
(1487076724.982440) can0 260#0500000014A75F10
(1487076724.983542) can0 2A0#A2005D806C12A900
(1487076724.983543) can0 329#D760810E11320010
(1487076724.983543) can0 545#DF00005E54FE54FE
(1487076724.983544) can0 2C0#0000000000000000
(1487076724.983544) can0 220#F50300000000F90F
(1487076724.984622) can0 164#0008000000000A02
(1487076724.984623) can0 1F1#0000000000000000
(1487076724.985703) can0 0A0#0040000000280000
(1487076724.985704) can0 0A1#8080808066000000
(1487076724.987941) can0 165#0908800000000382
(1487076724.989017) can0 2B0#FD06000765
(1487076724.989017) can0 153#200000FF00FFB0CE
(1487076724.989018) can0 4B0#0080004000000000
(1487076724.989018) can0 4F0#0000E40000121402
(1487076724.990110) can0 4F1#CCFF000000000000
(1487076724.991373) can0 316#059D0000002F007F
(1487076724.992456) can0 080#001700009D2F003E
(1487076724.992456) can0 081#40000000000000EE
(1487076724.992457) can0 18F#002C000000720000
(1487076724.992457) can0 260#0500000014A75F2F
(1487076724.993561) can0 2A0#C2005D806C12A900
(1487076724.993561) can0 329#D760810E11320010
(1487076724.993562) can0 2C0#0000000000000000
(1487076724.993562) can0 545#DF00005F54FE54FE
(1487076724.993562) can0 220#F50300000000F90F
(1487076724.994643) can0 164#0008000000000B03
(1487076724.995735) can0 5F0#0100
(1487076724.997495) can0 165#0908800000000485
(1487076724.998581) can0 2B0#FD06000756
(1487076724.998581) can0 153#200000FF00FFC0DE
(1487076725.001146) can0 316#059D0000002F007F
(1487076725.002235) can0 080#001700009D2F002F
(1487076725.002236) can0 081#40000000000000DF
(1487076725.002236) can0 18F#002C000000720000
(1487076725.002237) can0 260#0500000014A75F3E
(1487076725.003359) can0 2A0#62005D806C12A900
(1487076725.003360) can0 329#D760810E11320010
(1487076725.003360) can0 545#DF00005F54FE54FE
(1487076725.003361) can0 2C0#0000000000000000
(1487076725.003361) can0 220#F50300000000D40F
(1487076725.004434) can0 164#0008000000000C04
(1487076725.004434) can0 1F1#0000000000000000
(1487076725.007144) can0 165#0908800000000584
(1487076725.008251) can0 2B0#FD06000747
(1487076725.009360) can0 153#200000FF00FFD0EE
(1487076725.009361) can0 4B0#00C0004000000000
(1487076725.009361) can0 4F0#0000E60000121402
(1487076725.009362) can0 4F1#CCFF000000000000
(1487076725.011269) can0 316#059D0000002F007F
(1487076725.012375) can0 080#001700009D2F0010
(1487076725.012376) can0 081#40000000000000C0
(1487076725.012376) can0 18F#002C000000720000
(1487076725.012377) can0 260#0500000014A75F01
(1487076725.013499) can0 2A0#02005D806C12A900
(1487076725.013500) can0 329#0F60810E11320010
(1487076725.013501) can0 545#DF00005E54FE54FE
(1487076725.013501) can0 2C0#0000000000000000
(1487076725.013501) can0 220#F50300000000DA0F
(1487076725.014561) can0 164#0008000000000D05
(1487076725.014562) can0 5E4#040000
(1487076725.016735) can0 165#0908800000000687
(1487076725.017810) can0 2B0#FD060007B8
(1487076725.018875) can0 153#200000FF00FFE0FE
(1487076725.021327) can0 316#059D0000002F007F
(1487076725.022417) can0 080#001700009D2F0001
(1487076725.022418) can0 081#40000000000000B1
(1487076725.022418) can0 18F#002C000000720000
(1487076725.022418) can0 260#0500000014A75F10
(1487076725.023521) can0 2A0#A2005D806C12A900
(1487076725.023522) can0 329#0F60810E11320010
(1487076725.023523) can0 2C0#0000000000000000
(1487076725.023526) can0 545#DF00005F54FE54FE
(1487076725.023526) can0 220#F50300000000DA0F
(1487076725.024624) can0 164#0008000000000E06
(1487076725.024624) can0 1F1#0000000000000000
(1487076725.026310) can0 165#0908800000000786
(1487076725.027375) can0 2B0#FD060007A9
(1487076725.028457) can0 153#200000FF00FF001E
(1487076725.029541) can0 4B0#0000008000000000
(1487076725.029553) can0 4F0#0000E80000121402
(1487076725.030646) can0 4F1#CCFF000000000000
(1487076725.030646) can0 690#4000400000201000
(1487076725.031783) can0 316#059D0000002F007F
(1487076725.031784) can0 080#001700009D2F00F2
(1487076725.032861) can0 081#40000000000000A2
(1487076725.032872) can0 18F#002C000000720000
(1487076725.032873) can0 260#0500000014A75F2F
(1487076725.032873) can0 2A0#C2005D806C12A900
(1487076725.032873) can0 329#0F60810E11320010
(1487076725.033957) can0 2C0#0000000000000000
(1487076725.033968) can0 545#DF00005E54FE54FE
(1487076725.033969) can0 220#F50300000000E60F
(1487076725.033969) can0 164#0008000000000F07
(1487076725.035875) can0 165#0908800000000889
(1487076725.036916) can0 2B0#FD0600079A
(1487076725.038316) can0 153#200000FF00FF102E
(1487076725.041267) can0 316#059D0000002F007F
(1487076725.042361) can0 080#001700009D2F00E3
(1487076725.042362) can0 081#4000000000000093
(1487076725.042362) can0 18F#002C000000720000
(1487076725.042363) can0 260#0500000014A75F3E
(1487076725.043458) can0 2A0#62005D806C12A900
(1487076725.043469) can0 329#0F60810E11320010
(1487076725.043469) can0 545#DF00005F54FE54FE
(1487076725.043470) can0 2C0#0000000000000000
(1487076725.043470) can0 220#F50300000200E60F
(1487076725.044541) can0 164#0008000000000008
(1487076725.044553) can0 1F1#0000000000000000
(1487076725.044553) can0 5F0#0100
(1487076725.045646) can0 165#0908800000000988
(1487076725.045657) can0 2B0#FD0600078B
(1487076725.048325) can0 153#200000FF00FF203E
(1487076725.049397) can0 4B0#0040008000000000
(1487076725.049397) can0 4F0#0000EA0000121402
(1487076725.049398) can0 4F1#CCFF000000000000
(1487076725.051291) can0 316#059D0000002F007F
(1487076725.052388) can0 080#001700009D2F00D4
(1487076725.052389) can0 081#4000000000000084
(1487076725.052390) can0 18F#002C000000720000
(1487076725.052390) can0 260#0500000014A75F01
(1487076725.053487) can0 2A0#02005D806C12A900
(1487076725.053498) can0 329#0F60810E11320010
(1487076725.053498) can0 545#DF00005F54FE54FE
(1487076725.053498) can0 2C0#0000000000000000
(1487076725.053499) can0 220#F50300000000CD0F
(1487076725.054560) can0 164#0008000000000109
(1487076725.055657) can0 165#0908800000000A8B
(1487076725.055658) can0 2B0#FD060007FC
(1487076725.058313) can0 153#200000FF00FF304E
(1487076725.061350) can0 316#059D0000002F007F
(1487076725.062417) can0 080#001700009D2F00C5
(1487076725.062428) can0 081#4000000000000075
(1487076725.062429) can0 18F#002B000000720000
(1487076725.062429) can0 260#0500000014A75F10
(1487076725.063533) can0 2A0#A2005D806C12A900
(1487076725.063534) can0 329#0F60810E11320010
(1487076725.063535) can0 545#DF00005F54FE54FE
(1487076725.063535) can0 2C0#0000000000000000
(1487076725.063535) can0 220#F50300000000C10F
(1487076725.064612) can0 164#000800000000020A
(1487076725.064623) can0 1F1#0000000000000000
(1487076725.064623) can0 165#0908800000000B8A
(1487076725.065685) can0 2B0#FD060007ED
(1487076725.068326) can0 153#200000FF00FF405E
(1487076725.069397) can0 4B0#0080008000000000
(1487076725.069409) can0 4F0#0000EC0000121402
(1487076725.069409) can0 4F1#CCFF000000000000
(1487076725.071397) can0 316#059D0000002F007F
(1487076725.072487) can0 080#001700009D2F00B6
(1487076725.072488) can0 081#4000000000000066
(1487076725.072489) can0 18F#002C000000720000
(1487076725.072489) can0 260#0500000014A75F2F
(1487076725.073612) can0 2A0#C2005D806C12A900
(1487076725.073613) can0 329#4F60810E11320010
(1487076725.073613) can0 2C0#0000000000000000
(1487076725.073613) can0 220#F50300000000CD0F
(1487076725.073614) can0 164#000800000000030B
(1487076725.074686) can0 545#DF00005F54FE54FE
(1487076725.074686) can0 165#0908800000000C8D
(1487076725.074687) can0 2B0#FD060007DE
(1487076725.078318) can0 153#200000FF00FF506E
(1487076725.081150) can0 316#059D0000002F007F
(1487076725.082238) can0 080#001700009D2F00A7
(1487076725.082239) can0 081#4000000000000057
(1487076725.082239) can0 18F#002C000000720000
(1487076725.082239) can0 0A0#0040000000280000
(1487076725.083363) can0 0A1#8080808066000000
(1487076725.083363) can0 260#0500000014A75F3E
(1487076725.083364) can0 2A0#62005D806C12A900
(1487076725.083364) can0 2C0#0000000000000000
(1487076725.083365) can0 220#F50300000000CD0F
(1487076725.084487) can0 164#000800000000040C
(1487076725.084488) can0 165#0908800000000D8C
(1487076725.084488) can0 1F1#0000000000000000
(1487076725.084500) can0 2B0#FD060007CF
(1487076725.085561) can0 329#4F60810E11320010
(1487076725.085573) can0 545#DF00005E54FE54FE
(1487076725.088327) can0 153#200000FF00FF607E
(1487076725.089374) can0 4B0#00C0008000000000
(1487076725.089375) can0 4F0#0000EE0000121402
(1487076725.089376) can0 4F1#CCFF000000000000
(1487076725.090836) can0 5F0#0100
(1487076725.091972) can0 316#059D0000002F007F
(1487076725.091972) can0 080#001700009D2F0098
(1487076725.091973) can0 081#4000000000000048
(1487076725.093063) can0 18F#002B000000720000
(1487076725.093064) can0 260#0500000014A75F01
(1487076725.093064) can0 2A0#02005D806C12A900
(1487076725.093075) can0 329#4F60810E11320010
(1487076725.093076) can0 545#DF00005F54FE54FE
(1487076725.094168) can0 2C0#0000000000000000
(1487076725.094179) can0 165#0908800000000E8F
(1487076725.094179) can0 220#F50300000000CD0F
(1487076725.094180) can0 164#000800000000050D
(1487076725.094180) can0 2B0#FD06000730
(1487076725.098326) can0 153#200000FF00FF708E
(1487076725.101318) can0 316#059D0000002F007F
(1487076725.102419) can0 080#001700009D2F0089
(1487076725.102420) can0 081#4000000000000039
(1487076725.102431) can0 18F#002C000000720000
(1487076725.102431) can0 260#0500000014A75F10
(1487076725.103512) can0 2A0#A2005D806C12A900
(1487076725.103513) can0 329#4F60810E11320010
(1487076725.103513) can0 165#0908800000000F8E
(1487076725.103514) can0 2B0#FD06000721
(1487076725.103514) can0 220#F50300000000D40F
(1487076725.104612) can0 164#000800000000060E
(1487076725.104624) can0 1F1#0000000000000000
(1487076725.104624) can0 2C0#0000000000000000
(1487076725.104624) can0 545#DF00005F54FE54FE
(1487076725.108328) can0 153#200000FF00FF809E
(1487076725.109398) can0 4B0#000000C000000000
(1487076725.109398) can0 4F0#0000F00000121402
(1487076725.109399) can0 4F1#CCFF000000000000
(1487076725.111377) can0 316#059D0000002F007F
(1487076725.112472) can0 080#001700009D2F007A
(1487076725.112473) can0 081#400000000000002A
(1487076725.112476) can0 18F#002B000000720000
(1487076725.112476) can0 260#0500000014A75F2F
(1487076725.113564) can0 2A0#C2005D806C12A900
(1487076725.113564) can0 2B0#FD06000712
(1487076725.113565) can0 2C0#0000000000000000
(1487076725.113576) can0 329#4F60810E11320010
(1487076725.113576) can0 220#F50300000000D40F
(1487076725.114667) can0 164#000800000000070F
(1487076725.114667) can0 545#DF00005F54FE54FE
(1487076725.114678) can0 5E4#040000
(1487076725.114679) can0 165#0908800000000081
(1487076725.118316) can0 153#200000FF00FF90AE
(1487076725.121247) can0 316#059D0000002F007F
(1487076725.122252) can0 080#001700009D2F006B
(1487076725.122253) can0 081#400000000000001B
(1487076725.122253) can0 18F#002C000000720000
(1487076725.122253) can0 165#0908800000000180
(1487076725.123405) can0 260#0500000014A75F3E
(1487076725.123405) can0 2A0#62005D806C12A900
(1487076725.123406) can0 2B0#FD06000703
(1487076725.123406) can0 2C0#0000000000000000
(1487076725.123407) can0 329#4F60810E11320010
(1487076725.124526) can0 220#F50300000000E60F
(1487076725.124527) can0 164#0008000000000800
(1487076725.124528) can0 1F1#0000000000000000
(1487076725.124528) can0 545#DF00005F54FE54FE
(1487076725.128400) can0 153#200000FF00FFA0BE
(1487076725.129483) can0 4B0#004000C000000000
(1487076725.129484) can0 4F0#0000F20000121402
(1487076725.130585) can0 4F1#CCFF000000000000
(1487076725.130586) can0 690#4000400000201400
(1487076725.131660) can0 316#059D0000002F007F
(1487076725.131661) can0 080#001700009D2F005C
(1487076725.132767) can0 081#400000000000000C
(1487076725.132768) can0 18F#002C000000720000
(1487076725.132769) can0 260#0500000014A75F01
(1487076725.132769) can0 2A0#02005D806C12A900
(1487076725.132769) can0 2B0#FF06000754
(1487076725.133885) can0 165#0908800000000283
(1487076725.133886) can0 2C0#0000000000000000
(1487076725.133886) can0 220#F50300000000E00F
(1487076725.133887) can0 164#0008000000000901
(1487076725.133887) can0 329#8060810E11320010
(1487076725.134979) can0 545#DF00005E54FE54FE
(1487076725.138380) can0 153#200000FF00FFB0CE
(1487076725.139461) can0 5F0#0100
(1487076725.141085) can0 165#0908800000000382
(1487076725.142211) can0 2B0#FD06000765
(1487076725.142212) can0 316#059D0000002F007F
(1487076725.142212) can0 329#8060810E11320010
(1487076725.142212) can0 080#001700009D2F004D
(1487076725.143312) can0 081#40000000000000FD
(1487076725.143313) can0 18F#002C000000720000
(1487076725.143313) can0 260#0500000014A75F10
(1487076725.143314) can0 2A0#A2005D806C12A900
(1487076725.143314) can0 2C0#0000000000000000
(1487076725.144400) can0 220#F50300000000CD0F
(1487076725.144401) can0 164#0008000000000A02
(1487076725.144401) can0 1F1#0000000000000000
(1487076725.144402) can0 545#DF00005F54FE54FE
(1487076725.148401) can0 153#200000FF00FFC0DE
(1487076725.149472) can0 4B0#008000C000000000
(1487076725.149473) can0 4F0#0000F40000121402
(1487076725.149474) can0 4F1#CCFF000000000000
(1487076725.150650) can0 165#0908800000000485
(1487076725.151735) can0 2B0#FD06000756
(1487076725.151736) can0 316#059D0000002F007F
(1487076725.151736) can0 080#001700009D2F003E
(1487076725.152854) can0 081#40000000000000EE
(1487076725.152855) can0 18F#002B000000720000
(1487076725.152856) can0 260#0500000014A75F2F
(1487076725.152856) can0 2A0#C2005D806C12A900
(1487076725.153936) can0 329#8060810E11320010
(1487076725.153942) can0 2C0#0000000000000000
(1487076725.153942) can0 220#F50300000000CD0F
(1487076725.153943) can0 164#0008000000000B03
(1487076725.153943) can0 545#DF00005F54FE54FE
(1487076725.158382) can0 153#200000FF00FFD0EE
(1487076725.160230) can0 165#0908800000000584
(1487076725.161299) can0 2B0#FD06000747
(1487076725.161300) can0 316#059D0000002F007F
(1487076725.162425) can0 080#001700009D2F002F
(1487076725.162426) can0 081#40000000000000DF
(1487076725.162427) can0 18F#002B000000720000
(1487076725.162427) can0 260#0500000014A75F3E
(1487076725.162429) can0 2A0#62005D806C12A900
(1487076725.163521) can0 329#8060810E11320010
(1487076725.163522) can0 545#DF00005F54FE54FE
(1487076725.163523) can0 2C0#0000000000000000
(1487076725.163523) can0 5A0#0000000000000000
(1487076725.164626) can0 220#F50300000000CD0F
(1487076725.164627) can0 164#0008000000000C04
(1487076725.164627) can0 1F1#0000000000000000
(1487076725.164628) can0 5A1#5442333046422644
(1487076725.164628) can0 5A2#04029103
(1487076725.168403) can0 153#200000FF00FFE0FE
(1487076725.169479) can0 4B0#0000000000000000
(1487076725.169480) can0 4F0#0000F60000121402
(1487076725.169480) can0 4F1#CCFF000000000000
(1487076725.170563) can0 165#0908800000000687
(1487076725.170564) can0 2B0#FD060007B8
(1487076725.171650) can0 316#059D0000002F007F
(1487076725.171652) can0 080#001700009D2F0010
(1487076725.172773) can0 081#40000000000000C0
(1487076725.172774) can0 18F#002B000000720000
(1487076725.172775) can0 260#0500000014A75F01
(1487076725.172775) can0 2A0#02005D806C12A900
(1487076725.172775) can0 329#8060810E11320010
(1487076725.173856) can0 545#DF00005F54FE54FE
(1487076725.173857) can0 2C0#0000000000000000
(1487076725.173857) can0 220#F50300000000ED0F
(1487076725.173858) can0 164#0008000000000D05
(1487076725.178400) can0 153#200000FF00FF001E
(1487076725.179483) can0 165#0908800000000786
(1487076725.179484) can0 2B0#FD060007A9
(1487076725.181398) can0 316#059D0000002F007F
(1487076725.182464) can0 080#001700009D2F0001
(1487076725.182465) can0 081#40000000000000B1
(1487076725.182466) can0 18F#002B000000720000
(1487076725.182466) can0 260#0500000014A75F10
(1487076725.183556) can0 0A0#0040000000280000
(1487076725.183557) can0 0A1#8080808066000000
(1487076725.183557) can0 2A0#A2005D806C12A900
(1487076725.183558) can0 2C0#0000000000000000
(1487076725.183558) can0 220#F50300000000ED0F
(1487076725.184630) can0 164#0008000000000E06
(1487076725.184631) can0 1F1#0000000000000000
(1487076725.184631) can0 329#8060810E11320010
(1487076725.184632) can0 545#DF00005E54FE54FE
(1487076725.186869) can0 5F0#0100
(1487076725.188342) can0 153#200000FF00FF102E
(1487076725.189444) can0 4B0#0040000000000000
(1487076725.189445) can0 4F0#0000F80000121402
(1487076725.189445) can0 165#0908800000000889
(1487076725.189446) can0 2B0#FD0600079A
(1487076725.190529) can0 4F1#CCFF000000000000
(1487076725.191615) can0 316#059D0000002F007F
(1487076725.191616) can0 080#001700009D2F00F2
(1487076725.192739) can0 081#40000000000000A2
(1487076725.192740) can0 18F#002C000000720000
(1487076725.192740) can0 260#0500000014A75F2F
(1487076725.192740) can0 2A0#C2005D806C12A900
(1487076725.193835) can0 329#D760810E11320010
(1487076725.193836) can0 2C0#0000000000000000
(1487076725.193836) can0 545#DF00005F54FE54FE
(1487076725.193837) can0 220#F50300000000D40F
(1487076725.193840) can0 164#0008000000000F07
(1487076725.198341) can0 153#200000FF00FF203E
(1487076725.199418) can0 165#0908800000000988
(1487076725.199419) can0 2B0#FD0600078B
(1487076725.201168) can0 316#059D0000002F007F
(1487076725.202272) can0 080#001700009D2F00E3
(1487076725.202273) can0 081#4000000000000093
(1487076725.202273) can0 18F#002C000000720000
(1487076725.202273) can0 260#0500000014A75F3E
(1487076725.203378) can0 2A0#62005D806C12A900
(1487076725.203379) can0 329#D760810E11320010
(1487076725.203379) can0 545#DF00005E54FE54FE
(1487076725.203379) can0 2C0#0000000000000000
(1487076725.203380) can0 220#F50300000000CD0F
(1487076725.204460) can0 164#0008000000000008
(1487076725.204461) can0 1F1#0000000000000000
(1487076725.207992) can0 165#0908800000000A8B
(1487076725.209084) can0 2B0#FD060007FC
(1487076725.209084) can0 153#200000FF00FF304E
(1487076725.209085) can0 4B0#0080000000000000
(1487076725.209085) can0 4F0#0000FA0000121402
(1487076725.210146) can0 4F1#CCFF000000000000
(1487076725.211253) can0 316#059D0000002F007F
(1487076725.212337) can0 080#001700009D2F00D4
(1487076725.212338) can0 081#4000000000000084
(1487076725.212338) can0 18F#002B000000720000
(1487076725.212338) can0 260#0500000014A75F01
(1487076725.213440) can0 2A0#02005D806C12A900
(1487076725.213441) can0 329#D760810E11320010
(1487076725.213441) can0 545#DF00005F54FE54FE
(1487076725.213442) can0 2C0#0000000000000000
(1487076725.213442) can0 220#F50300000000BB0F
(1487076725.214523) can0 164#0008000000000109
(1487076725.214524) can0 5E4#040000
(1487076725.217570) can0 165#0908800000000B8A
(1487076725.218648) can0 2B0#FD060007ED
(1487076725.218649) can0 153#200000FF00FF405E
(1487076725.221367) can0 316#059D0000002F007F
(1487076725.222458) can0 080#001700009D2F00C5
(1487076725.222459) can0 081#4000000000000075
(1487076725.222459) can0 18F#002B000000720000
(1487076725.222460) can0 260#0500000014A75F10
(1487076725.223566) can0 2A0#A2005D806C12A900
(1487076725.223567) can0 329#D760810E11320010
(1487076725.223567) can0 2C0#0000000000000000
(1487076725.223567) can0 545#DF00005F54FE54FE
(1487076725.223568) can0 220#F50300000000B40F
(1487076725.224650) can0 164#000800000000020A
(1487076725.224650) can0 1F1#0000000000000000
(1487076725.227148) can0 165#0908800000000C8D
(1487076725.228212) can0 2B0#FD060007DE
(1487076725.229336) can0 153#200000FF00FF506E
(1487076725.229337) can0 4B0#00C0000000000000
(1487076725.230421) can0 4F0#0000FC0000121402
(1487076725.230422) can0 4F1#CCFF000000000000
(1487076725.230422) can0 690#4000400000201800
(1487076725.231524) can0 316#059D0000002F007F
(1487076725.232628) can0 080#001700009D2F00B6
(1487076725.232628) can0 081#4000000000000066
(1487076725.232629) can0 18F#002C000000720000
(1487076725.232629) can0 260#0500000014A75F2F
(1487076725.232629) can0 2A0#C2005D806C12A900
(1487076725.233754) can0 329#D760810E11320010
(1487076725.233755) can0 2C0#0000000000000000
(1487076725.233755) can0 545#DF00005E54FE54FE
(1487076725.233756) can0 220#F50300000000B40F
(1487076725.233756) can0 164#000800000000030B
(1487076725.234865) can0 5F0#0100
(1487076725.236668) can0 165#0908800000000D8C
(1487076725.237752) can0 2B0#FD060007CF
(1487076725.238816) can0 153#200000FF00FF607E
(1487076725.241188) can0 316#059D0000002F007F
(1487076725.242293) can0 080#001700009D2F00A7
(1487076725.242294) can0 081#4000000000000057
(1487076725.242297) can0 18F#002C000000720000
(1487076725.242297) can0 260#0500000014A75F3E
(1487076725.243398) can0 2A0#62005D806C12A900
(1487076725.243399) can0 329#D760810E11320010
(1487076725.243399) can0 545#DF00005F54FE54FE
(1487076725.243399) can0 2C0#0000000000000000
(1487076725.243400) can0 220#F50300000000E00F
(1487076725.244490) can0 164#000800000000040C
(1487076725.244491) can0 1F1#0000000000000000
(1487076725.246294) can0 165#0908800000000E8F
(1487076725.247377) can0 2B0#FF06000710
(1487076725.248439) can0 153#200000FF00FF708E
(1487076725.249525) can0 4B0#0000004000000000
(1487076725.249526) can0 4F0#0000FE0000121402
(1487076725.249526) can0 4F1#CCFF000000000000
(1487076725.251294) can0 316#059D0000002F007F
(1487076725.252378) can0 080#001700009D2F0098
(1487076725.252379) can0 081#4000000000000048
(1487076725.252380) can0 18F#002C000000720000
(1487076725.252380) can0 260#0500000014A75F01
(1487076725.253491) can0 2A0#02005D806C12A900
(1487076725.253492) can0 329#0F60810E11320010
(1487076725.253492) can0 2C0#0000000000000000
(1487076725.253492) can0 545#DF00005E54FE54FE
(1487076725.253493) can0 220#F50300000000E00F
(1487076725.254565) can0 164#000800000000050D
(1487076725.255867) can0 165#0908800000000F8E
(1487076725.256940) can0 2B0#FD06000721
(1487076725.258319) can0 153#200000FF00FF809E
(1487076725.261321) can0 316#059D0000002F007F
(1487076725.262421) can0 080#001700009D2F0089
(1487076725.262422) can0 081#4000000000000039
(1487076725.262422) can0 18F#002B000000720000
(1487076725.262422) can0 260#0500000014A75F10
(1487076725.263524) can0 2A0#A2005D806C12A900
(1487076725.263524) can0 329#0F60810E11320010
(1487076725.263525) can0 545#DF00005F54FE54FE
(1487076725.263525) can0 2C0#0000000000000000
(1487076725.263526) can0 220#F50300000000D40F
(1487076725.264615) can0 164#000800000000060E
(1487076725.264616) can0 1F1#0000000000000000
(1487076725.265689) can0 165#0908800000000081
(1487076725.265690) can0 2B0#FD06000712
(1487076725.268339) can0 153#200000FF00FF90AE
(1487076725.269421) can0 4B0#0040004000000000
(1487076725.269422) can0 4F0#0000000000121402
(1487076725.269422) can0 4F1#CCFF000000000000
(1487076725.271380) can0 316#059D0000002F007F
(1487076725.272493) can0 080#001700009D2F007A
(1487076725.272494) can0 081#400000000000002A
(1487076725.272494) can0 18F#002B000000720000
(1487076725.272495) can0 260#0500000014A75F2F
(1487076725.273584) can0 2A0#C2005D806C12A900
(1487076725.273584) can0 329#0F60810E11320010
(1487076725.273585) can0 2C0#0000000000000000
(1487076725.273585) can0 545#DF00005F54FE54FE
(1487076725.273585) can0 220#F50300000000E60F
(1487076725.274671) can0 164#000800000000070F
(1487076725.275754) can0 165#0908800000000180
(1487076725.275755) can0 2B0#FD06000703
(1487076725.278337) can0 153#200000FF00FFA0BE
(1487076725.281153) can0 316#059D0000002F007F
(1487076725.282240) can0 080#001700009D2F006B
(1487076725.282241) can0 081#400000000000001B
(1487076725.282241) can0 18F#002C000000720000
(1487076725.282242) can0 260#0500000014A75F3E
(1487076725.283367) can0 2A0#62005D806C12A900
(1487076725.283367) can0 329#0F60810E11320010
(1487076725.283368) can0 545#DF00005E54FE54FE
(1487076725.283368) can0 0A0#0040000000280000
(1487076725.283368) can0 0A1#8080808066000000
(1487076725.284461) can0 220#F50300000000ED0F
(1487076725.284461) can0 164#0008000000000800
(1487076725.284464) can0 1F1#0000000000000000
(1487076725.284465) can0 2C0#0000000000000000
(1487076725.285544) can0 165#0908800000000283
(1487076725.285545) can0 2B0#FF06000754
(1487076725.285546) can0 5F0#0100
(1487076725.288341) can0 153#200000FF00FFB0CE
(1487076725.289421) can0 4B0#0080004000000000
(1487076725.289422) can0 4F0#0000020000121402
(1487076725.289422) can0 4F1#CCFF000000000000
(1487076725.291241) can0 316#059D0000002F007F
(1487076725.292337) can0 080#001700009D2F005C
(1487076725.292338) can0 081#400000000000000C
(1487076725.292338) can0 18F#002C000000720000
(1487076725.292339) can0 260#0500000014A75F01
(1487076725.293441) can0 2A0#02005D806C12A900
(1487076725.293442) can0 329#0F60810E11320010
(1487076725.293442) can0 545#DF00005F54FE54FE
(1487076725.293442) can0 2C0#0000000000000000
(1487076725.293443) can0 220#F50300000000E00F
(1487076725.294546) can0 164#0008000000000901
(1487076725.294547) can0 165#0908800000000382
(1487076725.294547) can0 2B0#FD06000765
(1487076725.298344) can0 153#200000FF00FFC0DE
(1487076725.301321) can0 316#059D0000002F007F
(1487076725.302399) can0 080#001700009D2F004D
(1487076725.302400) can0 081#40000000000000FD
(1487076725.302400) can0 18F#002C000000720000
(1487076725.302401) can0 260#0500000014A75F10
(1487076725.303525) can0 2A0#A2005D806C12A900
(1487076725.303525) can0 329#0F60810E11320010
(1487076725.303526) can0 2C0#0000000000000000
(1487076725.303526) can0 545#DF00005E54FE54FE
(1487076725.303527) can0 220#F50300000000E00F
(1487076725.304617) can0 164#0008000000000A02
(1487076725.304617) can0 1F1#0000000000000000
(1487076725.304618) can0 2B0#FD06000756
(1487076725.304618) can0 165#0908800000000485
(1487076725.308340) can0 153#200000FF00FFD0EE
(1487076725.309422) can0 4B0#00C0004000000000
(1487076725.309423) can0 4F0#0000040000121402
(1487076725.309423) can0 4F1#CCFF000000000000
(1487076725.311366) can0 316#059D0000002F007F
(1487076725.312464) can0 080#001700009D2F003E
(1487076725.312465) can0 081#40000000000000EE
(1487076725.312465) can0 18F#002C000000720000
(1487076725.312466) can0 260#0500000014A75F2F
(1487076725.313587) can0 2A0#C2005D806C12A900
(1487076725.313587) can0 329#4F60810E11320010
(1487076725.313588) can0 2C0#0000000000000000
(1487076725.313588) can0 545#DF00005F54FE54FE
(1487076725.313588) can0 220#F50300000000F30F
(1487076725.314671) can0 164#0008000000000B03
(1487076725.314671) can0 2B0#FD06000747
(1487076725.314672) can0 5E4#040000
(1487076725.314672) can0 165#0908800000000584
(1487076725.318342) can0 153#200000FF00FFE0FE
(1487076725.321154) can0 316#059D0000002F007F
(1487076725.322241) can0 080#001700009D2F002F
(1487076725.322242) can0 081#40000000000000DF
(1487076725.322242) can0 18F#002B000000720000
(1487076725.322243) can0 260#0500000014A75F3E
(1487076725.323366) can0 2A0#62005D806C12A900
(1487076725.323367) can0 329#4F60810E11320010
(1487076725.323367) can0 165#0908800000000687
(1487076725.323367) can0 2B0#FD060007B8
(1487076725.323368) can0 2C0#0000000000000000
(1487076725.324440) can0 220#F50300000200F30F
(1487076725.324440) can0 164#0008000000000C04
(1487076725.324441) can0 1F1#0000000000000000
(1487076725.324441) can0 545#DF00005F54FE54FE
(1487076725.328338) can0 153#200000FF00FF001E
(1487076725.329464) can0 4B0#0000008000000000
(1487076725.329465) can0 4F0#0000060000121402
(1487076725.329468) can0 4F1#CCFF000000000000
(1487076725.330526) can0 690#4000400000201C00
(1487076725.331652) can0 5F0#0100
(1487076725.331652) can0 316#059D0000002F007F
(1487076725.331653) can0 080#001700009D2F0010
(1487076725.332755) can0 081#40000000000000C0
(1487076725.332756) can0 18F#002C000000720000
(1487076725.332756) can0 260#0500000014A75F01
(1487076725.332756) can0 165#0908800000000786
(1487076725.332757) can0 2A0#02005D806C12A900
(1487076725.333866) can0 2B0#FF06000789
(1487076725.333867) can0 2C0#0000000000000000
(1487076725.333867) can0 329#4F60810E11320010
(1487076725.333867) can0 220#F50300000000E00F
(1487076725.333868) can0 164#0008000000000D05
(1487076725.334941) can0 545#DF00005F54FE54FE
(1487076725.338339) can0 153#200000FF00FF102E
(1487076725.341400) can0 316#059D0000002F007F
(1487076725.342467) can0 080#001700009D2F0001
(1487076725.342468) can0 081#40000000000000B1
(1487076725.342468) can0 165#0908800000000889
(1487076725.342469) can0 18F#002B000000720000
(1487076725.343617) can0 260#0500000014A75F10
(1487076725.343618) can0 2A0#A2005D806C12A900
(1487076725.343618) can0 2B0#FD0600079A
(1487076725.343618) can0 2C0#0000000000000000
(1487076725.343619) can0 220#F50300000000C70F
(1487076725.344690) can0 164#0008000000000E06
(1487076725.344691) can0 1F1#0000000000000000
(1487076725.344691) can0 329#4F60810E11320010
(1487076725.344692) can0 545#DF00005F54FE54FE
(1487076725.348342) can0 153#200000FF00FF203E
(1487076725.349442) can0 4B0#0040008000000000
(1487076725.349442) can0 4F0#0000080000121402
(1487076725.349443) can0 4F1#CCFF000000000000
(1487076725.351367) can0 165#0908800000000988
(1487076725.352465) can0 18F#002C000000720000
(1487076725.352466) can0 080#001700009D2F00F2
(1487076725.352466) can0 081#40000000000000A2
(1487076725.352467) can0 260#0500000014A75F2F
(1487076725.353567) can0 2A0#C2005D806C12A900
(1487076725.353568) can0 2B0#FD0600078B
(1487076725.353568) can0 2C0#0000000000000000
(1487076725.353568) can0 316#059D0000002F007F
(1487076725.353569) can0 220#F50300000000D40F
(1487076725.354651) can0 164#0008000000000F07
(1487076725.354652) can0 329#4F60810E11320010
(1487076725.354652) can0 545#DF00005E54FE54FE
(1487076725.358341) can0 153#200000FF00FF304E
(1487076725.360945) can0 165#0908800000000A8B
(1487076725.362047) can0 2B0#FD060007FC
(1487076725.362048) can0 316#059D0000002F007F
(1487076725.362048) can0 18F#002B000000720000
(1487076725.362049) can0 080#001700009D2F00E3
(1487076725.363149) can0 081#4000000000000093
(1487076725.363150) can0 260#0500000014A75F3E
(1487076725.363151) can0 2A0#62005D806C12A900
(1487076725.363151) can0 329#4F60810E11320010
(1487076725.363151) can0 2C0#0000000000000000
(1487076725.364242) can0 545#DF00005F54FE54FE
(1487076725.364243) can0 220#F50300000000D40F
(1487076725.364243) can0 164#0008000000000008
(1487076725.364244) can0 1F1#0000000000000000
(1487076725.368368) can0 153#200000FF00FF405E
(1487076725.369439) can0 4B0#0080008000000000
(1487076725.369440) can0 4F0#00000A0000121402
(1487076725.369440) can0 4F1#CCFF000000000000
(1487076725.370566) can0 165#0908800000000B8A
(1487076725.371690) can0 2B0#FD060007ED
(1487076725.371691) can0 316#059D0000002F007F
(1487076725.371692) can0 080#001700009D2F00D4
(1487076725.372795) can0 081#4000000000000084
(1487076725.372795) can0 18F#002C000000720000
(1487076725.372796) can0 260#0500000014A75F01
(1487076725.372796) can0 2A0#02005D806C12A900
(1487076725.372796) can0 329#8060810E11320010
(1487076725.373880) can0 545#DF00005E54FE54FE
(1487076725.373883) can0 2C0#0000000000000000
(1487076725.373884) can0 220#F50300000000D40F
(1487076725.373884) can0 164#0008000000000109
(1487076725.378370) can0 153#200000FF00FF506E
(1487076725.379440) can0 5F0#0100
(1487076725.380525) can0 165#0908800000000C8D
(1487076725.380526) can0 2B0#FD060007DE
(1487076725.381640) can0 316#059D0000002F007F
(1487076725.381642) can0 080#001700009D2F00C5
(1487076725.382758) can0 081#4000000000000075
(1487076725.382759) can0 18F#002C000000720000
(1487076725.382760) can0 260#0500000014A75F10
(1487076725.382761) can0 2A0#A2005D806C12A900
(1487076725.383884) can0 329#8060810E11320010
(1487076725.383885) can0 2C0#0000000000000000
(1487076725.383885) can0 545#DF00005E54FE54FE
(1487076725.383886) can0 220#F50300000000E00F
(1487076725.383886) can0 164#000800000000020A
(1487076725.384962) can0 1F1#0000000000000000
(1487076725.384963) can0 0A0#0040000000280000
(1487076725.384964) can0 0A1#8080808066000000
(1487076725.388434) can0 153#200000FF00FF607E
(1487076725.389523) can0 4B0#00C0008000000000
(1487076725.389524) can0 4F0#00000C0000121402
(1487076725.389525) can0 4F1#CCFF000000000000
(1487076725.390516) can0 165#0908800000000D8C
(1487076725.390518) can0 2B0#FD060007CF
(1487076725.391660) can0 316#059D0000002F007F
(1487076725.391661) can0 080#001700009D2F00B6
(1487076725.392800) can0 081#4000000000000066
(1487076725.392801) can0 18F#002B000000720000
(1487076725.392802) can0 260#0500000014A75F2F
(1487076725.392803) can0 2A0#C2005D806C12A900
(1487076725.393897) can0 329#8060810E11320010
(1487076725.393898) can0 2C0#0000000000000000
(1487076725.393899) can0 545#DF00005E54FE54FE
(1487076725.393899) can0 220#F50300000000E00F
(1487076725.393899) can0 164#000800000000030B
(1487076725.398405) can0 153#200000FF00FF708E
(1487076725.399479) can0 165#0908800000000E8F
(1487076725.399480) can0 2B0#FD06000730
(1487076725.401214) can0 316#059D0000002F007F
(1487076725.402303) can0 080#001700009D2F00A7
(1487076725.402304) can0 081#4000000000000057
(1487076725.402304) can0 18F#002C000000720000
(1487076725.402305) can0 260#0500000014A75F3E
(1487076725.403428) can0 2A0#62005D806C12A900
(1487076725.403429) can0 329#8060810E11320010
(1487076725.403430) can0 545#DF00005E54FE54FE
(1487076725.403430) can0 2C0#0000000000000000
(1487076725.403430) can0 220#F50300000000C10F
(1487076725.404507) can0 164#000800000000040C
(1487076725.404508) can0 1F1#0000000000000000
(1487076725.408353) can0 153#200000FF00FF809E
(1487076725.409492) can0 4B0#000000C000000000
(1487076725.409493) can0 165#0908800000000F8E
(1487076725.409493) can0 2B0#FD06000721
(1487076725.409494) can0 4F0#00000E0000121402
(1487076725.410567) can0 4F1#CCFF000000000000
(1487076725.411602) can0 316#059D0000002F007F
(1487076725.411603) can0 080#001700009D2F0098
(1487076725.412775) can0 081#4000000000000048
(1487076725.412776) can0 18F#002B000000720000
(1487076725.412777) can0 260#0500000014A75F01
(1487076725.412777) can0 2A0#02005D806C12A900
(1487076725.412778) can0 329#8060810E11320010
(1487076725.413903) can0 2C0#0000000000000000
(1487076725.413904) can0 545#DF00005F54FE54FE
(1487076725.413904) can0 220#F50300000000C10F
(1487076725.413905) can0 164#000800000000050D
(1487076725.413905) can0 5E4#040000
(1487076725.418388) can0 165#0908800000000081
(1487076725.419414) can0 153#200000FF00FF90AE
(1487076725.419420) can0 2B0#FD06000712
(1487076725.421426) can0 316#059D0000002F007F
(1487076725.422500) can0 080#001700009D2F0089
(1487076725.422501) can0 081#4000000000000039
(1487076725.422501) can0 18F#002C000000720000
(1487076725.422502) can0 260#0500000014A75F10
(1487076725.423567) can0 2A0#A2005D806C12A900
(1487076725.423568) can0 329#8060810E11320010
(1487076725.423568) can0 2C0#0000000000000000
(1487076725.423569) can0 545#DF00005F54FE54FE
(1487076725.423569) can0 220#F50300000000E60F
(1487076725.424691) can0 164#000800000000060E
(1487076725.424692) can0 1F1#0000000000000000
(1487076725.426909) can0 5F0#0100
(1487076725.428026) can0 165#0908800000000180
(1487076725.429034) can0 2B0#FD06000703
(1487076725.429035) can0 153#200000FF00FFA0BE
(1487076725.429036) can0 4B0#004000C000000000
(1487076725.430217) can0 4F0#0000100000121402
(1487076725.430218) can0 4F1#CCFF000000000000
(1487076725.430218) can0 690#4000400000202000
(1487076725.431400) can0 316#059D0000002F007F
(1487076725.432485) can0 080#001700009D2F007A
(1487076725.432486) can0 081#400000000000002A
(1487076725.432486) can0 18F#002C000000720000
(1487076725.432487) can0 260#0500000014A75F2F
(1487076725.433588) can0 2A0#C2005D806C12A900
(1487076725.433589) can0 329#D760810E11320010
(1487076725.433589) can0 2C0#0000000000000000
(1487076725.433590) can0 545#DF00005F54FE54FE
(1487076725.433590) can0 220#F50300000000E00F
(1487076725.434684) can0 164#000800000000070F
(1487076725.437585) can0 165#0908800000000283
(1487076725.438678) can0 2B0#FD06000774
(1487076725.438679) can0 153#200000FF00FFB0CE
(1487076725.441316) can0 316#059D0000002F007F
(1487076725.442400) can0 080#001700009D2F006B
(1487076725.442401) can0 081#400000000000001B
(1487076725.442401) can0 18F#002C000000720000
(1487076725.442402) can0 260#0500000014A75F3E
(1487076725.443489) can0 2A0#62005D806C12A900
(1487076725.443490) can0 329#D760810E11320010
(1487076725.443491) can0 2C0#0000000000000000
(1487076725.443491) can0 545#DF00005F54FE54FE
(1487076725.443492) can0 220#F50300000000E00F
(1487076725.444589) can0 164#0008000000000800
(1487076725.444590) can0 1F1#0000000000000000
(1487076725.447179) can0 165#0908800000000382
(1487076725.448259) can0 2B0#FD06000765
(1487076725.449339) can0 153#200000FF00FFC0DE
(1487076725.449341) can0 4B0#008000C000000000
(1487076725.449341) can0 4F0#0000120000121402
(1487076725.449341) can0 4F1#CCFF000000000000
(1487076725.451343) can0 316#059D0000002F007F
(1487076725.452446) can0 080#001700009D2F005C
(1487076725.452447) can0 081#400000000000000C
(1487076725.452448) can0 18F#002C000000720000
(1487076725.452448) can0 260#0500000014A75F01
(1487076725.453554) can0 2A0#02005D806C12A900
(1487076725.453555) can0 329#D760810E11320010
(1487076725.453556) can0 2C0#0000000000000000
(1487076725.453556) can0 545#DF00005E54FE54FE
(1487076725.453557) can0 220#F50300000000E60F
(1487076725.454629) can0 164#0008000000000901
(1487076725.456688) can0 165#0908800000000485
(1487076725.457816) can0 2B0#FD06000756
(1487076725.458899) can0 153#200000FF00FFD0EE
(1487076725.461407) can0 316#059D0000002F007F
(1487076725.462464) can0 080#001700009D2F004D
(1487076725.462465) can0 081#40000000000000FD
(1487076725.462466) can0 18F#002B000000720000
(1487076725.462466) can0 260#0500000014A75F10
(1487076725.463591) can0 2A0#A2005D806C12A900
(1487076725.463596) can0 329#D760810E11320010
(1487076725.463597) can0 2C0#0000000000000000
(1487076725.463597) can0 545#DF00005F54FE54FE
(1487076725.463598) can0 220#F50300000000E60F
(1487076725.464678) can0 164#0008000000000A02
(1487076725.464679) can0 1F1#0000000000000000
(1487076725.466324) can0 165#0908800000000584
(1487076725.467382) can0 2B0#FD06000747
(1487076725.468464) can0 153#200000FF00FFE0FE
(1487076725.469557) can0 4B0#0000000000000000
(1487076725.469558) can0 4F0#0000140000121402
(1487076725.469558) can0 4F1#CCFF000000000000
(1487076725.471431) can0 316#059D0000002F007F
(1487076725.472504) can0 080#001700009D2F003E
(1487076725.472505) can0 081#40000000000000EE
(1487076725.472505) can0 18F#002C000000720000
(1487076725.472506) can0 260#0500000014A75F2F
(1487076725.473610) can0 2A0#C2005D806C12A900
(1487076725.473611) can0 329#D760810E11320010
(1487076725.473612) can0 2C0#0000000000000000
(1487076725.473612) can0 545#DF00005E54FE54FE
(1487076725.473612) can0 220#F50300000000BB0F
(1487076725.474695) can0 164#0008000000000B03
(1487076725.475783) can0 5F0#0100
(1487076725.476863) can0 165#0908800000000687
(1487076725.476864) can0 2B0#FD060007B8
(1487076725.478445) can0 153#200000FF00FF001E
(1487076725.481239) can0 316#059D0000002F007F
(1487076725.482318) can0 080#001700009D2F002F
(1487076725.482319) can0 081#40000000000000DF
(1487076725.482319) can0 18F#002C000000720000
(1487076725.482320) can0 260#0500000014A75F3E
(1487076725.483444) can0 2A0#62005D806C12A900
(1487076725.483445) can0 329#D760810E11320010
(1487076725.483446) can0 545#DF00005F54FE54FE
(1487076725.483446) can0 2C0#0000000000000000
(1487076725.483447) can0 220#F50300000000CD0F
(1487076725.484526) can0 164#0008000000000C04
(1487076725.484527) can0 1F1#0000000000000000
(1487076725.485609) can0 0A0#0040000000280000
(1487076725.485610) can0 0A1#8080808066000000
(1487076725.486625) can0 2B0#FD060007A9
(1487076725.486626) can0 165#0908800000000786
(1487076725.488436) can0 153#200000FF00FF102E
(1487076725.489491) can0 4B0#0040000000000000
(1487076725.489492) can0 4F0#0000160000121402
(1487076725.489492) can0 4F1#CCFF000000000000
(1487076725.491208) can0 316#059D0000002F007F
(1487076725.492356) can0 080#001700009D2F0010
(1487076725.492357) can0 081#40000000000000C0
(1487076725.492357) can0 18F#002C000000720000
(1487076725.492358) can0 260#0500000014A75F01
(1487076725.493489) can0 2A0#02005D806C12A900
(1487076725.493490) can0 329#0F60810E11320010
(1487076725.493491) can0 545#DF00005F54FE54FE
(1487076725.493491) can0 2C0#0000000000000000
(1487076725.493492) can0 220#F50300000000C70F
(1487076725.494555) can0 164#0008000000000D05
(1487076725.495633) can0 165#0908800000000889
(1487076725.495634) can0 2B0#FD0600079A
(1487076725.498432) can0 153#200000FF00FF203E
(1487076725.501452) can0 316#059D0000002F007F
(1487076725.502567) can0 080#001700009D2F0001
(1487076725.502568) can0 081#40000000000000B1
(1487076725.502569) can0 18F#002C000000720000
(1487076725.502570) can0 260#0500000014A75F10
(1487076725.503651) can0 2A0#A2005D806C12A900
(1487076725.503652) can0 329#0F60810E11320010
(1487076725.503652) can0 2C0#0000000000000000
(1487076725.503653) can0 545#DF00005E54FE54FE
(1487076725.503653) can0 220#F50300000000C70F
(1487076725.504777) can0 164#0008000000000E06
(1487076725.504778) can0 1F1#0000000000000000
(1487076725.504784) can0 165#0908800000000988
(1487076725.504784) can0 2B0#FF060007AB
(1487076725.508436) can0 153#200000FF00FF304E
(1487076725.509528) can0 4B0#0080000000000000
(1487076725.509529) can0 4F0#0000180000121402
(1487076725.509529) can0 4F1#CCFF000000000000
(1487076725.511403) can0 316#059D0000002F007F
(1487076725.512488) can0 080#001700009D2F00F2
(1487076725.512489) can0 081#40000000000000A2
(1487076725.512490) can0 18F#002C000000720000
(1487076725.512490) can0 260#0500000014A75F2F
(1487076725.513574) can0 2A0#C2005D806C12A900
(1487076725.513575) can0 329#0F60810E11320010
(1487076725.513576) can0 2C0#0000000000000000
(1487076725.513576) can0 545#DF00005F54FE54FE
(1487076725.513577) can0 220#F50300000000C70F
(1487076725.514694) can0 164#0008000000000F07
(1487076725.514695) can0 5E4#040000
(1487076725.514695) can0 2B0#FD060007FC
(1487076725.514696) can0 165#0908800000000A8B
(1487076725.518434) can0 153#200000FF00FF405E
(1487076725.521186) can0 316#059D0000002F007F
(1487076725.522305) can0 080#001700009D2F00E3
(1487076725.522306) can0 081#4000000000000093
(1487076725.522307) can0 18F#002C000000720000
(1487076725.522307) can0 260#0500000014A75F3E
(1487076725.523431) can0 2A0#62005D806C12A900
(1487076725.523432) can0 329#0F60810E11320010
(1487076725.523432) can0 545#DF00005E54FE54FE
(1487076725.523432) can0 2C0#0000000000000000
(1487076725.523433) can0 5F0#0100
(1487076725.524524) can0 220#F50300000000E00F
(1487076725.524526) can0 164#0008000000000008
(1487076725.524526) can0 1F1#0000000000000000
(1487076725.524526) can0 2B0#FD060007ED
(1487076725.524527) can0 165#0908800000000B8A
(1487076725.528395) can0 153#200000FF00FF506E
(1487076725.529574) can0 4B0#00C0000000000000
(1487076725.529575) can0 4F0#00001A0000121402
(1487076725.529575) can0 4F1#CCFF000000000000
(1487076725.530634) can0 690#4000400000202400
(1487076725.531714) can0 316#059D0000002F007F
(1487076725.531716) can0 080#001700009D2F00D4
(1487076725.532836) can0 081#4000000000000084
(1487076725.532838) can0 18F#002C000000720000
(1487076725.532838) can0 260#0500000014A75F01
(1487076725.532839) can0 2A0#02005D806C12A900
(1487076725.532840) can0 329#0F60810E11320010
(1487076725.533966) can0 2C0#0000000000000000
(1487076725.533967) can0 545#DF00005F54FE54FE
(1487076725.533968) can0 165#0908800000000C8D
(1487076725.533968) can0 220#F50300000000E00F
(1487076725.533968) can0 164#0008000000000109
(1487076725.535055) can0 2B0#FD060007DE
(1487076725.538430) can0 153#200000FF00FF607E
(1487076725.541495) can0 316#059D0000002F007F
(1487076725.542498) can0 080#001700009D2F00C5
(1487076725.542499) can0 081#4000000000000075
(1487076725.542499) can0 18F#002C000000720000
(1487076725.542500) can0 260#0500000014A75F10
(1487076725.543641) can0 2A0#A2005D806C12A900
(1487076725.543642) can0 165#0908800000000D8C
(1487076725.543642) can0 2B0#FD060007CF
(1487076725.543643) can0 2C0#0000000000000000
(1487076725.543643) can0 220#F50300000000E60F
(1487076725.544776) can0 164#000800000000020A
(1487076725.544777) can0 1F1#0000000000000000
(1487076725.544777) can0 329#0F60810E11320010
(1487076725.544778) can0 545#DF00005F54FE54FE
(1487076725.548432) can0 153#200000FF00FF708E
(1487076725.549531) can0 4B0#0000004000000000
(1487076725.549532) can0 4F0#00001C0000121402
(1487076725.549532) can0 4F1#CCFF000000000000
(1487076725.551431) can0 316#059D0000002F007F
(1487076725.552530) can0 080#001700009D2F00B6
(1487076725.552531) can0 081#4000000000000066
(1487076725.552532) can0 18F#002C000000720000
(1487076725.552538) can0 165#0908800000000E8F
(1487076725.553602) can0 260#0500000014A75F2F
(1487076725.553603) can0 2A0#C2005D806C12A900
(1487076725.553603) can0 2B0#FD06000730
(1487076725.553603) can0 2C0#0000000000000000
(1487076725.553604) can0 220#F50300000000F30F
(1487076725.554715) can0 164#000800000000030B
(1487076725.554716) can0 329#4F60810E11320010
(1487076725.554717) can0 545#DF00005E54FE54FE
(1487076725.558430) can0 153#200000FF00FF809E
(1487076725.561240) can0 316#059D0000002F007F
(1487076725.562320) can0 080#001700009D2F00A7
(1487076725.562322) can0 081#4000000000000057
(1487076725.562322) can0 165#0908800000000F8E
(1487076725.562323) can0 18F#002C000000720000
(1487076725.563402) can0 260#0500000014A75F3E
(1487076725.563403) can0 2A0#62005D806C12A900
(1487076725.563404) can0 2B0#FD06000721
(1487076725.563404) can0 2C0#0000000000000000
(1487076725.563405) can0 329#4F60810E11320010
(1487076725.564508) can0 220#F50300000000F90F
(1487076725.564509) can0 164#000800000000040C
(1487076725.564510) can0 1F1#0000000000000000
(1487076725.564510) can0 545#DF00005F54FE54FE
(1487076725.568431) can0 153#200000FF00FF90AE
(1487076725.569531) can0 4B0#0040004000000000
(1487076725.569533) can0 4F0#00001E0000121402
(1487076725.569533) can0 4F1#CCFF000000000000
(1487076725.570927) can0 5F0#0100
(1487076725.572060) can0 316#059D0000002F007F
(1487076725.572061) can0 080#001700009D2F0098
(1487076725.572062) can0 081#4000000000000048
(1487076725.572062) can0 18F#002B000000720000
(1487076725.573148) can0 260#0500000014A75F01
(1487076725.573149) can0 2A0#02005D806C12A900
(1487076725.573150) can0 2B0#FF06000732
(1487076725.573150) can0 165#0908800000000081
(1487076725.574257) can0 2C0#0000000000000000
(1487076725.574258) can0 329#4F60810E11320010
(1487076725.574259) can0 220#F50300000000E60F
(1487076725.574259) can0 164#000800000000050D
(1487076725.574260) can0 545#DF00005E54FE54FE
(1487076725.578445) can0 153#200000FF00FFA0BE
(1487076725.581052) can0 165#0908800000000180
(1487076725.582178) can0 2B0#FD06000703
(1487076725.582179) can0 316#059D0000002F007F
(1487076725.582180) can0 080#001700009D2F0089
(1487076725.582180) can0 081#4000000000000039
(1487076725.583277) can0 18F#002B000000720000
(1487076725.583278) can0 260#0500000014A75F10
(1487076725.583278) can0 0A0#0040000000280000
(1487076725.583279) can0 0A1#8080808066000000
(1487076725.583279) can0 2A0#A2005D806C12A900
(1487076725.584386) can0 2C0#0000000000000000
(1487076725.584387) can0 220#F50300000000E60F
(1487076725.584388) can0 164#000800000000060E
(1487076725.584388) can0 1F1#0000000000000000
(1487076725.584389) can0 329#4F60810E11320010
(1487076725.585466) can0 545#DF00005F54FE54FE
(1487076725.588449) can0 153#200000FF00FFB0CE
(1487076725.589529) can0 4B0#0080004000000000
(1487076725.589530) can0 4F0#0000200000121402
(1487076725.589530) can0 4F1#CCFF000000000000
(1487076725.590594) can0 165#0908800000000283
(1487076725.591614) can0 2B0#FD06000774
(1487076725.591615) can0 316#059D0000002F007F
(1487076725.591616) can0 080#001700009D2F007A
(1487076725.592801) can0 081#400000000000002A
(1487076725.592802) can0 18F#002C000000720000
(1487076725.592803) can0 260#0500000014A75F2F
(1487076725.592803) can0 2A0#C2005D806C12A900
(1487076725.593902) can0 329#4F60810E11320010
(1487076725.593903) can0 2C0#0000000000000000
(1487076725.593909) can0 545#DF00005F54FE54FE
(1487076725.593909) can0 220#F50300000000DA0F
(1487076725.593910) can0 164#000800000000070F
(1487076725.598448) can0 153#200000FF00FFC0DE
(1487076725.600113) can0 165#0908800000000382
(1487076725.601215) can0 2B0#FD06000765
(1487076725.602255) can0 316#059D0000002F007F
(1487076725.602256) can0 080#001700009D2F006B
(1487076725.602256) can0 081#400000000000001B
(1487076725.602256) can0 18F#002B000000720000
(1487076725.602257) can0 260#0500000014A75F3E
(1487076725.603431) can0 2A0#62005D806C12A900
(1487076725.603433) can0 329#4F60810E11320010
(1487076725.603433) can0 545#DF00005F54FE54FE
(1487076725.603433) can0 2C0#0000000000000000
(1487076725.604506) can0 220#F50300000000DA0F
(1487076725.604507) can0 164#0008000000000800
(1487076725.604507) can0 1F1#0000000000000000
(1487076725.608396) can0 153#200000FF00FFD0EE
(1487076725.609472) can0 4B0#00C0004000000000
(1487076725.609473) can0 4F0#0000220000121402
(1487076725.609473) can0 4F1#CCFF000000000000
(1487076725.610570) can0 165#0908800000000485
(1487076725.610571) can0 2B0#FF06000776
(1487076725.611706) can0 316#059D0000002F007F
(1487076725.611707) can0 080#001700009D2F005C
(1487076725.612806) can0 081#400000000000000C
(1487076725.612807) can0 18F#002C000000720000
(1487076725.612808) can0 260#0500000014A75F01
(1487076725.612808) can0 2A0#02005D806C12A900
(1487076725.612808) can0 329#8060810E11320010
(1487076725.613882) can0 2C0#0000000000000000
(1487076725.613883) can0 545#DF00005F54FE54FE
(1487076725.613884) can0 220#F50300000000DA0F
(1487076725.613884) can0 164#0008000000000901
(1487076725.614967) can0 5E4#040000
(1487076725.618436) can0 153#200000FF00FFE0FE
(1487076725.619529) can0 5F0#0100
(1487076725.619531) can0 165#0908800000000584
(1487076725.619531) can0 2B0#FD06000747
(1487076725.621422) can0 316#059D0000002F007F
(1487076725.622495) can0 080#001700009D2F004D
(1487076725.622496) can0 081#40000000000000FD
(1487076725.622497) can0 18F#002B000000720000
(1487076725.622497) can0 260#0500000014A75F10
(1487076725.623614) can0 2A0#A2005D806C12A900
(1487076725.623616) can0 329#8060810E11320010
(1487076725.623616) can0 2C0#0000000000000000
(1487076725.623616) can0 545#DF00005E54FE54FE
(1487076725.623617) can0 220#F50300000000E00F
(1487076725.624697) can0 164#0008000000000A02
(1487076725.624698) can0 1F1#0000000000000000
(1487076725.628449) can0 153#200000FF00FF001E
(1487076725.629529) can0 4B0#0000008000000000
(1487076725.629530) can0 165#0908800000000687
(1487076725.629531) can0 2B0#FD060007B8
(1487076725.629531) can0 4F0#0000240000121402
(1487076725.630614) can0 4F1#CCFF000000000000
(1487076725.630615) can0 690#4000400000202800
(1487076725.631700) can0 316#059D0000002F007F
(1487076725.631701) can0 080#001700009D2F003E
(1487076725.632768) can0 081#40000000000000EE
(1487076725.632769) can0 18F#002C000000720000
(1487076725.632769) can0 260#0500000014A75F2F
(1487076725.632770) can0 2A0#C2005D806C12A900
(1487076725.632770) can0 329#8060810E11320010
(1487076725.633905) can0 2C0#0000000000000000
(1487076725.633906) can0 545#DF00005F54FE54FE
(1487076725.633906) can0 220#F50300000000A80F
(1487076725.633907) can0 164#0008000000000B03
(1487076725.638447) can0 153#200000FF00FF102E
(1487076725.639529) can0 2B0#FD060007A9
(1487076725.639530) can0 165#0908800000000786
(1487076725.641276) can0 316#059D0000002F007F
(1487076725.642385) can0 080#001700009D2F002F
(1487076725.642386) can0 081#40000000000000DF
