(1487087109.709599) can0 0A0#0061000000280000
(1487087109.710674) can0 0A1#8082808066000000
(1487087109.718543) can0 316#31C000000025007F
(1487087109.719622) can0 080#00170000C0250041
(1487087109.719623) can0 081#40000000000000B1
(1487087109.719623) can0 18F#003C000000640000
(1487087109.719624) can0 260#1100000001975F18
(1487087109.720704) can0 2A0#A20062806E12A900
(1487087109.720705) can0 329#0F8D810E11320010
(1487087109.720705) can0 545#D800007CB1FEB1FE
(1487087109.728517) can0 316#310F00000025007F
(1487087109.729610) can0 080#001700000F250002
(1487087109.729611) can0 081#40000000000000A2
(1487087109.729611) can0 18F#003C000000640000
(1487087109.729611) can0 260#1200000001975F26
(1487087109.730686) can0 2A0#C20062806E12A900
(1487087109.730687) can0 329#0F8D810E11320010
(1487087109.730687) can0 545#D8000079B1FEB1FE
(1487087109.737806) can0 5E4#040000
(1487087109.738886) can0 316#310F00000025007F
(1487087109.738887) can0 080#001700000F2500F3
(1487087109.738888) can0 081#4000000000000093
(1487087109.740013) can0 18F#003C0000005B0000
(1487087109.740015) can0 260#0F00000001975F39
(1487087109.740015) can0 2A0#620062806E12A900
(1487087109.740015) can0 329#0F8D810E113F0010
(1487087109.740016) can0 545#D8000079B1FEB1FE
(1487087109.748429) can0 316#318B00000025007F
(1487087109.749508) can0 080#001700008B2500A4
(1487087109.749509) can0 081#4000000000000084
(1487087109.749509) can0 18F#003C0000005B0000
(1487087109.749510) can0 260#0F00000001975F0C
(1487087109.750550) can0 2A0#020062806E12A900
(1487087109.750551) can0 329#0F8D810E11440010
(1487087109.750551) can0 545#DA000079B1FEB1FE
(1487087109.758480) can0 316#318B00000025007F
(1487087109.759541) can0 080#001700008B250095
(1487087109.759542) can0 081#4000000000000075
(1487087109.759542) can0 18F#003C0000005B0000
(1487087109.759547) can0 260#0E00000001975F1C
(1487087109.760626) can0 2A0#A20062806E12A900
(1487087109.760628) can0 329#0F8D810E114A0010
(1487087109.760628) can0 545#DA000078B1FEB1FE
(1487087109.761720) can0 0A0#0061000000280000
(1487087109.761721) can0 0A1#8082808066000000
(1487087109.768368) can0 316#319200000025007F
(1487087109.769433) can0 080#0017000092250006
(1487087109.769434) can0 081#4000000000000066
(1487087109.769435) can0 18F#003C0000005B0000
(1487087109.769436) can0 260#0E00000001975F2B
(1487087109.770538) can0 2A0#C20062806E12A900
(1487087109.770539) can0 329#4F8D810E114D0010
(1487087109.770540) can0 545#DA000076B1FEB1FE
(1487087109.778198) can0 316#319200000025007F
(1487087109.779349) can0 080#00170000922500F7
(1487087109.779350) can0 081#4000000000000057
(1487087109.779350) can0 18F#003C0000005B0000
(1487087109.779351) can0 260#0D00000001975F3B
(1487087109.780434) can0 2A0#620062806E12A900
(1487087109.780435) can0 329#4F8D810E114E0010
(1487087109.780435) can0 545#DA000073B1FEB1FE
(1487087109.788371) can0 316#319400000025007F
(1487087109.789475) can0 080#00170000942500C8
(1487087109.789476) can0 081#4000000000000048
(1487087109.789476) can0 18F#003C0000005B0000
(1487087109.789477) can0 260#0D00000001975F0E
(1487087109.790537) can0 2A0#020062806E12A900
(1487087109.790538) can0 329#4F8D810E114D0010
(1487087109.790539) can0 545#DA000050B1FEB1FE
(1487087109.794865) can0 4F0#0000000000121402
(1487087109.796009) can0 4F1#C8FF000000000000
(1487087109.796010) can0 690#4000400000200000
(1487087109.798528) can0 316#319400000025007F
(1487087109.799656) can0 080#00170000942500B9
(1487087109.799658) can0 081#4000000000000039
(1487087109.799658) can0 18F#003C0000005B0000
(1487087109.799659) can0 260#0C00000001975F1E
(1487087109.800737) can0 2A0#A20062806E12A900
(1487087109.800738) can0 329#4F8D810E11480010
(1487087109.800738) can0 545#DA00004CB1FEB1FE
(1487087109.808421) can0 316#319400000025007F
(1487087109.809502) can0 080#00170000942500AA
(1487087109.809503) can0 081#400000000000002A
(1487087109.809504) can0 18F#003C0000005B0000
(1487087109.809504) can0 260#0C00000001975F2D
(1487087109.810608) can0 2A0#C20062806E12A900
(1487087109.810609) can0 329#4F8D810E11430010
(1487087109.810610) can0 545#DA000052B1FEB1FE
(1487087109.814733) can0 4F0#00FF030000121402
(1487087109.815823) can0 4F1#C8FF000000000000
(1487087109.818296) can0 316#319400000025007F
(1487087109.819395) can0 080#001700009425009B
(1487087109.819397) can0 081#400000000000001B
(1487087109.819397) can0 18F#003C0000005B0000
(1487087109.819397) can0 260#0C00000001975F3C
(1487087109.820482) can0 2A0#620062806E12A900
(1487087109.820484) can0 329#4F8D810E113D0010
(1487087109.820484) can0 545#DA000055B1FEB1FE
(1487087109.828373) can0 316#319200000025007F
(1487087109.829454) can0 080#00170000922500AC
(1487087109.829455) can0 081#400000000000000C
(1487087109.829456) can0 18F#003C0000005B0000
(1487087109.829456) can0 260#0B00000001975F00
(1487087109.830536) can0 2A0#020062806E12A900
(1487087109.830537) can0 329#808D810E11360010
(1487087109.830538) can0 545#DA000058B1FEB1FE
(1487087109.830538) can0 5F0#0100
(1487087109.834788) can0 4F0#0000040000121402
(1487087109.835848) can0 4F1#C8FF000000000000
(1487087109.838190) can0 5E4#040000
(1487087109.839283) can0 316#319200000025007F
(1487087109.839284) can0 080#001700009225009D
(1487087109.839284) can0 081#40000000000000FD
(1487087109.839285) can0 18F#003C0000005B0000
(1487087109.840374) can0 260#0B00000001975F1F
(1487087109.840375) can0 2A0#A20062806E12A900
(1487087109.840376) can0 329#808D810E11310010
(1487087109.840376) can0 545#DA00005AB0FEB0FE
(1487087109.848473) can0 316#318F00000025007F
(1487087109.849557) can0 080#001700008F2500CE
(1487087109.849558) can0 081#40000000000000EE
(1487087109.849559) can0 18F#003C0000005B0000
(1487087109.849564) can0 260#0B00000001975F2E
(1487087109.850631) can0 2A0#C20062806E12A900
(1487087109.850632) can0 329#808D810E112F0010
(1487087109.850633) can0 545#DA00005BB0FEB0FE
(1487087109.854715) can0 4F0#0000060000121402
(1487087109.855754) can0 4F1#C8FF000000000000
(1487087109.858362) can0 316#318E00000025007F
(1487087109.859462) can0 080#001700008E2500CF
(1487087109.859464) can0 081#40000000000000DF
(1487087109.859464) can0 18F#003C0000005B0000
(1487087109.859465) can0 260#0A00000001975F3E
(1487087109.860557) can0 2A0#620062806E12A900
(1487087109.860559) can0 329#808D810E112A0010
(1487087109.860559) can0 545#DA00005CB0FEB0FE
(1487087109.861631) can0 0A0#0061000000280000
(1487087109.861632) can0 0A1#8082808065000000
(1487087109.868304) can0 316#318E1C020025007F
(1487087109.869378) can0 080#00171C028E2500C0
(1487087109.869379) can0 081#40000000000000C0
(1487087109.869380) can0 18F#003C0000005B0000
(1487087109.869381) can0 260#0A00001001975F00
(1487087109.870462) can0 2A0#020062806E12A900
(1487087109.870463) can0 329#808D810C112A0010
(1487087109.870464) can0 545#DA00005BB0FEB0FE
(1487087109.871751) can0 2B0#FF7FFF0080
(1487087109.874722) can0 4F0#0000080000121402
(1487087109.875802) can0 4F1#C8FF000000000000
(1487087109.877546) can0 5F0#0100
(1487087109.878625) can0 316#318E1C020025007F
(1487087109.879724) can0 080#00171C028E2500B1
(1487087109.879725) can0 081#40000000000000B1
(1487087109.879726) can0 18F#003C0000005B0000
(1487087109.879727) can0 260#0A00001001975F1F
(1487087109.879727) can0 2A0#A20062806E12A900
(1487087109.880789) can0 329#808D810C112A0010
(1487087109.880790) can0 545#DA00005BB0FEB0FE
(1487087109.881891) can0 2B0#FF7FFF06E0
(1487087109.888432) can0 316#318E22020025007F
(1487087109.889513) can0 080#001722028E250032
(1487087109.889514) can0 081#40000000000000A2
(1487087109.889515) can0 18F#003C0000005B0000
(1487087109.889515) can0 260#0A00001001975F2E
(1487087109.890596) can0 2A0#C20062806E12A900
(1487087109.890597) can0 329#D78D810C112A0010
(1487087109.890597) can0 545#DA00005BB0FEB0FE
(1487087109.891679) can0 2B0#FF7FFF06E0
(1487087109.894745) can0 4F0#00000A0000121402
(1487087109.895827) can0 4F1#C8FF000000000000
(1487087109.895828) can0 690#4000400000000400
(1487087109.898342) can0 316#318E22020025007F
(1487087109.899428) can0 080#001722028E250023
(1487087109.899429) can0 081#4000000000000093
(1487087109.899429) can0 18F#003C0000005B0000
(1487087109.899430) can0 260#0900001001975F3E
(1487087109.900542) can0 2A0#620062806E12A900
(1487087109.900544) can0 329#D78D810C112A0010
(1487087109.900544) can0 545#DA00005BB0FEB0FE
(1487087109.900545) can0 2B0#FF7FFF06E0
(1487087109.908304) can0 316#318E24020025007F
(1487087109.909380) can0 080#001724028E2500F4
(1487087109.909381) can0 081#4000000000000084
(1487087109.909381) can0 18F#003C0000005B0000
(1487087109.909382) can0 260#0900001001975F01
(1487087109.910465) can0 2A0#020062806E12A900
(1487087109.910467) can0 329#D78D810C112A0010
(1487087109.910467) can0 545#DA00005DB0FEB0FE
(1487087109.910467) can0 2B0#FF7FFF06E0
(1487087109.914691) can0 4F0#00000C0000121402
(1487087109.915782) can0 4F1#C8FF000000000000
(1487087109.918460) can0 316#318E24020025007F
(1487087109.919540) can0 080#001724028E2500E5
(1487087109.919541) can0 081#4000000000000075
(1487087109.919541) can0 18F#003C0000005B0000
(1487087109.919542) can0 260#0900001001975F10
(1487087109.920626) can0 2A0#A20062806E12A900
(1487087109.920627) can0 2B0#FF7FFF06E0
(1487087109.920628) can0 329#D78D810C11290010
(1487087109.920628) can0 545#DA000060B0FEB0FE
(1487087109.925532) can0 5F0#0100
(1487087109.928480) can0 316#318E44020026007F
(1487087109.929581) can0 080#001744028E2600A6
(1487087109.929582) can0 081#4000000000000066
(1487087109.929582) can0 18F#003C0000005B0000
(1487087109.929583) can0 260#0900001001975F2F
(1487087109.930662) can0 2A0#C20062806E12A900
(1487087109.930663) can0 2B0#FF7FFF06E0
(1487087109.930664) can0 329#D78D810C11290010
(1487087109.930664) can0 545#DA000063A7FEA7FE
(1487087109.934719) can0 4F0#00000E0000121402
(1487087109.935811) can0 4F1#C8FF000000000000
(1487087109.938284) can0 316#318E74020026007F
(1487087109.939396) can0 080#001774028E260067
(1487087109.939397) can0 081#4000000000000057
(1487087109.939397) can0 18F#003C0000005B0000
(1487087109.939398) can0 260#0900001001975F3E
(1487087109.940500) can0 2A0#620062806E12A900
(1487087109.940501) can0 2B0#FF7FFF06E0
(1487087109.940502) can0 329#D78D810C11280010
(1487087109.940502) can0 545#DA000065A7FEA7FE
(1487087109.940503) can0 5E4#000000
(1487087109.948200) can0 2B0#FF7FFF06E0
(1487087109.949281) can0 2A0#020062806E12A900
(1487087109.949282) can0 260#0800001001975F02
(1487087109.949283) can0 080#001774028E260058
(1487087109.949283) can0 081#4000000000000048
(1487087109.950392) can0 18F#003C0000005B0000
(1487087109.950393) can0 316#318E74020026007F
(1487087109.950394) can0 329#0F8D810C11280010
(1487087109.950394) can0 545#DA000066A7FEA7FE
(1487087109.954736) can0 4F0#0000100000121402
(1487087109.955803) can0 4F1#C8FF000000000000
(1487087109.957761) can0 2B0#FF7FFF06E0
(1487087109.958840) can0 316#318E74020026007F
(1487087109.958841) can0 080#001774028E260049
(1487087109.959947) can0 081#4000000000000039
(1487087109.959948) can0 18F#003C0000005B0000
(1487087109.959948) can0 260#0800001001975F11
(1487087109.959949) can0 2A0#A20062806E12A900
(1487087109.959950) can0 329#0F8D810C11270010
(1487087109.961026) can0 545#DA000067A7FEA7FE
(1487087109.962761) can0 0A0#FF61440200210000
(1487087109.963838) can0 0A1#8082808065000000
(1487087109.967268) can0 2B0#FF7FFF06E0
(1487087109.968343) can0 316#3184C6020026007F
(1487087109.969436) can0 080#0017C6028426006A
(1487087109.969436) can0 081#400000000000002A
(1487087109.969437) can0 18F#003C0000005B0000
(1487087109.969438) can0 260#0800001001975F20
(1487087109.970520) can0 2A0#C20062806E12A900
(1487087109.970521) can0 329#0F8D810C11270010
(1487087109.970522) can0 545#DA180067A7FEA7FE
(1487087109.973454) can0 5F0#0100
(1487087109.975041) can0 4F0#0000120000121402
(1487087109.976136) can0 4F1#C8FF000000000000
(1487087109.977190) can0 2B0#FF7FFF06E0
(1487087109.978290) can0 316#3184C6020026007F
(1487087109.979380) can0 080#0017C6028426005B
(1487087109.979381) can0 081#400000000000001B
(1487087109.979382) can0 18F#003C0000005B0000
(1487087109.979382) can0 260#0800001001975F3F
(1487087109.980463) can0 2A0#620062806E12A900
(1487087109.980464) can0 329#0F8D810C11290010
(1487087109.980465) can0 545#DA180067A7FEA7FE
(1487087109.982562) can0 2C0#0000000000000000
(1487087109.983594) can0 5A0#0000000000000000
(1487087109.983595) can0 5A1#5442333046422644
(1487087109.983596) can0 5A2#0500A503
(1487087109.986434) can0 2B0#FF7FFF06E0
(1487087109.988309) can0 316#3184C6020026007F
(1487087109.989410) can0 080#0017C6028426004C
(1487087109.989411) can0 081#400000000000000C
(1487087109.989412) can0 18F#003C0000005B0000
(1487087109.989412) can0 260#0800001001975F02
(1487087109.990498) can0 2A0#020062806E12A900
(1487087109.990499) can0 329#0F8D810C11290010
(1487087109.990500) can0 545#DA180067A7FEA7FE
(1487087109.992557) can0 2C0#0000000000000000
(1487087109.994723) can0 4F0#0000140000121402
(1487087109.995831) can0 4F1#C8FF000000000000
(1487087109.995832) can0 690#4000400000000800
(1487087109.996887) can0 2B0#FF7FFF06E0
(1487087109.998490) can0 316#3184C6020026007F
(1487087109.999594) can0 080#0017C6028426003D
(1487087109.999595) can0 081#40000000000000FD
(1487087109.999595) can0 18F#003C0000005B0000
(1487087109.999596) can0 260#0800001001985F10
(1487087110.000659) can0 2A0#A20062806E12A900
(1487087110.000660) can0 329#0F8D810C112A0010
(1487087110.000661) can0 545#DA180067A7FEA7FE
(1487087110.002553) can0 2C0#0000000000000000
(1487087110.005487) can0 2B0#FF7FFF06E0
(1487087110.008386) can0 316#3184C6020026007F
(1487087110.009462) can0 080#0017C6028426002E
(1487087110.009463) can0 081#40000000000000EE
(1487087110.009463) can0 18F#003C0000005B0000
(1487087110.009464) can0 260#0800001001985F2F
(1487087110.010545) can0 2A0#C20062806E12A900
(1487087110.010546) can0 329#4F8D810C112A0010
(1487087110.010547) can0 545#DA180065A7FEA7FE
(1487087110.012534) can0 2C0#0000000000000000
(1487087110.014673) can0 4F0#0000160000121402
(1487087110.015752) can0 4F1#C8FF000000000000
(1487087110.015753) can0 2B0#FF7FFF06E0
(1487087110.018276) can0 316#3184C6020026007F
(1487087110.019365) can0 080#0017C6028426001F
(1487087110.019366) can0 081#40000000000000DF
(1487087110.019366) can0 18F#003C0000005B0000
(1487087110.019367) can0 260#0700001001985F3F
(1487087110.020447) can0 2A0#620062806E12A900
(1487087110.020448) can0 329#4F8D810C112A0010
(1487087110.020449) can0 545#DA180063A7FEA7FE
(1487087110.021522) can0 5F0#0100
(1487087110.022613) can0 2C0#0000000000000000
(1487087110.024690) can0 2B0#0000000761
(1487087110.028297) can0 316#3184C6020026007F
(1487087110.029392) can0 080#0017C60284260000
(1487087110.029394) can0 081#40000000000000C0
(1487087110.029394) can0 18F#003C0000005B0000
(1487087110.029394) can0 260#0700001001985F02
(1487087110.030485) can0 2A0#020062806E12A900
(1487087110.030486) can0 329#4F8D810C112A0010
(1487087110.030486) can0 545#DA180060A7FEA7FE
(1487087110.032540) can0 2C0#0000000000000000
(1487087110.034243) can0 2B0#0000000752
(1487087110.035311) can0 4F0#0000180000121402
(1487087110.035312) can0 4F1#C8FF000000000000
(1487087110.038435) can0 316#3184C6020026007F
(1487087110.039516) can0 080#0017C602842600F1
(1487087110.039517) can0 081#40000000000000B1
(1487087110.039517) can0 18F#003C0000005B0000
(1487087110.039518) can0 260#0700001001985F11
(1487087110.040618) can0 2A0#A20062806E12A900
(1487087110.040619) can0 329#4F8D810C112B0010
(1487087110.040620) can0 545#DA18005EA7FEA7FE
(1487087110.040620) can0 5E4#000000
(1487087110.042533) can0 2C0#0000000000000000
(1487087110.043808) can0 2B0#0000000743
(1487087110.044886) can0 153#2000000000001030
(1487087110.044887) can0 4B0#0040000000000000
(1487087110.048481) can0 316#0184C6020026007F
(1487087110.049512) can0 080#0017C602842600E2
(1487087110.049513) can0 081#40000000000000A2
(1487087110.049513) can0 18F#003C0000005B0000
(1487087110.049514) can0 220#0040000000000040
(1487087110.050678) can0 164#0008010000000108
(1487087110.050679) can0 260#0700001001985F20
(1487087110.050679) can0 2A0#C20062806E12A900
(1487087110.050680) can0 329#4F8D810C112C0010
(1487087110.050680) can0 545#DA18005FA7FEA7FE
(1487087110.052515) can0 2C0#0000000000000000
(1487087110.053614) can0 165#0008800000000189
(1487087110.054728) can0 2B0#0000000734
(1487087110.054729) can0 153#200000FF00FF203E
(1487087110.055808) can0 4F0#00001A0000121402
(1487087110.055809) can0 4F1#C8FF000000000000
(1487087110.058300) can0 316#058656030026007F
(1487087110.059382) can0 080#0017560386260013
(1487087110.059383) can0 081#4000000000000093
(1487087110.059384) can0 18F#003C0000005B0000
(1487087110.059384) can0 0A0#F161440200210000
(1487087110.060511) can0 0A1#8082808065000000
(1487087110.060513) can0 220#0040000000000040
(1487087110.060513) can0 164#000801000000020B
(1487087110.060513) can0 1F1#0F00000000000000
(1487087110.060514) can0 260#0700001001986B32
(1487087110.061598) can0 2A0#620062806E12A900
(1487087110.061599) can0 329#4F8D810C112C0010
(1487087110.061599) can0 545#DA180061A7FEA7FE
(1487087110.062680) can0 2C0#0000000000000000
(1487087110.063756) can0 165#000880000000028A
(1487087110.063757) can0 2B0#0000000725
(1487087110.064850) can0 153#200000FF00FF304E
(1487087110.064851) can0 4B0#0080000000000000
(1487087110.068352) can0 316#058656030026007F
(1487087110.069423) can0 080#0017560386260004
(1487087110.069424) can0 081#4000000000000084
(1487087110.069425) can0 18F#003C0000005B0000
(1487087110.069425) can0 220#0040000000000040
(1487087110.070546) can0 164#000801000000030A
(1487087110.070547) can0 260#0700001001986B05
(1487087110.070547) can0 2A0#020062806E12A900
(1487087110.070547) can0 329#808D810C112C0010
(1487087110.070548) can0 545#DA000065A7FEA7FE
(1487087110.071605) can0 5F0#0100
(1487087110.072720) can0 2C0#0000000000000000
(1487087110.073791) can0 165#000880000000038B
(1487087110.073792) can0 2B0#0000000716
(1487087110.074858) can0 153#200000FF00FF405E
(1487087110.075970) can0 4F0#00001C0000121402
(1487087110.075971) can0 4F1#C8FF000000000000
(1487087110.078478) can0 316#058656030026007F
(1487087110.079588) can0 080#00175603862600F5
(1487087110.079590) can0 081#4000000000000075
(1487087110.079590) can0 18F#003C0000005B0000
(1487087110.079590) can0 220#0040000000000040
(1487087110.080690) can0 164#000801000000040D
(1487087110.080691) can0 1F1#0F00000000000000
(1487087110.080692) can0 260#0700001001986B14
(1487087110.080692) can0 2A0#A20062806E12A900
(1487087110.080692) can0 329#808D810C112C0010
(1487087110.081723) can0 545#DA000067A7FEA7FE
(1487087110.082853) can0 165#000880000000048C
(1487087110.082854) can0 2B0#0000000707
(1487087110.082854) can0 2C0#0000000000000000
(1487087110.083937) can0 153#200000FF00FF506E
(1487087110.085014) can0 4B0#00C0000000000000
(1487087110.088466) can0 316#058656030026007F
(1487087110.089540) can0 080#00175603862600E6
(1487087110.089542) can0 081#4000000000000066
(1487087110.089542) can0 18F#003C0000005B0000
(1487087110.089542) can0 220#0040000000000040
(1487087110.090642) can0 164#000801000000050C
(1487087110.090643) can0 260#0700001001986B23
(1487087110.090643) can0 2A0#C20062806E12A900
(1487087110.090644) can0 329#808D810C112C0010
(1487087110.090644) can0 545#DA000068A7FEA7FE
(1487087110.091722) can0 165#000880000000058D
(1487087110.092806) can0 2B0#00000007F8
(1487087110.092807) can0 2C0#0000000000000000
(1487087110.093932) can0 153#200000FF00FF607E
(1487087110.095017) can0 4F0#00001E0000121402
(1487087110.096122) can0 4F1#C8FF000000000000
(1487087110.096123) can0 690#4000400000200C00
(1487087110.098298) can0 316#058676030026007F
(1487087110.099387) can0 080#00177603862600B7
(1487087110.099388) can0 081#4000000000000057
(1487087110.099388) can0 18F#003C0000005B0000
(1487087110.099389) can0 220#0040000000000040
(1487087110.100517) can0 164#000801000000060F
(1487087110.100518) can0 1F1#0F00000000000000
(1487087110.100518) can0 260#0600001001986B33
(1487087110.100519) can0 2A0#620062806E12A900
(1487087110.100519) can0 329#808D810C112C0010
(1487087110.101614) can0 545#DA000069A7FEA7FE
(1487087110.101615) can0 165#000880000000068E
(1487087110.101616) can0 2B0#00000007E9
(1487087110.102678) can0 2C0#0000000000000000
(1487087110.103931) can0 153#200000FF00FF708E
(1487087110.104993) can0 4B0#0000004000000000
(1487087110.108307) can0 316#058676030026007F
(1487087110.109385) can0 080#00177603862600A8
(1487087110.109386) can0 081#4000000000000048
(1487087110.109386) can0 18F#003C0000005B0000
(1487087110.109387) can0 220#0040000000000040
(1487087110.110509) can0 164#000801000000070E
(1487087110.110510) can0 260#0600001001986B06
(1487087110.110510) can0 2A0#020062806E12A900
(1487087110.110511) can0 329#808D810C112C0010
(1487087110.110511) can0 545#DA000069A7FEA7FE
(1487087110.111579) can0 165#000880000000078F
(1487087110.111580) can0 2B0#00000007DA
(1487087110.112642) can0 2C0#0000000000000000
(1487087110.113835) can0 153#200000FF00FF809E
(1487087110.114967) can0 4F0#0000200000121402
(1487087110.114968) can0 4F1#C8FF000000000000
(1487087110.117461) can0 5F0#0100
(1487087110.118501) can0 316#058676030026007F
(1487087110.119610) can0 080#0017760386260099
(1487087110.119612) can0 081#4000000000000039
(1487087110.119612) can0 18F#003C0000005B0000
(1487087110.119613) can0 220#0040000000000040
(1487087110.120713) can0 164#0008010000000801
(1487087110.120714) can0 1F1#0F00000000000000
(1487087110.120715) can0 260#0600001001986B15
(1487087110.120715) can0 165#0008800000000880
(1487087110.120715) can0 2A0#A20062806E12A900
(1487087110.121795) can0 2B0#00000007CB
(1487087110.121797) can0 329#808D810C112C0010
(1487087110.121797) can0 545#DA00006AA3FEA3FE
(1487087110.122879) can0 2C0#0000000000000000
(1487087110.123965) can0 153#200000FF00FF90AE
(1487087110.125023) can0 4B0#0040004000000000
(1487087110.128462) can0 316#058676030027007F
(1487087110.129540) can0 080#001776038627007A
(1487087110.129542) can0 081#400000000000002A
(1487087110.129542) can0 18F#003C0000005B0000
(1487087110.129542) can0 220#0040000000000040
(1487087110.130658) can0 164#0008010000000900
(1487087110.130659) can0 165#0008800000000981
(1487087110.130660) can0 260#0600001001986B24
(1487087110.130660) can0 2A0#C20062806E12A900
(1487087110.130661) can0 2B0#00000007BC
(1487087110.131748) can0 329#D78D810C112C0010
(1487087110.131749) can0 545#DA0000689FFE9FFE
(1487087110.132820) can0 2C0#0000000000000000
(1487087110.133920) can0 153#200000FF00FFA0BE
(1487087110.134978) can0 4F0#0000220000121402
(1487087110.134979) can0 4F1#C8FF000000000000
(1487087110.138272) can0 316#058676030027007F
(1487087110.139355) can0 080#001776038627006B
(1487087110.139356) can0 081#400000000000001B
(1487087110.139357) can0 18F#003C0000005B0000
(1487087110.139357) can0 220#0040000000000040
(1487087110.140455) can0 164#0008010000000A03
(1487087110.140456) can0 1F1#0F00000000000000
(1487087110.140456) can0 260#0600001001986B33
(1487087110.140457) can0 2A0#620062806E12A900
(1487087110.140462) can0 2B0#00000007AD
(1487087110.141560) can0 329#D78D810C112C0010
(1487087110.141562) can0 545#DA0000679FFE9FFE
(1487087110.141562) can0 5E4#000000
(1487087110.141562) can0 165#0008800000000A82
(1487087110.142640) can0 2C0#0000000000000000
(1487087110.143917) can0 153#200000FF00FFB0CE
(1487087110.144995) can0 4B0#0080004000000000
(1487087110.148332) can0 316#058676030027007F
(1487087110.149409) can0 080#001776038627005C
(1487087110.149411) can0 081#400000000000000C
(1487087110.149411) can0 165#0008800000000B83
(1487087110.149411) can0 18F#003C0000005B0000
(1487087110.150536) can0 220#0040000000000040
(1487087110.150537) can0 164#0008010000000B02
(1487087110.150537) can0 260#0600001001986B06
(1487087110.150538) can0 2A0#020062806E12A900
(1487087110.150538) can0 2B0#000000079E
(1487087110.151549) can0 329#D78D810C112C0010
(1487087110.151550) can0 545#DA0000669FFE9FFE
(1487087110.152638) can0 2C0#0000000000000000
(1487087110.153834) can0 153#200000FF00FFC0DE
(1487087110.154991) can0 4F0#0000240000121402
(1487087110.154992) can0 4F1#C8FF000000000000
(1487087110.158442) can0 316#058676030027007F
(1487087110.159511) can0 080#001776038627004D
(1487087110.159512) can0 081#40000000000000FD
(1487087110.159513) can0 18F#003C0000005B0000
(1487087110.159513) can0 220#0040000000000040
(1487087110.160617) can0 164#0008010000000C05
(1487087110.160618) can0 1F1#0F00000000000000
(1487087110.160618) can0 260#0600001001986B15
(1487087110.160619) can0 2A0#A20062806E12A900
(1487087110.160619) can0 2B0#000000078F
(1487087110.161737) can0 0A0#E661760300230001
(1487087110.161738) can0 0A1#8081808062000000
(1487087110.161739) can0 165#0008800000000C84
(1487087110.161739) can0 329#D78D810C112C0010
(1487087110.161740) can0 545#DA0000649FFE9FFE
(1487087110.162820) can0 2C0#0000000000000000
(1487087110.163908) can0 153#200000FF00FFD0EE
(1487087110.164955) can0 4B0#00C0004000000000
(1487087110.166054) can0 5F0#0100
(1487087110.168085) can0 165#0008800000000D85
(1487087110.169184) can0 2B0#0000000770
(1487087110.169186) can0 2A0#C20062806E12A900
(1487087110.169186) can0 260#0685001001986B27
(1487087110.169187) can0 080#001776038627856E
(1487087110.169188) can0 081#40000000000000EE
(1487087110.170255) can0 18F#003C8500005B0000
(1487087110.170256) can0 220#0040000000000040
(1487087110.170256) can0 164#0008010000000D04
(1487087110.170257) can0 316#058676038527007F
(1487087110.171347) can0 329#D78D810C112C0010
(1487087110.171348) can0 545#DA2B006355035103
(1487087110.172427) can0 2C0#0000000000000000
(1487087110.173818) can0 153#200000FF00FFE0FE
(1487087110.175316) can0 4F0#0000260000121402
(1487087110.176402) can0 4F1#C8FF000000000000
(1487087110.177677) can0 165#0008800000000E86
(1487087110.178713) can0 2B0#0000000761
(1487087110.178714) can0 316#057BF2037B27007F
(1487087110.178715) can0 080#0017F2037B277B8F
(1487087110.178715) can0 081#40000000000000DF
(1487087110.179883) can0 18F#003C7B00005B0000
(1487087110.179884) can0 220#0040000000000040
(1487087110.179884) can0 164#0008010000000E07
(1487087110.179885) can0 1F1#0F00000000000000
(1487087110.180981) can0 260#067B001001986B31
(1487087110.180982) can0 2A0#620062806E12A900
(1487087110.180982) can0 329#D78D810C112C0010
(1487087110.180983) can0 545#DA2B0065F702F702
(1487087110.182440) can0 2C0#0000000000000000
(1487087110.183827) can0 153#200000FF00FF001E
(1487087110.184984) can0 4B0#0000008000000000
(1487087110.187265) can0 165#0008800000000F87
(1487087110.188324) can0 2B0#0000000752
(1487087110.189467) can0 316#057BF2037B27007F
(1487087110.189468) can0 080#0017F2037B277B70
(1487087110.189468) can0 081#40000000000000C0
(1487087110.189469) can0 18F#003C7B00005B0000
(1487087110.189469) can0 220#0040000000000040
(1487087110.190570) can0 164#0008010000000F06
(1487087110.190571) can0 260#067B001001986B04
(1487087110.190572) can0 2A0#020062806E12A900
(1487087110.190572) can0 329#0F8D810C112C0010
(1487087110.191656) can0 545#DA2B0068F702F702
(1487087110.192714) can0 2C0#0000000000000000
(1487087110.193901) can0 153#200000FF00FF102E
(1487087110.194961) can0 4F0#0000280000121402
(1487087110.196093) can0 4F1#C8FF000000000000
(1487087110.196094) can0 690#4000400000201000
(1487087110.197180) can0 165#0008800000000088
(1487087110.197181) can0 2B0#0000000743
(1487087110.198609) can0 316#057BA4047B27007F
(1487087110.199751) can0 080#0017A4047B277B81
(1487087110.199753) can0 081#40000000000000B1
(1487087110.199753) can0 18F#003C7B00005B0000
(1487087110.199753) can0 220#0040000000000040
(1487087110.200853) can0 164#0008010000000009
(1487087110.200855) can0 1F1#0F00000000000000
(1487087110.200855) can0 260#067B001001986B13
(1487087110.200855) can0 2A0#A20062806E12A900
(1487087110.200856) can0 329#0F8D810C112C0010
(1487087110.201923) can0 545#DA2B0067F702F702
(1487087110.202999) can0 2C0#0000000000000000
(1487087110.204111) can0 153#200000FF00FF203E
(1487087110.205191) can0 4B0#0040008000000000
(1487087110.206375) can0 165#0008800000000189
(1487087110.207439) can0 2B0#0000000734
(1487087110.208525) can0 316#057BA4047B27007F
(1487087110.209606) can0 080#0017A4047B277B72
(1487087110.209607) can0 081#40000000000000A2
(1487087110.209607) can0 18F#003C7B00005B0000
(1487087110.209608) can0 220#0040000000000040
(1487087110.210686) can0 164#0008010000000108
(1487087110.210687) can0 260#067B001001986B22
(1487087110.210687) can0 2A0#C20062806E12A900
(1487087110.210687) can0 329#0F8D810C112C0010
(1487087110.210688) can0 545#DA2B006AF702F702
(1487087110.212480) can0 2C0#0000000000000000
(1487087110.213560) can0 5F0#0100
(1487087110.214642) can0 153#200000FF00FF304E
(1487087110.215717) can0 4F0#00002A0000121402
(1487087110.215718) can0 4F1#C8FF000000000000
(1487087110.216780) can0 165#000880000000028A
(1487087110.216781) can0 2B0#0000000725
(1487087110.218315) can0 316#057BA4047B27007F
(1487087110.219422) can0 080#0017A4047B277B63
(1487087110.219423) can0 081#4000000000000093
(1487087110.219423) can0 18F#003C7B00005B0000
(1487087110.219423) can0 220#0040000000000040
(1487087110.220554) can0 164#000801000000020B
(1487087110.220555) can0 1F1#0F00000000000000
(1487087110.220556) can0 260#067B001001986B31
(1487087110.220556) can0 2A0#620062806E12A900
(1487087110.220556) can0 329#0F8D810C112C0010
(1487087110.221628) can0 545#DA2B006BF602F602
(1487087110.222703) can0 2C0#0000000000000000
(1487087110.223921) can0 153#200000FF00FF405E
(1487087110.224973) can0 4B0#0080008000000000
(1487087110.226057) can0 165#000880000000038B
(1487087110.226058) can0 2B0#0000000716
(1487087110.228430) can0 316#057BA4047B27007F
(1487087110.229514) can0 080#0017A4047B277B54
(1487087110.229516) can0 081#4000000000000084
(1487087110.229516) can0 18F#003C7B00005B0000
(1487087110.229516) can0 220#0040000000000040
(1487087110.230620) can0 164#000801000000030A
(1487087110.230621) can0 260#067B001001986B04
(1487087110.230621) can0 2A0#020062806E12A900
(1487087110.230621) can0 329#0F8D810C112C0010
(1487087110.230622) can0 545#DA2B006BF602F602
(1487087110.232416) can0 2C0#0000000000000000
(1487087110.233887) can0 153#200000FF00FF506E
(1487087110.234970) can0 4F0#00002C0000121402
(1487087110.234971) can0 4F1#C8FF000000000000
(1487087110.236035) can0 165#000880000000048C
(1487087110.236036) can0 2B0#0000000707
(1487087110.238539) can0 316#057B64087A27007F
(1487087110.239634) can0 080#001764087B277A55
(1487087110.239640) can0 081#4000000000000075
(1487087110.239641) can0 18F#003C7A00005B0000
(1487087110.239641) can0 220#0040000000000040
(1487087110.240729) can0 164#000801000000040D
(1487087110.240730) can0 1F1#0F00000000000000
(1487087110.240731) can0 260#067A001001986B14
(1487087110.240731) can0 2A0#A20062806E12A900
(1487087110.240732) can0 329#0F8D810C112C0010
(1487087110.241812) can0 545#DA2B006DEF02EF02
(1487087110.241813) can0 5E4#000000
(1487087110.242836) can0 2C0#0000000000000000
(1487087110.243958) can0 153#200000FF00FF607E
(1487087110.245039) can0 4B0#00C0008000000000
(1487087110.245040) can0 165#000880000000058D
(1487087110.245041) can0 2B0#00000007F8
(1487087110.248538) can0 316#057BCA097A27007F
(1487087110.249649) can0 080#0017CA097B277A76
(1487087110.249651) can0 081#4000000000000066
(1487087110.249651) can0 18F#003C7A00005B0000
(1487087110.249651) can0 220#0040000000000040
(1487087110.250747) can0 164#000801000000050C
(1487087110.250748) can0 260#067A001001986B23
(1487087110.250749) can0 2A0#C20062806E12A900
(1487087110.250749) can0 329#4F8D810C112C0010
(1487087110.250749) can0 545#DA2B006FEF02EF02
(1487087110.252403) can0 2C0#0000000000000000
(1487087110.253871) can0 153#200000FF00FF708E
(1487087110.254972) can0 165#000880000000068E
(1487087110.254973) can0 2B0#00000007E9
(1487087110.254974) can0 4F0#00002E0000121402
(1487087110.255983) can0 4F1#C8FF000000000000
(1487087110.258371) can0 316#057BCA097A27007F
(1487087110.259449) can0 080#0017CA097B277A67
(1487087110.259451) can0 081#4000000000000057
(1487087110.259451) can0 18F#003C7A00005B0000
(1487087110.259451) can0 0A0#E361760300230001
(1487087110.260581) can0 0A1#808180805D000000
(1487087110.260582) can0 220#0040000000000040
(1487087110.260582) can0 164#000801000000060F
(1487087110.260582) can0 1F1#0F00000000000000
(1487087110.260583) can0 260#067A003001986B30
(1487087110.261656) can0 2A0#620062806E12A900
(1487087110.261657) can0 329#4F8D810C112B0010
(1487087110.261657) can0 545#DA2B0071ED02ED02
(1487087110.261658) can0 5F0#0100
(1487087110.262735) can0 2C0#0000000000000000
(1487087110.263825) can0 165#000880000000078F
(1487087110.264906) can0 153#200000FF00FF809E
(1487087110.264907) can0 2B0#00000007DA
(1487087110.264907) can0 4B0#000000C000000000
(1487087110.268662) can0 316#0575CA097527007F
(1487087110.269767) can0 080#0017CA0975277508
(1487087110.269768) can0 081#4000000000000048
(1487087110.269768) can0 18F#003C7500005B0000
(1487087110.269769) can0 220#0040000000000040
(1487087110.270867) can0 164#000801000000070E
(1487087110.270868) can0 260#0675003001986B08
(1487087110.270868) can0 2A0#020062806E12A900
(1487087110.270869) can0 329#4F8D810C112B0010
(1487087110.270869) can0 545#DA4E0072B902B902
(1487087110.272404) can0 2C0#0000000000000000
(1487087110.273513) can0 165#0008800000000880
(1487087110.274582) can0 2B0#00000007CB
(1487087110.274583) can0 153#200000FF00FF90AE
(1487087110.275654) can0 4F0#0000300000121402
(1487087110.275655) can0 4F1#C8FF000000000000
(1487087110.278885) can0 220#0040000000000040
(1487087110.279916) can0 164#0008010000000801
(1487087110.279917) can0 18F#003C7500005B0000
(1487087110.279918) can0 080#0017840C75277569
(1487087110.279918) can0 081#4000000000000039
(1487087110.281068) can0 1F1#0F00000000000000
(1487087110.281069) can0 260#0575003001986B18
(1487087110.281069) can0 2A0#A20062806E12A900
(1487087110.281074) can0 316#0575840C7527007F
(1487087110.281074) can0 329#4F8D810C112B0010
(1487087110.282150) can0 545#DA4E007AB902B902
(1487087110.283232) can0 2C0#0000000000000000
(1487087110.283233) can0 165#0008800000000981
(1487087110.283233) can0 2B0#00000007BC
(1487087110.284318) can0 153#200000FF00FFA0BE
(1487087110.284319) can0 4B0#004000C000000000
(1487087110.288548) can0 316#0575B00D7527007F
(1487087110.289634) can0 080#0017B00D7527755A
(1487087110.289635) can0 081#400000000000002A
(1487087110.289636) can0 18F#003C7500005B0000
(1487087110.289636) can0 220#0040000000000040
(1487087110.290733) can0 164#0008010000000900
(1487087110.290734) can0 260#0575003001986B27
(1487087110.290734) can0 2A0#C20062806E12A900
(1487087110.290735) can0 329#4F8D810C112B0010
(1487087110.290735) can0 545#DA4E0080B902B902
(1487087110.292387) can0 2C0#0000000000000000
(1487087110.293456) can0 165#0008800000000A82
(1487087110.293458) can0 2B0#00000007AD
(1487087110.294518) can0 153#200000FF00FFB0CE
(1487087110.295602) can0 4F0#0000320000121402
(1487087110.295604) can0 4F1#C8FF000000000000
(1487087110.295604) can0 690#4000400000201400
(1487087110.298687) can0 316#0574B00D7428007F
(1487087110.299788) can0 220#0040000000000040
(1487087110.299789) can0 164#0008010000000A03
(1487087110.299790) can0 080#0017B00D7428745B
(1487087110.299790) can0 081#400000000000001B
(1487087110.300892) can0 18F#003C7400005B0000
(1487087110.300894) can0 1F1#0F00000000000000
(1487087110.300894) can0 260#0574003001A56B39
(1487087110.300894) can0 2A0#620062806E12A900
(1487087110.300895) can0 329#4F8D810C112B0010
(1487087110.302004) can0 545#DA4E0082A802A802
(1487087110.303085) can0 165#0008800000000B83
(1487087110.303086) can0 2B0#000000079E
(1487087110.303086) can0 2C0#0000000000000000
(1487087110.304117) can0 153#200000FF00FFC0DE
(1487087110.304118) can0 4B0#008000C000000000
(1487087110.308709) can0 316#0574800F7428007F
(1487087110.309803) can0 080#0017800F7428745C
(1487087110.309805) can0 18F#003C7400005B0000
(1487087110.309805) can0 081#400000000000000C
(1487087110.309805) can0 220#0040000000000040
(1487087110.310931) can0 164#0008010000000B02
(1487087110.310932) can0 260#0574003001A56B0C
(1487087110.310932) can0 2A0#020062806E12A900
(1487087110.310933) can0 329#808D810C112B0010
(1487087110.310933) can0 545#DA4E0083A702A702
(1487087110.312019) can0 5F0#0100
(1487087110.312020) can0 165#0008800000000C84
(1487087110.312021) can0 2B0#000000078F
(1487087110.313096) can0 2C0#0000000000000000
(1487087110.314179) can0 153#200000FF00FFD0EE
(1487087110.315261) can0 4F0#0000340000121402
(1487087110.315262) can0 4F1#C8FF000000000000
(1487087110.318573) can0 316#057448107429007F
(1487087110.319644) can0 080#00174810742974DD
(1487087110.319645) can0 081#40000000000000FD
(1487087110.319646) can0 18F#003C7400005B0000
(1487087110.319646) can0 220#0040000000000040
(1487087110.320758) can0 164#0008010000000C05
(1487087110.320759) can0 1F1#0F00000000000000
(1487087110.320759) can0 260#0574003001A56B1B
(1487087110.320760) can0 2A0#A20062806E12A900
(1487087110.320760) can0 329#808D810C112B0010
(1487087110.321839) can0 545#DA4E0087A202A202
(1487087110.321841) can0 165#0008800000000D85
(1487087110.321841) can0 2B0#0000000770
(1487087110.322925) can0 2C0#0000000000000000
(1487087110.324008) can0 153#200000FF00FFE0FE
(1487087110.325070) can0 4B0#0000000000000000
(1487087110.328882) can0 220#0040000000000040
(1487087110.329946) can0 164#0008010000000D04
(1487087110.329947) can0 080#001792116929694E
(1487087110.329947) can0 081#40000000000000EE
(1487087110.329947) can0 18F#003C6900005B0000
(1487087110.331069) can0 260#0569003001A56B26
(1487087110.331070) can0 2A0#C20062806E12A900
(1487087110.331070) can0 316#056992116929007F
(1487087110.331071) can0 165#0008800000000E86
(1487087110.331071) can0 2B0#0000000761
(1487087110.332156) can0 329#848D810C112B0010
(1487087110.332157) can0 545#DA4E00893E023E02
(1487087110.333216) can0 2C0#0000000000000000
(1487087110.334278) can0 153#200000FF00FF001E
(1487087110.335379) can0 4F0#0000360000121402
(1487087110.335380) can0 4F1#C8FF000000000000
(1487087110.338383) can0 316#056922126929007F
(1487087110.339462) can0 080#001722126929699F
(1487087110.339463) can0 081#40000000000000DF
(1487087110.339463) can0 18F#003C6900005B0000
(1487087110.339464) can0 220#0040000000000040
(1487087110.340562) can0 164#0008010000000E07
(1487087110.340563) can0 1F1#0F00000000000000
(1487087110.340564) can0 260#0569003001A56B35
(1487087110.340565) can0 2A0#620062806E12A900
(1487087110.340565) can0 2B0#0000000752
(1487087110.341584) can0 329#848D810C112B0010
(1487087110.341585) can0 545#DA4E00883E023E02
(1487087110.341586) can0 5E4#000000
(1487087110.341586) can0 165#0008800000000F87
(1487087110.342661) can0 2C0#0000000000000000
(1487087110.343775) can0 153#200000FF00FF102E
(1487087110.344921) can0 4B0#0040000000000000
(1487087110.348695) can0 316#056922126929007F
(1487087110.349771) can0 080#0017221269296980
(1487087110.349772) can0 18F#003C6900005B0000
(1487087110.349772) can0 081#40000000000000C0
(1487087110.349773) can0 220#0040000000000040
(1487087110.350873) can0 164#0008010000000F06
(1487087110.350874) can0 260#0569003001B16B0B
(1487087110.350875) can0 2A0#020062806E12A900
(1487087110.350875) can0 2B0#0000000743
(1487087110.350876) can0 165#0008800000000088
(1487087110.351949) can0 329#848D810C112B0010
(1487087110.351951) can0 545#DA4E00883E023E02
(1487087110.353039) can0 2C0#0000000000000000
(1487087110.354124) can0 153#200000FF00FF203E
(1487087110.355202) can0 4F0#0000380000121402
(1487087110.355203) can0 4F1#C8FF000000000000
(1487087110.357356) can0 5F0#0100
(1487087110.358854) can0 220#0040000000000040
(1487087110.359931) can0 164#0008010000000009
(1487087110.359932) can0 165#0008800000000189
(1487087110.359932) can0 080#0017261362296201
(1487087110.359933) can0 081#40000000000000B1
(1487087110.361037) can0 18F#003C6200005B0000
(1487087110.361038) can0 1F1#0F00000000000000
(1487087110.361038) can0 260#0562003001B16B11
(1487087110.361039) can0 2A0#A20062806E12A900
(1487087110.361039) can0 2B0#0000000734
(1487087110.362139) can0 316#056226136229007F
(1487087110.362140) can0 329#848D810C112B0010
(1487087110.362141) can0 0A0#A661481000230001
(1487087110.362141) can0 0A1#808180804C000000
(1487087110.362141) can0 545#DA4E0089FC01FC01
(1487087110.363245) can0 2C0#0000000000000000
(1487087110.364332) can0 153#200000FF00FF304E
(1487087110.364333) can0 4B0#0080000000000000
(1487087110.368442) can0 316#05627E136229007F
(1487087110.369531) can0 080#00177E1362296222
(1487087110.369532) can0 081#40000000000000A2
(1487087110.369533) can0 18F#003C6200005B0000
(1487087110.369533) can0 220#0040000000000040
(1487087110.370641) can0 164#0008010000000108
(1487087110.370642) can0 260#0562003001B16B20
(1487087110.370643) can0 2A0#C20062806E12A900
(1487087110.370643) can0 2B0#0000000725
(1487087110.370644) can0 165#000880000000028A
(1487087110.371738) can0 329#D78D810C112B0010
(1487087110.371739) can0 545#DA5F0087FC01FC01
(1487087110.372862) can0 2C0#0000000000000000
(1487087110.373960) can0 153#200000FF00FF405E
(1487087110.375209) can0 4F0#00003A0000121402
(1487087110.376294) can0 4F1#C8FF000000000000
(1487087110.378329) can0 316#05525A13522A007F
(1487087110.379435) can0 080#00175A13522A5283
(1487087110.379436) can0 081#4000000000000093
(1487087110.379437) can0 18F#003C5200005B0000
(1487087110.379442) can0 220#0040000000000040
(1487087110.380542) can0 164#000801000000020B
(1487087110.380543) can0 1F1#0F00000000000000
(1487087110.380544) can0 260#0552003001B15F3D
(1487087110.380544) can0 2A0#620062806E12A900
(1487087110.380544) can0 2B0#0000000716
(1487087110.381540) can0 165#000880000000038B
(1487087110.381542) can0 329#D78D810C112B0010
(1487087110.381542) can0 545#DA5F008968016801
(1487087110.382703) can0 2C0#0000000000000000
(1487087110.383861) can0 153#200000FF00FF506E
(1487087110.384936) can0 4B0#00C0000000000000
(1487087110.388014) can0 165#000880000000048C
(1487087110.389078) can0 2B0#0000000707
(1487087110.389078) can0 316#05525E13522A007F
(1487087110.389079) can0 080#00175E13522A5234
(1487087110.389079) can0 081#4000000000000084
(1487087110.390229) can0 18F#003C5200005B0000
(1487087110.390230) can0 220#0040000000000040
(1487087110.390230) can0 164#000801000000030A
(1487087110.390230) can0 260#0552003001B15F00
(1487087110.390231) can0 2A0#020062806E12A900
(1487087110.391308) can0 329#D78D810C112C0010
(1487087110.391309) can0 545#DA5F008967016701
(1487087110.392391) can0 2C0#0000000000000000
(1487087110.393854) can0 153#200000FF00FF607E
(1487087110.394941) can0 4F0#00003C0000121402
(1487087110.394942) can0 4F1#CCFF000000000000
(1487087110.396034) can0 690#4000400000201800
(1487087110.397576) can0 165#000880000000058D
(1487087110.398635) can0 2B0#00000007F8
(1487087110.399757) can0 220#0040000000000040
(1487087110.399758) can0 164#000801000000040D
(1487087110.399759) can0 1F1#0F00000000000000
(1487087110.399759) can0 080#00171C14492A49B5
(1487087110.400864) can0 081#4000000000000075
(1487087110.400865) can0 18F#003C4900005B0000
(1487087110.400865) can0 260#0549003001B9551B
(1487087110.400866) can0 2A0#A20062806E12A900
(1487087110.400866) can0 316#05491C14492A007F
(1487087110.401945) can0 329#D78D810C112C0010
(1487087110.401946) can0 545#DA5F008716011601
(1487087110.403010) can0 2C0#0000000000000000
(1487087110.404054) can0 153#200000FF00FF708E
(1487087110.404055) can0 4B0#0000004000000000
(1487087110.405345) can0 5F0#0100
(1487087110.407135) can0 165#000880000000068E
(1487087110.408226) can0 2B0#00000007E9
(1487087110.409296) can0 316#05497A14492A007F
(1487087110.409297) can0 080#00177A14492A4966
(1487087110.409297) can0 081#4000000000000066
(1487087110.409298) can0 18F#003C4900005B0000
(1487087110.410425) can0 220#0040000000000040
(1487087110.410426) can0 164#000801000000050C
(1487087110.410426) can0 260#0549003001B9552A
(1487087110.410426) can0 2A0#C20062806E12A900
(1487087110.410427) can0 329#D78D810C112C0010
(1487087110.411505) can0 545#DA5F008816011601
(1487087110.412599) can0 2C0#0000000000000000
(1487087110.413846) can0 153#200000FF00FF809E
(1487087110.414943) can0 4F0#00003E0000121402
(1487087110.414944) can0 4F1#CCFF000000000000
(1487087110.416694) can0 165#000880000000078F
(1487087110.417775) can0 2B0#00000007DA
(1487087110.418875) can0 316#05347A14492B007F
(1487087110.419982) can0 080#00177A14342B49A7
(1487087110.419983) can0 18F#003C4900005B0000
(1487087110.419984) can0 081#4000000000000057
(1487087110.419984) can0 220#0040000000000040
(1487087110.419984) can0 164#000801000000060F
(1487087110.421090) can0 1F1#0F00000000000000
(1487087110.421091) can0 260#0549003001B9453A
(1487087110.421091) can0 2A0#620062806E12A900
(1487087110.421092) can0 329#D78D810C112C0010
(1487087110.421092) can0 545#DA5F008856001301
(1487087110.422330) can0 2C0#0000000000000000
(1487087110.423846) can0 153#200000FF00FF90AE
(1487087110.424898) can0 4B0#0040004000000000
(1487087110.426249) can0 165#0008800000000880
(1487087110.427339) can0 2B0#00000007CB
(1487087110.428440) can0 316#05345015342B007F
(1487087110.429539) can0 080#00175015342B34A8
(1487087110.429541) can0 081#4000000000000048
(1487087110.429541) can0 18F#003C3400005B0000
(1487087110.429541) can0 220#0040000000000040
(1487087110.430646) can0 164#000801000000070E
(1487087110.430647) can0 260#0534003001B94503
(1487087110.430648) can0 2A0#020062806E12A900
(1487087110.430648) can0 329#0F8D810C112C0010
(1487087110.430649) can0 545#DA5F008956005600
(1487087110.432314) can0 2C0#0000000000000000
(1487087110.433850) can0 153#200000FF00FFA0BE
(1487087110.434911) can0 4F0#0000400000121402
(1487087110.434912) can0 4F1#CCFF000000000000
(1487087110.435998) can0 165#0008800000000981
(1487087110.435999) can0 2B0#00000007BC
(1487087110.438557) can0 316#05345015342B007F
(1487087110.439640) can0 080#00175015342B3499
(1487087110.439641) can0 081#4000000000000039
(1487087110.439642) can0 18F#003C3400005B0000
(1487087110.439642) can0 220#0040000000000040
(1487087110.440754) can0 164#0008010000000801
(1487087110.440755) can0 1F1#0F00000000000000
(1487087110.440756) can0 260#0534003001B94512
(1487087110.440756) can0 2A0#A20062806E12A900
(1487087110.440756) can0 329#0F8D810C112C0010
(1487087110.441837) can0 545#DA5F008A52005200
(1487087110.441838) can0 5E4#000000
(1487087110.442919) can0 2C0#0000000000000000
(1487087110.444029) can0 153#200000FF00FFB0CE
(1487087110.445085) can0 4B0#0080004000000000
(1487087110.446169) can0 165#0008800000000A82
(1487087110.446170) can0 2B0#00000007AD
(1487087110.448825) can0 220#0040000000000040
(1487087110.449904) can0 164#0008010000000900
(1487087110.449905) can0 080#0017B815272B276A
(1487087110.449905) can0 081#400000000000002A
(1487087110.449905) can0 18F#003C2700005B0000
(1487087110.451003) can0 260#0527003001BC3B27
(1487087110.451004) can0 2A0#C20062806E12A900
(1487087110.451005) can0 316#0527B815272B007F
(1487087110.451005) can0 329#0F8D810C112C0010
(1487087110.451005) can0 545#DA5F0089D8FFD8FF
(1487087110.452274) can0 2C0#0000000000000000
(1487087110.453351) can0 5F0#0100
(1487087110.454425) can0 153#200000FF00FFC0DE
(1487087110.455518) can0 4F0#0000420000121402
(1487087110.455520) can0 4F1#CCFF000000000000
(1487087110.455520) can0 165#0008800000000B83
(1487087110.455520) can0 2B0#000000079E
(1487087110.458316) can0 316#0527E815272B007F
(1487087110.459394) can0 080#0017E815272B272B
(1487087110.459395) can0 081#400000000000001B
(1487087110.459395) can0 18F#003C2700005B0000
(1487087110.459396) can0 220#0040000000000040
(1487087110.460526) can0 164#0008010000000A03
(1487087110.460527) can0 1F1#0F00000000000000
(1487087110.460527) can0 260#0527003001BC3B36
(1487087110.460528) can0 2A0#620062806E12A900
(1487087110.460528) can0 329#0F8D810C112D0010
(1487087110.461601) can0 545#DA5F0088D6FFD6FF
(1487087110.462691) can0 2C0#0000000000000000
(1487087110.463769) can0 0A0#8A61481000230001
(1487087110.463770) can0 0A1#8081808040000000
(1487087110.464849) can0 153#200000FF00FFD0EE
(1487087110.464850) can0 4B0#00C0004000000000
(1487087110.464851) can0 165#0008800000000C84
(1487087110.464851) can0 2B0#000000078F
(1487087110.468662) can0 316#051F26161F2B007F
(1487087110.469765) can0 18F#003C1F00005B0000
(1487087110.469766) can0 080#001726161F2B1F0C
(1487087110.469767) can0 081#400000000000000C
(1487087110.469767) can0 220#0040000000000040
(1487087110.470854) can0 164#0008010000000B02
(1487087110.470856) can0 260#051F003001BC3706
(1487087110.470856) can0 2A0#020062806E12A900
(1487087110.470856) can0 329#0F8D810C112D0010
(1487087110.470857) can0 545#DA50008895FF95FF
(1487087110.472289) can0 2C0#0000000000000000
(1487087110.473771) can0 153#200000FF00FFE0FE
(1487087110.474907) can0 165#0008800000000D85
(1487087110.474908) can0 2B0#0000000770
(1487087110.474908) can0 4F0#0000440000121402
(1487087110.475995) can0 4F1#CCFF000000000000
(1487087110.478512) can0 316#051F42161F2B007F
(1487087110.479594) can0 080#001742161F2B1F1D
(1487087110.479595) can0 081#40000000000000FD
(1487087110.479595) can0 18F#003C1F00005B0000
(1487087110.479596) can0 220#0040000000000040
(1487087110.480723) can0 164#0008010000000C05
(1487087110.480724) can0 1F1#0F00000000000000
(1487087110.480725) can0 260#051F003001BC3715
(1487087110.480725) can0 2A0#A20062806E12A900
(1487087110.480725) can0 329#0F8D810C112D0010
(1487087110.481777) can0 545#DA50008693FF93FF
(1487087110.482864) can0 2C0#0000000000000000
(1487087110.483949) can0 165#0008800000000E86
(1487087110.483950) can0 153#200000FF00FF001E
(1487087110.485029) can0 2B0#0000000761
(1487087110.485030) can0 4B0#0000008000000000
(1487087110.488471) can0 316#051E4E161E2B007F
(1487087110.489567) can0 2A0#C20062806E12A900
(1487087110.489568) can0 220#0040000000000040
(1487087110.489568) can0 164#0008010000000D04
(1487087110.489569) can0 080#00174E161E2B1E6E
(1487087110.490679) can0 081#40000000000000EE
(1487087110.490680) can0 18F#003C1E00005B0000
(1487087110.490680) can0 260#051E003001BC3725
(1487087110.490681) can0 329#4F8D810C112D0010
(1487087110.490681) can0 545#DA50008985FF85FF
(1487087110.492260) can0 2C0#0000000000000000
(1487087110.493359) can0 165#0008800000000F87
(1487087110.494440) can0 2B0#0000000752
(1487087110.494441) can0 153#200000FF00FF102E
(1487087110.495523) can0 4F0#0000460000121402
(1487087110.495524) can0 4F1#CCFF000000000000
(1487087110.495524) can0 690#4000400000201C00
(1487087110.498342) can0 316#051E54161E2C007F
(1487087110.499439) can0 080#001754161E2C1EDF
(1487087110.499440) can0 081#40000000000000DF
(1487087110.499440) can0 18F#003C1E00005B0000
(1487087110.499441) can0 220#0040000000000040
(1487087110.500543) can0 164#0008010000000E07
(1487087110.500544) can0 1F1#0F00000000000000
(1487087110.500544) can0 260#051E003001BF3731
(1487087110.500545) can0 2A0#620062806E12A900
(1487087110.500545) can0 329#4F8D810C112D0010
(1487087110.501629) can0 545#DA50008784FF84FF
(1487087110.501630) can0 5F0#0100
(1487087110.502645) can0 2C0#0000000000000000
(1487087110.503815) can0 165#0008800000000088
(1487087110.503816) can0 2B0#0000000743
(1487087110.503816) can0 153#200000FF00FF203E
(1487087110.504875) can0 4B0#0040008000000000
(1487087110.508338) can0 316#051A78161A2C007F
(1487087110.509423) can0 080#001778161A2C1AE0
(1487087110.509424) can0 081#40000000000000C0
(1487087110.509424) can0 18F#003C1A00005B0000
(1487087110.509425) can0 220#0040000000000040
(1487087110.510523) can0 164#0008010000000F06
(1487087110.510524) can0 260#051A003001BF3708
(1487087110.510524) can0 2A0#020062806E12A900
(1487087110.510525) can0 329#4F8D810C112D0010
(1487087110.510530) can0 545#DA5000895EFF5EFF
(1487087110.512248) can0 2C0#0000000000000000
(1487087110.513330) can0 165#0008800000000189
(1487087110.513331) can0 2B0#0000000734
(1487087110.514421) can0 153#200000FF00FF304E
(1487087110.515457) can0 4F0#0000480000121402
(1487087110.515458) can0 4F1#CCFF000000000000
(1487087110.518501) can0 316#051A86161A2C007F
(1487087110.519599) can0 080#001786161A2C1AE1
(1487087110.519601) can0 081#40000000000000B1
(1487087110.519601) can0 18F#003C1A00005B0000
(1487087110.519601) can0 220#0040000000000040
(1487087110.520704) can0 164#0008010000000009
(1487087110.520705) can0 1F1#0F00000000000000
(1487087110.520705) can0 260#051A003001BF3717
(1487087110.520706) can0 2A0#A20062806E12A900
(1487087110.520706) can0 329#4F8D810C112D0010
(1487087110.521793) can0 545#DA5000875CFF5CFF
(1487087110.522872) can0 165#000880000000028A
(1487087110.522873) can0 2B0#0000000725
(1487087110.522873) can0 2C0#0000000000000000
(1487087110.523909) can0 153#200000FF00FF405E
(1487087110.525037) can0 4B0#0080008000000000
(1487087110.528474) can0 316#05177A16172C007F
(1487087110.529574) can0 080#00177A16172C1702
(1487087110.529575) can0 081#40000000000000A2
(1487087110.529576) can0 18F#003C1700005B0000
(1487087110.529576) can0 220#0040000000000040
(1487087110.530678) can0 164#0008010000000108
(1487087110.530679) can0 260#0517003001BF3729
(1487087110.530680) can0 2A0#C20062806E12A900
(1487087110.530680) can0 329#4F8D810C112D0010
(1487087110.530680) can0 545#DA50008943FF43FF
(1487087110.531763) can0 165#000880000000038B
(1487087110.531764) can0 2B0#0000000716
(1487087110.532823) can0 2C0#0000000000000000
(1487087110.533913) can0 153#200000FF00FF506E
(1487087110.534945) can0 4F0#00004A0000121402
(1487087110.534946) can0 4F1#CCFF000000000000
(1487087110.538294) can0 316#05177216172C007F
(1487087110.539363) can0 080#00177216172C1773
(1487087110.539364) can0 081#4000000000000093
(1487087110.539364) can0 18F#003C1700005B0000
(1487087110.539365) can0 220#0040000000000040
(1487087110.540489) can0 164#000801000000020B
(1487087110.540490) can0 1F1#0F00000000000000
(1487087110.540490) can0 260#0517003001BF3738
(1487087110.540491) can0 2A0#620062806E12A900
(1487087110.540491) can0 329#4F8D810C112D0010
(1487087110.541584) can0 545#DA50008943FF43FF
(1487087110.541585) can0 5E4#000000
(1487087110.541586) can0 2B0#0000000707
(1487087110.541586) can0 165#000880000000048C
(1487087110.542660) can0 2C0#0000000000000000
(1487087110.543802) can0 153#200000FF00FF607E
(1487087110.544882) can0 4B0#00C0008000000000
(1487087110.548363) can0 316#05166A16162C007F
(1487087110.549442) can0 080#00176A16162C1614
(1487087110.549443) can0 081#4000000000000084
(1487087110.549444) can0 18F#003C1600005B0000
(1487087110.549444) can0 220#0040000000000040
(1487087110.550545) can0 164#000801000000030A
(1487087110.550546) can0 260#0516003001BF370C
(1487087110.550547) can0 2A0#020062806E12A900
(1487087110.550547) can0 329#848D810C112D0010
(1487087110.550547) can0 545#DA50008839FF39FF
(1487087110.551638) can0 165#000880000000058D
(1487087110.551639) can0 2B0#00000007F8
(1487087110.551639) can0 5F0#0100
(1487087110.552708) can0 2C0#0000000000000000
(1487087110.553793) can0 153#200000FF00FF708E
(1487087110.554876) can0 4F0#00004C0000121402
(1487087110.554877) can0 4F1#CCFF000000000000
(1487087110.558464) can0 316#05166616162C007F
(1487087110.559539) can0 080#00176616162C1645
(1487087110.559540) can0 081#4000000000000075
(1487087110.559540) can0 18F#003C1600005B0000
(1487087110.559541) can0 220#0040000000000040
(1487087110.560667) can0 164#000801000000040D
(1487087110.560669) can0 1F1#0F00000000000000
(1487087110.560669) can0 165#000880000000068E
(1487087110.560669) can0 260#0516003001BF371B
(1487087110.560670) can0 2A0#A20062806E12A900
(1487087110.561791) can0 2B0#00000007E9
(1487087110.561792) can0 0A0#7061861600240001
(1487087110.561792) can0 0A1#8081808037000000
(1487087110.561793) can0 329#848D810C112D0010
(1487087110.561793) can0 545#DA50008839FF39FF
(1487087110.562873) can0 2C0#0000000000000000
(1487087110.563929) can0 153#200000FF00FF809E
(1487087110.565042) can0 4B0#000000C000000000
(1487087110.568638) can0 316#05155816152C007F
(1487087110.569731) can0 18F#003C1500005B0000
(1487087110.569731) can0 080#00175816152C1546
(1487087110.569732) can0 081#4000000000000066
(1487087110.569732) can0 220#0040000000000040
(1487087110.570842) can0 164#000801000000050C
(1487087110.570843) can0 260#0515003001BF372B
(1487087110.570844) can0 2A0#C20062806E12A900
(1487087110.570844) can0 2B0#00000007DA
(1487087110.570845) can0 165#000880000000078F
(1487087110.571940) can0 329#848D810C112D0010
(1487087110.571941) can0 545#DA57008730FF30FF
(1487087110.573054) can0 2C0#0000000000000000
(1487087110.574145) can0 153#200000FF00FF90AE
(1487087110.575222) can0 4F0#00004E0000121402
(1487087110.575223) can0 4F1#CCFF000000000000
(1487087110.578285) can0 316#05155216152C007F
(1487087110.579395) can0 080#00175216152C1597
(1487087110.579396) can0 081#4000000000000057
(1487087110.579397) can0 18F#003C1500005B0000
(1487087110.579397) can0 165#0008800000000880
(1487087110.580500) can0 220#0040000000000040
(1487087110.580501) can0 164#000801000000060F
(1487087110.580502) can0 1F1#0F00000000000000
(1487087110.580502) can0 260#0515003001BF373A
(1487087110.580502) can0 2A0#620062806E12A900
(1487087110.581557) can0 2B0#00000007CB
(1487087110.581559) can0 329#848D810C112D0010
(1487087110.581559) can0 545#DA5700872FFF2FFF
(1487087110.582658) can0 2C0#0000000000000000
(1487087110.583734) can0 153#200000FF00FFA0BE
(1487087110.584825) can0 4B0#004000C000000000
(1487087110.588780) can0 165#0008800000000981
(1487087110.589858) can0 220#0040000000000040
(1487087110.589859) can0 164#000801000000070E
(1487087110.589859) can0 080#00175216152C1498
(1487087110.589860) can0 081#4000000000000048
(1487087110.590988) can0 18F#003C1400005B0000
(1487087110.590989) can0 260#0514003001BF3B0A
(1487087110.590989) can0 2A0#020062806E12A900
(1487087110.590990) can0 2B0#00000007BC
(1487087110.590990) can0 316#05155216142C007F
(1487087110.592075) can0 329#848D810C112D0010
(1487087110.592076) can0 545#DA57008832FF27FF
(1487087110.593155) can0 2C0#0000000000000000
(1487087110.594215) can0 153#200000FF00FFB0CE
(1487087110.595299) can0 4F0#0000500000121402
(1487087110.595300) can0 4F1#CCFF000000000000
(1487087110.595301) can0 690#4000400000202000
(1487087110.597267) can0 5F0#0100
(1487087110.598354) can0 165#0008800000000A82
(1487087110.599449) can0 2B0#00000007AD
(1487087110.599450) can0 220#0040000000000040
(1487087110.599451) can0 080#00172216152C15A9
(1487087110.599451) can0 081#4000000000000039
(1487087110.600517) can0 164#0008010000000801
(1487087110.600518) can0 18F#003C1500005B0000
(1487087110.600519) can0 1F1#0F00000000000000
(1487087110.600519) can0 260#0515003001BF3B18
(1487087110.600519) can0 2A0#A20062806E12A900
(1487087110.601629) can0 316#05152216152C007F
(1487087110.601630) can0 329#848D810C112D0010
(1487087110.601630) can0 545#DA57008932FF30FF
(1487087110.602732) can0 2C0#0000000000000000
(1487087110.603822) can0 153#200000FF00FFC0DE
(1487087110.604899) can0 4B0#008000C000000000
(1487087110.607904) can0 165#0008800000000B83
(1487087110.609023) can0 2B0#000000079E
(1487087110.609024) can0 220#0040000000000040
(1487087110.609024) can0 164#0008010000000900
(1487087110.610133) can0 316#05162216152C007F
(1487087110.610135) can0 080#00172216162C158A
(1487087110.610135) can0 081#400000000000002A
(1487087110.610135) can0 18F#003C1500005B0000
(1487087110.611213) can0 260#0515003001BF3D25
(1487087110.611214) can0 2A0#C20062806E12A900
(1487087110.611215) can0 329#D78D810C112D0010
(1487087110.611215) can0 545#DA57008A37FF30FF
(1487087110.612298) can0 2C0#0000000000000000
(1487087110.613774) can0 153#200000FF00FFD0EE
(1487087110.614851) can0 4F0#0000520000121402
(1487087110.614852) can0 4F1#CCFF000000000000
(1487087110.617482) can0 165#0008800000000C84
(1487087110.618561) can0 2B0#000000078F
(1487087110.618562) can0 316#0516FC15162C007F
(1487087110.618562) can0 080#0017FC15162C160B
(1487087110.619661) can0 081#400000000000001B
(1487087110.619662) can0 18F#003C1600005B0000
(1487087110.619663) can0 220#0040000000000040
(1487087110.619663) can0 164#0008010000000A03
(1487087110.620768) can0 1F1#0F00000000000000
(1487087110.620769) can0 260#0516003001BF3D33
(1487087110.620769) can0 2A0#620062806E12A900
(1487087110.620770) can0 329#D78D810C112D0010
(1487087110.620770) can0 545#DA57008836FF38FF
(1487087110.622188) can0 2C0#0000000000000000
(1487087110.623767) can0 153#200000FF00FFE0FE
(1487087110.624814) can0 4B0#0000000000000000
(1487087110.627017) can0 165#0008800000000D85
(1487087110.628103) can0 2B0#0000000770
(1487087110.629203) can0 316#0516FC15162C007F
(1487087110.629204) can0 080#0017FC15162C16FC
(1487087110.629204) can0 081#400000000000000C
(1487087110.629205) can0 18F#003C1600005B0000
(1487087110.630306) can0 220#0040000000000040
(1487087110.630308) can0 164#0008010000000B02
(1487087110.630308) can0 260#0516003001BF3D06
(1487087110.630308) can0 2A0#020062806E12A900
(1487087110.630309) can0 329#D78D810C112D0010
(1487087110.631387) can0 545#DA57008935FF37FF
(1487087110.632454) can0 2C0#0000000000000000
(1487087110.633764) can0 153#200000FF00FF001E
(1487087110.634844) can0 4F0#0000540000121402
(1487087110.634845) can0 4F1#CCFF000000000000
(1487087110.636577) can0 165#0008800000000E86
(1487087110.637656) can0 2B0#0000000761
(1487087110.638748) can0 316#0516EC15162C007F
(1487087110.639804) can0 18F#003C1600005B0000
(1487087110.639805) can0 080#0017EC15162C16FD
(1487087110.639805) can0 081#40000000000000FD
(1487087110.639806) can0 220#0040000000000040
(1487087110.640945) can0 164#0008010000000C05
(1487087110.640946) can0 1F1#0F00000000000000
(1487087110.640946) can0 260#0516003001BF3F13
(1487087110.640947) can0 2A0#A20062806E12A900
(1487087110.640947) can0 329#D78D810C112D0010
(1487087110.642033) can0 545#DA5700893BFF38FF
(1487087110.642034) can0 5E4#000000
(1487087110.643093) can0 2C0#0000000000000000
(1487087110.644178) can0 153#200000FF00FF102E
(1487087110.644179) can0 4B0#0040000000000000
(1487087110.645257) can0 5F0#0100
(1487087110.646372) can0 165#0008800000000F87
(1487087110.646373) can0 2B0#0000000752
(1487087110.648461) can0 316#0516E215162C007F
(1487087110.649549) can0 080#0017E215162C168E
(1487087110.649550) can0 081#40000000000000EE
(1487087110.649550) can0 18F#003C1600005B0000
(1487087110.649550) can0 220#0040000000000040
(1487087110.650653) can0 164#0008010000000D04
(1487087110.650654) can0 260#0516003001BF3F22
(1487087110.650654) can0 2A0#C20062806E12A900
(1487087110.650655) can0 329#D78D810C112D0010
(1487087110.650655) can0 545#DA5700883BFF38FF
(1487087110.652159) can0 2C0#0000000000000000
(1487087110.653755) can0 153#200000FF00FF203E
(1487087110.654837) can0 4F0#0000560000121402
(1487087110.654838) can0 4F1#CCFF000000000000
(1487087110.655925) can0 165#0008800000000088
(1487087110.655926) can0 2B0#0000000743
(1487087110.658547) can0 316#0517B815172C007F
(1487087110.659649) can0 080#0017B815172C172F
(1487087110.659650) can0 081#40000000000000DF
(1487087110.659651) can0 18F#003C1700005B0000
(1487087110.659651) can0 0A0#6161861600240001
(1487087110.660773) can0 0A1#8081808030000000
(1487087110.660774) can0 220#0040000000000040
(1487087110.660774) can0 164#0008010000000E07
(1487087110.660775) can0 1F1#0F00000000000000
(1487087110.660775) can0 260#0517003001BF413D
(1487087110.661873) can0 2A0#620062806E12A900
(1487087110.661875) can0 2B0#0000000743
(1487087110.661875) can0 329#D78D810C112D0010
(1487087110.661875) can0 545#DA5700893EFF42FF
(1487087110.661876) can0 5E4#000000
(1487087110.662959) can0 165#0008800000000189
(1487087110.662960) can0 2C0#0000000000000000
(1487087110.663993) can0 153#200000FF00FF304E
(1487087110.663995) can0 4B0#0080000000000000
(1487087110.668275) can0 316#0517A415172C007F
(1487087110.669371) can0 080#0017A415172C1760
(1487087110.669373) can0 081#40000000000000C0
(1487087110.669373) can0 18F#003C1700005B0000
(1487087110.669373) can0 220#0040000000000040
(1487087110.670486) can0 164#0008010000000F06
(1487087110.670487) can0 260#0517003001BF4100
(1487087110.670487) can0 2A0#020062806E12A900
(1487087110.670487) can0 329#0F8D810C112D0010
(1487087110.670488) can0 165#000880000000028A
(1487087110.671564) can0 2B0#0000010724
(1487087110.671565) can0 545#DA4800863EFF42FF
(1487087110.672647) can0 2C0#0000000000000000
(1487087110.673697) can0 153#200000FF00FF405E
(1487087110.674829) can0 4F0#0000580000121402
(1487087110.675914) can0 4F1#CCFF000000000000
(1487087110.678414) can0 316#05189615182C007F
(1487087110.679495) can0 080#00179615182C1821
(1487087110.679496) can0 081#40000000000000B1
(1487087110.679497) can0 18F#003C1800005B0000
(1487087110.679497) can0 220#0040000000000040
(1487087110.680612) can0 164#0008010000000009
(1487087110.680613) can0 1F1#0F00000000000000
(1487087110.680613) can0 165#000880000000038B
(1487087110.680614) can0 260#0518003001BF431C
(1487087110.680614) can0 2A0#A20062806E12A900
(1487087110.681702) can0 2B0#0000010735
(1487087110.681703) can0 329#0F8D810C112D0010
(1487087110.681704) can0 545#DA48008943FF47FF
(1487087110.682782) can0 2C0#0000000000000000
(1487087110.683870) can0 153#200000FF00FF506E
(1487087110.684932) can0 4B0#00C0000000000000
(1487087110.688414) can0 316#05188E15182C007F
(1487087110.689493) can0 080#00178E15182C18A2
(1487087110.689494) can0 081#40000000000000A2
(1487087110.689495) can0 18F#003C1800005B0000
(1487087110.689495) can0 220#0040000000000040
(1487087110.690600) can0 164#0008010000000108
(1487087110.690602) can0 260#0518003001BF432B
(1487087110.690602) can0 2A0#C20062806E12A900
(1487087110.690602) can0 2B0#0100010716
(1487087110.690603) can0 165#00F87F0000000483
(1487087110.691683) can0 329#0F8D810C112D0010
(1487087110.691684) can0 545#DA48008943FF47FF
(1487087110.692762) can0 2C0#0000000000000000
(1487087110.693851) can0 5F0#0100
(1487087110.693852) can0 153#200000FF00FF607E
(1487087110.694929) can0 4F0#00005A0000121402
(1487087110.694931) can0 4F1#CCFF000000000000
(1487087110.695994) can0 690#4000400000202400
(1487087110.698238) can0 316#05187A15182C007F
(1487087110.699349) can0 080#00177A15182C18E3
(1487087110.699351) can0 081#4000000000000093
(1487087110.699351) can0 18F#003C1800005B0000
(1487087110.699351) can0 165#000880000000058D
(1487087110.700449) can0 220#0040000000000040
(1487087110.700450) can0 164#000801000000020B
(1487087110.700451) can0 1F1#0F00000000000000
(1487087110.700451) can0 260#0518003001BE4737
(1487087110.700451) can0 2A0#620062806E12A900
(1487087110.701548) can0 2B0#0000010717
(1487087110.701550) can0 329#0F8D810C112D0010
(1487087110.701550) can0 545#DA48008947FF4BFF
(1487087110.702613) can0 2C0#0000000000000000
(1487087110.703737) can0 153#200000FF00FF708E
(1487087110.704797) can0 4B0#0000004000000000
(1487087110.708280) can0 316#05186E15182C007F
(1487087110.709359) can0 080#00176E15182C18A4
(1487087110.709360) can0 081#4000000000000084
(1487087110.709360) can0 18F#003C1800005B0000
(1487087110.709361) can0 220#0040000000000040
(1487087110.710469) can0 164#000801000000030A
(1487087110.710471) can0 260#0518003001BE470A
(1487087110.710471) can0 2A0#020062806E12A900
(1487087110.710471) can0 2B0#01000007E8
(1487087110.710472) can0 165#00F87F0000000681
(1487087110.711527) can0 329#0F8D810C112D0010
(1487087110.711528) can0 545#DA48008847FF4BFF
(1487087110.712559) can0 2C0#0000000000000000
(1487087110.713731) can0 153#200000FF00FF809E
(1487087110.714813) can0 4F0#00005C0000121402
(1487087110.714815) can0 4F1#CCFF000000000000
(1487087110.718150) can0 165#08F87E0000000789
(1487087110.719267) can0 2B0#00000107F9
(1487087110.719268) can0 220#0040000000000040
(1487087110.719268) can0 164#000801000000040D
(1487087110.719269) can0 1F1#0F00000000000000
(1487087110.720377) can0 18F#003C1800005B0000
(1487087110.720378) can0 080#00176E151A2C1875
(1487087110.720379) can0 081#4000000000000075
(1487087110.720379) can0 260#0518003001BE4D13
(1487087110.721476) can0 2A0#A20062806E12A900
(1487087110.721477) can0 316#051A6E15182C007F
(1487087110.721478) can0 329#0F8D810C112D0010
(1487087110.721478) can0 545#DA48008758FF4BFF
(1487087110.722561) can0 2C0#0000000000000000
(1487087110.723728) can0 153#200000FF00FF90AE
(1487087110.724808) can0 4B0#0040004000000000
(1487087110.727714) can0 165#08F87F0000000887
(1487087110.728743) can0 2B0#01000007CA
(1487087110.728744) can0 316#051A3E15192C007F
(1487087110.728744) can0 080#00173E151A2C1986
(1487087110.729913) can0 081#4000000000000066
(1487087110.729914) can0 18F#003C1900005B0000
(1487087110.729914) can0 220#0040000000000040
(1487087110.729915) can0 164#000801000000050C
(1487087110.729920) can0 260#0519003001BE4D21
(1487087110.730991) can0 2A0#C20062806E12A900
(1487087110.730992) can0 329#4F8D810C112D0010
(1487087110.730992) can0 545#DA48008958FF55FF
(1487087110.732142) can0 2C0#0000000000000000
(1487087110.733722) can0 153#200000FF00FFA0BE
(1487087110.734784) can0 4F0#00005E0000121402
(1487087110.734786) can0 4F1#CCFF000000000000
(1487087110.737288) can0 165#07F87F0000000989
(1487087110.738388) can0 2B0#00000007CB
(1487087110.738389) can0 316#051A3E15192D007F
(1487087110.739470) can0 329#4F8D810C112D0010
(1487087110.739471) can0 545#DA48008957FF54FF
(1487087110.739471) can0 080#00173E151A2D1967
(1487087110.739472) can0 081#4000000000000057
(1487087110.739472) can0 18F#003C1900005B0000
(1487087110.740596) can0 220#0040000000000040
(1487087110.740597) can0 164#000801000000060F
(1487087110.740598) can0 1F1#0F00000000000000
(1487087110.740598) can0 260#0519003001BE4D30
(1487087110.740599) can0 2A0#620062806E12A900
(1487087110.741622) can0 5F0#0100
(1487087110.742703) can0 2C0#0000000000000000
(1487087110.743789) can0 153#200000FF00FFB0CE
(1487087110.744848) can0 4B0#0080004000000000
(1487087110.746771) can0 165#07D87F0000000AAA
(1487087110.747847) can0 2B0#01000007AC
(1487087110.748972) can0 316#051AFA141B2D007F
(1487087110.748972) can0 18F#003C1B00005B0000
(1487087110.748973) can0 080#0017FA141A2D1BC8
(1487087110.750054) can0 081#4000000000000048
(1487087110.750055) can0 220#0040000000000040
(1487087110.750055) can0 164#000801000000070E
(1487087110.750056) can0 260#051B003001BD4F00
(1487087110.751143) can0 2A0#020062806E12A900
(1487087110.751144) can0 329#4F8D810C112E0010
(1487087110.751144) can0 545#D848008A5CFF62FF
(1487087110.752227) can0 2C0#0000000000000000
(1487087110.753680) can0 153#200000FF00FFC0DE
(1487087110.754768) can0 4F0#0000600000121402
(1487087110.754769) can0 4F1#CCFF000000000000
(1487087110.756410) can0 165#07E87F0000000B9B
(1487087110.757486) can0 2B0#01000007BD
(1487087110.758596) can0 316#051AFA141B2D007F
(1487087110.758597) can0 080#0017FA141A2D1BB9
(1487087110.759672) can0 081#4000000000000039
(1487087110.759673) can0 18F#003C1B00005B0000
(1487087110.759673) can0 220#0040000000000040
(1487087110.759673) can0 164#0008010000000801
(1487087110.760777) can0 1F1#0F00000000000000
(1487087110.760778) can0 260#051B003001BD4F1F
(1487087110.760778) can0 2A0#A20062806E12A900
(1487087110.760778) can0 329#4F8D810C112E0010
(1487087110.760779) can0 545#D84800895CFF62FF
(1487087110.761888) can0 5E4#000000
(1487087110.762989) can0 0A0#59614E1500250001
(1487087110.762990) can0 0A1#808180802C000000
(1487087110.762990) can0 2C0#0000000000000000
(1487087110.764068) can0 153#200000FF00FFD0EE
(1487087110.764069) can0 4B0#00C0004000000000
(1487087110.765963) can0 165#08E87F0000000C93
(1487087110.767023) can0 2B0#010000078E
(1487087110.768611) can0 316#051CDA141C2D007F
(1487087110.769712) can0 18F#003C1C00005B0000
(1487087110.769713) can0 080#0017DA141C2D1C9A
(1487087110.769713) can0 081#400000000000002A
(1487087110.769714) can0 220#0040000000000040
(1487087110.770814) can0 164#0008010000000900
(1487087110.770815) can0 260#051C003001BD5328
(1487087110.770815) can0 2A0#C20062806E12A900
(1487087110.770815) can0 329#4F8D810C112E0010
(1487087110.770816) can0 545#D83100886DFF6CFF
(1487087110.772047) can0 2C0#0000000000000000
(1487087110.773664) can0 153#200000FF00FFE0FE
(1487087110.774980) can0 4F0#0000620000121402
(1487087110.776064) can0 4F1#CCFF000000000000
(1487087110.776065) can0 165#08D87F0000000DA2
(1487087110.776065) can0 2B0#000000078F
(1487087110.778131) can0 316#051CCA141C2D007F
(1487087110.779212) can0 080#0017CA141C2D1C9B
(1487087110.779212) can0 081#400000000000001B
(1487087110.779213) can0 18F#003C1C00005B0000
(1487087110.779213) can0 220#0040000000000040
(1487087110.780314) can0 164#0008010000000A03
(1487087110.780315) can0 1F1#0F00000000000000
(1487087110.780315) can0 260#051C003001BD5337
(1487087110.780315) can0 2A0#620062806E12A900
(1487087110.780316) can0 329#4F8D810C112E0010
(1487087110.781393) can0 545#D83100876DFF6CFF
(1487087110.782475) can0 2C0#0000000000000000
(1487087110.783644) can0 153#200000FF00FF001E
(1487087110.784729) can0 4B0#0000008000000000
(1487087110.785810) can0 165#08D87F0000000EA1
(1487087110.785810) can0 2B0#0100000760
(1487087110.788202) can0 316#051DA0141D2D007F
(1487087110.789288) can0 080#0017A0141D2D1D2C
(1487087110.789289) can0 081#400000000000000C
(1487087110.789289) can0 18F#003C1D00005B0000
(1487087110.789290) can0 220#0040000000000040
(1487087110.790390) can0 164#0008010000000B02
(1487087110.790391) can0 260#051D003001BD5309
(1487087110.790391) can0 2A0#020062806E12A900
(1487087110.790391) can0 329#848D810C112F0010
(1487087110.790392) can0 545#D831008873FF76FF
(1487087110.791474) can0 5F0#0100
(1487087110.792536) can0 2C0#0000000000000000
(1487087110.793662) can0 153#200000FF00FF102E
(1487087110.794752) can0 4F0#0000640000121402
(1487087110.794753) can0 165#07E87F0000000F9F
(1487087110.795832) can0 2B0#0000000761
(1487087110.795833) can0 4F1#CCFF000000000000
(1487087110.795833) can0 690#4000400000202800
(1487087110.798345) can0 316#051D8C141D2C007F
(1487087110.799430) can0 080#00178C141D2C1D8D
(1487087110.799430) can0 081#40000000000000FD
(1487087110.799431) can0 18F#003C1D00005B0000
(1487087110.799431) can0 220#0040000000000040
(1487087110.800555) can0 164#0008010000000C05
(1487087110.800556) can0 1F1#0F00000000000000
(1487087110.800556) can0 260#051D003001BB531A
(1487087110.800557) can0 2A0#A20062806E12A900
(1487087110.800557) can0 329#848D810C112F0010
(1487087110.801622) can0 545#D831008874FF77FF
(1487087110.802700) can0 2C0#0000000000000000
(1487087110.803784) can0 153#200000FF00FF203E
(1487087110.804872) can0 4B0#0040008000000000
(1487087110.804873) can0 165#07E87F0000000090
(1487087110.804873) can0 2B0#0000000752
(1487087110.808657) can0 220#0040000000000040
(1487087110.809742) can0 164#0008010000000D04
(1487087110.809743) can0 260#051D003001BB5725
(1487087110.809743) can0 080#00178C141E2C1D6E
(1487087110.809743) can0 081#40000000000000EE
(1487087110.810846) can0 18F#003C1D00005B0000
(1487087110.810847) can0 2A0#C20062806E12A900
(1487087110.810847) can0 316#051E8C141D2C007F
(1487087110.810847) can0 329#848D810C112E0010
(1487087110.810848) can0 545#D83100887BFF77FF
(1487087110.812053) can0 2C0#0000000000000000
(1487087110.813651) can0 153#200000FF00FF304E
(1487087110.814744) can0 165#07E87F0000000191
(1487087110.814745) can0 2B0#0100000753
(1487087110.814745) can0 4F0#0000660000121402
(1487087110.814746) can0 4F1#CCFF000000000000
(1487087110.818128) can0 316#051E80141D2C007F
(1487087110.819192) can0 080#001780141E2C1D1F
(1487087110.819196) can0 081#40000000000000DF
(1487087110.819197) can0 18F#003C1D00005B0000
(1487087110.819197) can0 220#0040000000000040
(1487087110.820318) can0 164#0008010000000E07
(1487087110.820319) can0 1F1#0F00000000000000
(1487087110.820319) can0 260#051D003001BB5734
(1487087110.820320) can0 2A0#620062806E12A900
(1487087110.820320) can0 329#848D810C112F0010
(1487087110.821378) can0 545#D83100897BFF79FF
(1487087110.822461) can0 2C0#0000000000000000
(1487087110.823566) can0 165#05F87F0000000280
(1487087110.823566) can0 2B0#0000000734
(1487087110.824649) can0 153#200000FF00FF405E
(1487087110.824650) can0 4B0#0080008000000000
(1487087110.828193) can0 316#051E80141D2C007F
(1487087110.829272) can0 080#001780141E2C1D00
(1487087110.829273) can0 081#40000000000000C0
(1487087110.829273) can0 18F#003C1D00005B0000
(1487087110.829273) can0 220#0040000000000040
(1487087110.830375) can0 164#0008010000000F06
(1487087110.830376) can0 260#051D003001BB5707
(1487087110.830376) can0 2A0#020062806E12A900
(1487087110.830377) can0 329#848D810C112F0010
(1487087110.830377) can0 545#D83100897BFF79FF
(1487087110.832021) can0 2C0#0000000000000000
(1487087110.833111) can0 165#07E87F0000000393
(1487087110.834190) can0 2B0#0000000725
(1487087110.834191) can0 153#200000FF00FF506E
(1487087110.835270) can0 4F0#0000680000121402
(1487087110.835270) can0 4F1#CCFF000000000000
(1487087110.837109) can0 5F0#0100
(1487087110.838580) can0 316#051D86141D2C007F
(1487087110.839664) can0 18F#003C1D00005B0000
(1487087110.839665) can0 080#001786141D2C1DA1
(1487087110.839665) can0 081#40000000000000B1
(1487087110.839665) can0 220#0040000000000040
(1487087110.840767) can0 164#0008010000000009
(1487087110.840768) can0 1F1#0F00000000000000
(1487087110.840768) can0 260#051D003001BB5914
(1487087110.840769) can0 2A0#A20062806E12A900
(1487087110.840769) can0 329#848D810C112E0010
(1487087110.841856) can0 545#D831008878FF76FF
(1487087110.842937) can0 2C0#0000000000000000
(1487087110.842938) can0 165#07E87F0000000494
(1487087110.842938) can0 2B0#0000000716
(1487087110.844018) can0 153#200000FF00FF607E
(1487087110.844019) can0 4B0#00C0008000000000
(1487087110.848288) can0 316#051D8A141D2C007F
(1487087110.849390) can0 080#00178A141D2C1D52
(1487087110.849391) can0 081#40000000000000A2
(1487087110.849391) can0 18F#003C1D00005B0000
(1487087110.849391) can0 220#0040000000000040
(1487087110.850492) can0 164#0008010000000108
(1487087110.850493) can0 260#051D003001BC5922
(1487087110.850494) can0 2A0#C20062806E12A900
(1487087110.850494) can0 329#D78D810C112E0010
(1487087110.850494) can0 545#D831008778FF76FF
(1487087110.851994) can0 2C0#0000000000000000
(1487087110.853074) can0 165#07F87F0000000585
(1487087110.853075) can0 2B0#0000000707
(1487087110.854159) can0 153#200000FF00FF708E
(1487087110.855239) can0 4F0#00006A0000121402
(1487087110.855240) can0 4F1#CCFF000000000000
(1487087110.858054) can0 316#051C7C141C2C007F
(1487087110.859157) can0 080#00177C141C2C1C53
(1487087110.859157) can0 081#4000000000000093
(1487087110.859158) can0 18F#003C1C00005B0000
(1487087110.859158) can0 220#0040000000000040
(1487087110.860282) can0 164#000801000000020B
(1487087110.860282) can0 1F1#0F00000000000000
(1487087110.860283) can0 0A0#54614E1500250001
(1487087110.860283) can0 0A1#808180802A000000
(1487087110.860284) can0 260#051C003001BC5734
(1487087110.861363) can0 2A0#620062806E12A900
(1487087110.861363) can0 329#D78D810C112D0010
(1487087110.861364) can0 545#D83100896CFF71FF
(1487087110.862444) can0 5E4#000000
(1487087110.862445) can0 2B0#01000007E8
(1487087110.862445) can0 165#08E87F0000000699
(1487087110.862445) can0 2C0#0000000000000000
(1487087110.863613) can0 153#200000FF00FF809E
(1487087110.864698) can0 4B0#000000C000000000
(1487087110.868115) can0 316#051C7A141C2C007F
(1487087110.869222) can0 080#00177A141C2C1C64
(1487087110.869223) can0 081#4000000000000084
(1487087110.869223) can0 18F#003C1C00005B0000
(1487087110.869223) can0 220#0040000000000040
(1487087110.870322) can0 164#000801000000030A
(1487087110.870323) can0 260#051C003001BC5707
(1487087110.870323) can0 2A0#020062806E12A900
(1487087110.870323) can0 329#D78D810C112E0010
(1487087110.870324) can0 545#D83D00896CFF71FF
(1487087110.871401) can0 165#07F87F0000000787
(1487087110.871402) can0 2B0#00000007E9
(1487087110.872472) can0 2C0#0000000000000000
(1487087110.873604) can0 153#200000FF00FF90AE
(1487087110.874817) can0 4F0#00006C0000121402
(1487087110.875898) can0 4F1#CCFF000000000000
(1487087110.878524) can0 316#051C8C141B2C007F
(1487087110.879627) can0 18F#003C1B00005B0000
(1487087110.879628) can0 080#00178C141C2C1B35
(1487087110.879628) can0 081#4000000000000075
(1487087110.879628) can0 220#0040000000000040
(1487087110.880732) can0 164#000801000000040D
(1487087110.880733) can0 1F1#0F00000000000000
(1487087110.880733) can0 260#051B003001BC5717
(1487087110.880733) can0 2A0#A20062806E12A900
(1487087110.880734) can0 329#D78D810C112E0010
(1487087110.881813) can0 165#07E87F0000000898
(1487087110.881813) can0 2B0#01000007CA
(1487087110.881814) can0 545#D83D008968FF68FF
(1487087110.882898) can0 2C0#0000000000000000
(1487087110.883982) can0 153#200000FF00FFA0BE
(1487087110.883983) can0 4B0#004000C000000000
(1487087110.885090) can0 5F0#0100
(1487087110.888274) can0 316#051C90141B2C007F
(1487087110.889374) can0 080#001790141C2C1BD6
(1487087110.889375) can0 081#4000000000000066
(1487087110.889375) can0 18F#003C1B00005B0000
(1487087110.889375) can0 220#0040000000000040
(1487087110.890477) can0 164#000801000000050C
(1487087110.890477) can0 260#051B003001BC5726
(1487087110.890478) can0 2A0#C20062806E12A900
(1487087110.890478) can0 329#D78D810C112E0010
(1487087110.890478) can0 165#07F87F0000000989
(1487087110.891559) can0 2B0#01000007DB
(1487087110.891560) can0 545#D83D008668FF68FF
(1487087110.892624) can0 2C0#0000000000000000
(1487087110.893712) can0 153#200000FF00FFB0CE
(1487087110.894813) can0 4F0#00006E0000121402
(1487087110.894814) can0 4F1#CCFF000000000000
(1487087110.895872) can0 690#4000400000202C00
(1487087110.898460) can0 316#051B90141B2C007F
(1487087110.899540) can0 18F#003C1B00005B0000
(1487087110.899540) can0 080#001790141B2C1BD7
(1487087110.899541) can0 081#4000000000000057
(1487087110.899541) can0 220#0040000000000040
(1487087110.900663) can0 164#000801000000060F
(1487087110.900664) can0 165#07E87F0000000A9A
(1487087110.900665) can0 1F1#0F00000000000000
(1487087110.900665) can0 260#051B003001BC5735
(1487087110.900665) can0 2A0#620062806E12A900
(1487087110.901744) can0 2B0#01000007AC
(1487087110.901745) can0 329#D78D810C112E0010
(1487087110.901745) can0 545#D83D008964FF68FF
(1487087110.902835) can0 2C0#0000000000000000
(1487087110.903915) can0 153#200000FF00FFC0DE
(1487087110.903918) can0 4B0#008000C000000000
(1487087110.908098) can0 316#051B86141B2C007F
(1487087110.909178) can0 080#001786141B2C1B78
(1487087110.909179) can0 081#4000000000000048
(1487087110.909179) can0 18F#003C1B00005B0000
(1487087110.909179) can0 220#0040000000000040
(1487087110.910303) can0 164#000801000000070E
(1487087110.910304) can0 165#07F87F0000000B8B
(1487087110.910304) can0 260#051B003001BC5708
(1487087110.910304) can0 2A0#020062806E12A900
(1487087110.910305) can0 2B0#00000007AD
(1487087110.911364) can0 329#0F8D810C112E0010
(1487087110.911365) can0 545#D83D008864FF64FF
(1487087110.912457) can0 2C0#0000000000000000
(1487087110.913613) can0 153#200000FF00FFD0EE
(1487087110.914704) can0 4F0#0000700000121402
(1487087110.914705) can0 4F1#CCFF000000000000
(1487087110.918258) can0 316#051B86141B2C007F
(1487087110.919361) can0 080#001786141B2C1B69
(1487087110.919362) can0 081#4000000000000039
(1487087110.919362) can0 165#07F87F0000000C8C
(1487087110.919363) can0 18F#003C1B00005B0000
(1487087110.920467) can0 220#0040000000000040
(1487087110.920467) can0 164#0008010000000801
(1487087110.920468) can0 1F1#0F00000000000000
(1487087110.920468) can0 260#051B003001BC5717
(1487087110.920469) can0 2A0#A20062806E12A900
(1487087110.921548) can0 2B0#000000079E
(1487087110.921548) can0 329#0F8D810C112E0010
(1487087110.921549) can0 545#D83D008864FF64FF
(1487087110.922632) can0 2C0#0000000000000000
(1487087110.923701) can0 153#200000FF00FFE0FE
(1487087110.924779) can0 4B0#0000000000000000
(1487087110.928488) can0 165#08E87F0000000D92
(1487087110.929574) can0 220#0040000000000040
(1487087110.929574) can0 164#0008010000000900
(1487087110.929575) can0 080#001768141B2C1C4A
(1487087110.929575) can0 081#400000000000002A
(1487087110.930674) can0 18F#003C1C00005B0000
(1487087110.930675) can0 260#051C003001BC5D2F
(1487087110.930675) can0 2A0#C20062806E12A900
(1487087110.930675) can0 2B0#010000079F
(1487087110.930676) can0 316#051B68141C2C007F
(1487087110.931755) can0 329#0F8D810C112D0010
(1487087110.931756) can0 545#D83D008966FF6BFF
(1487087110.932836) can0 2C0#0000000000000000
(1487087110.933917) can0 5F0#0100
(1487087110.933918) can0 153#200000FF00FF001E
(1487087110.935002) can0 4F0#0000720000121402
(1487087110.935003) can0 4F1#CCFF000000000000
(1487087110.937959) can0 165#08E87F0000000E91
(1487087110.939070) can0 260#051C003001BC5D3E
(1487087110.939070) can0 18F#003C1C00005B0000
(1487087110.939071) can0 080#00175C141B2C1C0B
(1487087110.939071) can0 081#400000000000001B
(1487087110.940171) can0 220#0040000000000040
(1487087110.940171) can0 164#0008010000000A03
(1487087110.940172) can0 1F1#0F00000000000000
(1487087110.940172) can0 2A0#620062806E12A900
(1487087110.940172) can0 2B0#0100000760
(1487087110.941221) can0 316#051B5C141C2C007F
(1487087110.941222) can0 329#0F8D810C112D0010
(1487087110.941222) can0 545#D83D008866FF6BFF
(1487087110.942300) can0 2C0#0000000000000000
(1487087110.943571) can0 153#200000FF00FF102E
(1487087110.944666) can0 4B0#0040000000000000
(1487087110.947603) can0 165#07F87F0000000F8F
(1487087110.948707) can0 2B0#0000000761
(1487087110.948708) can0 316#051C46141C2C007F
(1487087110.948708) can0 080#001746141C2C1C5C
(1487087110.948708) can0 081#400000000000000C
(1487087110.949828) can0 18F#003C1C00005B0000
(1487087110.949829) can0 220#0040000000000040
(1487087110.949830) can0 164#0008010000000B02
(1487087110.949830) can0 260#051C003001BB5D02
(1487087110.949830) can0 2A0#020062806E12A900
(1487087110.950888) can0 329#0F8D810C112D0010
(1487087110.950889) can0 545#D83D00896BFF70FF
(1487087110.951998) can0 2C0#0000000000000000
(1487087110.953618) can0 153#200000FF00FF203E
(1487087110.954689) can0 4F0#0000740000121402
(1487087110.954690) can0 4F1#CCFF000000000000
(1487087110.957189) can0 165#08F87F000000008F
(1487087110.958245) can0 2B0#0000000752
(1487087110.958246) can0 316#051C40141C2C007F
(1487087110.959366) can0 080#001740141C2C1CAD
(1487087110.959367) can0 081#40000000000000FD
(1487087110.959367) can0 18F#003C1C00005B0000
(1487087110.959368) can0 220#0040000000000040
(1487087110.960472) can0 164#0008010000000C05
(1487087110.960473) can0 1F1#0F00000000000000
(1487087110.960473) can0 260#051C003001BB5D11
(1487087110.960473) can0 2A0#A20062806E12A900
(1487087110.960474) can0 329#0F8D810C112D0010
(1487087110.961561) can0 545#D83D00896BFF70FF
(1487087110.962641) can0 2C0#0000000000000000
(1487087110.962641) can0 0A0#5061861400250001
(1487087110.962642) can0 0A1#8080808028000000
(1487087110.962642) can0 5E4#000000
(1487087110.963715) can0 153#200000FF00FF304E
(1487087110.964781) can0 4B0#0080000000000000
(1487087110.966717) can0 165#07E87F0000000191
(1487087110.967784) can0 2B0#0100000753
(1487087110.968859) can0 220#0040000000000040
(1487087110.968860) can0 164#0008010000000D04
(1487087110.969982) can0 316#051C40141C2C007F
(1487087110.969983) can0 080#001740141C2C1C9E
(1487087110.969983) can0 081#40000000000000EE
(1487087110.969984) can0 18F#003C1C00005B0000
(1487087110.971113) can0 260#051C003001BB5F2E
(1487087110.971114) can0 2A0#C20062806E12A900
(1487087110.971114) can0 329#4F8D810C112D0010
(1487087110.971114) can0 545#D82B008868FF70FF
(1487087110.972197) can0 2C0#0000000000000000
(1487087110.973592) can0 153#200000FF00FF405E
(1487087110.974863) can0 4F0#0000760000121402
(1487087110.975946) can0 4F1#CCFF000000000000
(1487087110.977025) can0 165#07F87F0000000282
(1487087110.977026) can0 2B0#0000000734
(1487087110.978110) can0 316#051C58141C2C007F
(1487087110.979213) can0 080#001758141C2C1CFF
(1487087110.979213) can0 081#40000000000000DF
(1487087110.979214) can0 18F#003C1C00005B0000
(1487087110.979214) can0 220#0040000000000040
(1487087110.980294) can0 164#0008010000000E07
(1487087110.980296) can0 1F1#0F00000000000000
(1487087110.980296) can0 260#051C003001BB5F3D
(1487087110.980297) can0 2A0#620062806E12A900
(1487087110.980297) can0 329#4F8D810C112D0010
(1487087110.981397) can0 545#D82B008969FF69FF
(1487087110.981398) can0 5F0#0100
(1487087110.982482) can0 2C0#0000000000000000
(1487087110.982482) can0 5A0#0000000000000000
(1487087110.982483) can0 5A1#5442333046422644
(1487087110.983587) can0 5A2#05029103
(1487087110.983588) can0 153#200000FF00FF506E
(1487087110.984679) can0 4B0#00C0000000000000
(1487087110.985875) can0 165#07F87F0000000383
(1487087110.986939) can0 2B0#0000000725
(1487087110.988107) can0 316#051C58141C2C007F
(1487087110.989189) can0 080#001758141C2C1CE0
(1487087110.989190) can0 081#40000000000000C0
(1487087110.989190) can0 18F#003C1C00005B0000
(1487087110.989191) can0 220#0040000000000040
(1487087110.990300) can0 164#0008010000000F06
(1487087110.990301) can0 260#051C003001BB5F00
(1487087110.990301) can0 2A0#020062806E12A900
(1487087110.990301) can0 329#4F8D810C112D0010
(1487087110.990302) can0 545#D82B008969FF69FF
(1487087110.991945) can0 2C0#0000000000000000
(1487087110.993601) can0 153#200000FF00FF607E
(1487087110.994674) can0 4F0#0000780000121402
(1487087110.994675) can0 4F1#CCFF000000000000
(1487087110.995764) can0 690#4000400000203000
(1487087110.995765) can0 165#07F87F0000000484
(1487087110.995765) can0 2B0#0100000706
(1487087110.998547) can0 316#051A68141A2C007F
(1487087110.999626) can0 18F#003C1A00005B0000
(1487087110.999627) can0 080#001768141A2C1A01
(1487087110.999627) can0 081#40000000000000B1
(1487087110.999628) can0 220#0040000000000040
(1487087111.000767) can0 164#0008010000000009
(1487087111.000768) can0 1F1#0F00000000000000
(1487087111.000768) can0 260#051A003001BB5F11
(1487087111.000782) can0 2A0#A20062806E12A900
(1487087111.000782) can0 329#4F8D810C112D0010
(1487087111.001872) can0 545#D82B008A5DFF5CFF
(1487087111.002933) can0 2C0#0000000000000000
(1487087111.004029) can0 153#200000FF00FF708E
(1487087111.004030) can0 4B0#0000004000000000
(1487087111.005120) can0 165#07F87F0000000585
(1487087111.006182) can0 2B0#0100000717
(1487087111.008194) can0 316#051A70141A2C007F
(1487087111.009262) can0 080#001770141A2C1A62
(1487087111.009263) can0 081#40000000000000A2
(1487087111.009263) can0 18F#003C1A00005B0000
(1487087111.009264) can0 220#0040000000000040
(1487087111.010368) can0 164#0008010000000108
(1487087111.010368) can0 260#051A003001BB5F20
(1487087111.010369) can0 2A0#C20062806E12A900
(1487087111.010380) can0 329#4F8D810C112D0010
(1487087111.010380) can0 545#D82B00885DFF5CFF
(1487087111.011940) can0 2C0#0000000000000000
(1487087111.013572) can0 153#200000FF00FF809E
(1487087111.014679) can0 4F0#00007A0000121402
(1487087111.014679) can0 4F1#CCFF000000000000
(1487087111.015775) can0 165#07F87F0000000686
(1487087111.015776) can0 2B0#01000007E8
(1487087111.017972) can0 316#05198414192C007F
(1487087111.019074) can0 080#00178414192C1923
(1487087111.019074) can0 081#4000000000000093
(1487087111.019075) can0 18F#003C1900005B0000
(1487087111.019075) can0 220#0040000000000040
(1487087111.020211) can0 164#000801000000020B
(1487087111.020212) can0 1F1#0F00000000000000
(1487087111.020212) can0 260#0519003001BB5D32
(1487087111.020213) can0 2A0#620062806E12A900
(1487087111.020213) can0 329#4F8D810C112D0010
(1487087111.021260) can0 545#D82B008951FF4FFF
(1487087111.022342) can0 2C0#0000000000000000
(1487087111.023573) can0 153#200000FF00FF90AE
(1487087111.024675) can0 4B0#0040004000000000
(1487087111.024676) can0 165#08E87F0000000798
(1487087111.024676) can0 2B0#00000007E9
(1487087111.028080) can0 316#05199014192C007F
(1487087111.029158) can0 080#00179014192C1944
(1487087111.029159) can0 081#4000000000000084
(1487087111.029159) can0 18F#003C1900005B0000
(1487087111.029160) can0 220#0040000000000040
(1487087111.030259) can0 164#000801000000030A
(1487087111.030259) can0 260#0519003001BB5D05
(1487087111.030260) can0 2A0#020062806E12A900
(1487087111.030260) can0 329#848D810C112D0010
(1487087111.030260) can0 545#D82B008950FF4EFF
(1487087111.031360) can0 5F0#0100
(1487087111.032434) can0 2C0#0000000000000000
(1487087111.033588) can0 153#200000FF00FFA0BE
(1487087111.034672) can0 165#08F87F0000000887
(1487087111.034683) can0 2B0#00000007DA
(1487087111.034683) can0 4F0#00007C0000121402
(1487087111.034684) can0 4F1#CCFF000000000000
(1487087111.038576) can0 316#0518A214172C007F
(1487087111.039656) can0 18F#003C1700005B0000
(1487087111.039657) can0 080#0017A214182C1735
(1487087111.039657) can0 081#4000000000000075
(1487087111.039669) can0 220#0040000000000040
(1487087111.040804) can0 164#000801000000040D
(1487087111.040805) can0 1F1#0F00000000000000
(1487087111.040805) can0 260#0517003001BB5D16
(1487087111.040806) can0 2A0#A20062806E12A900
(1487087111.040806) can0 329#848D810C112D0010
(1487087111.041876) can0 545#D82B008845FF43FF
(1487087111.041877) can0 2C0#0000000000000000
(1487087111.043250) can0 165#07F87F0000000989
(1487087111.044355) can0 2B0#01000007DB
(1487087111.044367) can0 153#200000FF00FFB0CE
(1487087111.044367) can0 4B0#0080004000000000
(1487087111.048218) can0 316#0518A814172C007F
(1487087111.049290) can0 080#0017A814182C17C6
(1487087111.049291) can0 081#4000000000000066
(1487087111.049291) can0 18F#003C1700005B0000
(1487087111.049301) can0 220#0040000000000040
(1487087111.050402) can0 164#000801000000050C
(1487087111.050403) can0 260#0517003001BC5D24
(1487087111.050403) can0 2A0#C20062806E12A900
(1487087111.050404) can0 329#848D810C112D0010
(1487087111.050415) can0 545#D82B008945FF43FF
(1487087111.051886) can0 2C0#0000000000000000
(1487087111.052977) can0 165#0708800000000A85
(1487087111.054060) can0 2B0#01000007AC
(1487087111.054061) can0 153#200000FF00FFC0DE
(1487087111.055150) can0 4F0#00007E0000121402
(1487087111.055161) can0 4F1#CCFF000000000000
(1487087111.058227) can0 316#0518A814172C007F
(1487087111.059308) can0 260#0517003001BC5D33
(1487087111.059309) can0 220#0040000000000040
(1487087111.059309) can0 080#0017A814182C17B7
(1487087111.059309) can0 081#4000000000000057
(1487087111.060444) can0 0A0#4B61861400250001
(1487087111.060445) can0 0A1#8080808026000000
(1487087111.060445) can0 164#000801000000060F
(1487087111.060446) can0 18F#003C1700005B0000
(1487087111.060446) can0 1F1#0F00000000000000
(1487087111.061523) can0 2A0#620062806E12A900
(1487087111.061524) can0 329#848D810C112D0010
(1487087111.061524) can0 545#D82B008845FF43FF
(1487087111.062601) can0 2C0#0000000000000000
(1487087111.062612) can0 5E4#000000
(1487087111.062613) can0 165#07F87F0000000B8B
(1487087111.063682) can0 2B0#00000007AD
(1487087111.063683) can0 153#200000FF00FFD0EE
(1487087111.064772) can0 4B0#00C0004000000000
(1487087111.068242) can0 316#0517A214172C007F
(1487087111.069345) can0 080#0017A214172C1718
(1487087111.069346) can0 081#4000000000000048
(1487087111.069346) can0 18F#003C1700005B0000
(1487087111.069346) can0 220#0040000000000040
(1487087111.070449) can0 164#000801000000070E
(1487087111.070450) can0 260#0517003001BC5D06
(1487087111.070451) can0 2A0#020062806E12A900
(1487087111.070451) can0 329#848D810C112D0010
(1487087111.070451) can0 545#D82B008841FF41FF
(1487087111.071869) can0 2C0#0000000000000000
(1487087111.072948) can0 165#0708800000000C83
(1487087111.072949) can0 2B0#000000079E
(1487087111.074017) can0 153#200000FF00FFE0FE
(1487087111.075097) can0 4F0#0000800000121402
(1487087111.075098) can0 4F1#CCFF000000000000
(1487087111.077032) can0 5F0#0100
(1487087111.078216) can0 316#0517A214172C007F
(1487087111.079300) can0 080#0017A214172C1709
(1487087111.079301) can0 081#4000000000000039
(1487087111.079301) can0 18F#003C1700005B0000
(1487087111.079301) can0 220#0040000000000040
(1487087111.080405) can0 164#0008010000000801
(1487087111.080406) can0 1F1#0F00000000000000
(1487087111.080406) can0 260#0517003001BC5D15
(1487087111.080406) can0 2A0#A20062806E12A900
(1487087111.080407) can0 329#848D810C112D0010
(1487087111.081516) can0 545#D82B008941FF41FF
(1487087111.081517) can0 165#07F87F0000000D8D
(1487087111.082595) can0 2B0#010000079F
(1487087111.082595) can0 2C0#0000000000000000
(1487087111.083651) can0 153#200000FF00FF001E
(1487087111.084736) can0 4B0#0000008000000000
(1487087111.088153) can0 316#05189614182C007F
(1487087111.089263) can0 260#0518003001BC5F21
(1487087111.089264) can0 220#0040000000000040
(1487087111.089264) can0 164#0008010000000900
(1487087111.089264) can0 080#00179614182C18AA
(1487087111.090361) can0 081#400000000000002A
(1487087111.090362) can0 18F#003C1800005B0000
(1487087111.090362) can0 2A0#C20062806E12A900
(1487087111.090363) can0 329#D78D810C112D0010
(1487087111.090363) can0 545#D82B008847FF44FF
(1487087111.091441) can0 165#08E87F0000000E91
(1487087111.091442) can0 2B0#0000000770
(1487087111.092512) can0 2C0#0000000000000000
(1487087111.093590) can0 153#200000FF00FF102E
(1487087111.094689) can0 4F0#0000820000121402
(1487087111.094690) can0 4F1#CCFF000000000000
(1487087111.095774) can0 690#4000400000203400
(1487087111.097983) can0 316#05189214182C007F
(1487087111.099086) can0 080#00179214182C18DB
(1487087111.099086) can0 081#400000000000001B
(1487087111.099087) can0 18F#003C1800005B0000
(1487087111.099088) can0 220#0040000000000040
(1487087111.100211) can0 164#0008010000000A03
(1487087111.100212) can0 1F1#0F00000000000000
(1487087111.100212) can0 260#0518003001BC5F30
(1487087111.100213) can0 2A0#620062806E12A900
(1487087111.100213) can0 329#D78D810C112D0010
(1487087111.101290) can0 545#D82B008947FF44FF
(1487087111.101291) can0 165#0708800000000F80
(1487087111.101291) can0 2B0#0000000761
(1487087111.102382) can0 2C0#0000000000000000
(1487087111.103560) can0 153#200000FF00FF203E
(1487087111.104647) can0 4B0#0040008000000000
(1487087111.108020) can0 316#05179414172C007F
(1487087111.109100) can0 080#00179414172C17CC
(1487087111.109101) can0 081#400000000000000C
(1487087111.109101) can0 18F#003C1700005B0000
(1487087111.109102) can0 220#0040000000000040
(1487087111.110205) can0 164#0008010000000B02
(1487087111.110206) can0 260#0517003001BC5D06
(1487087111.110206) can0 2A0#020062806E12A900
(1487087111.110206) can0 329#D78D810C112C0010
(1487087111.110207) can0 545#D82B00893CFF41FF
(1487087111.111289) can0 165#070880000000008F
(1487087111.111289) can0 2B0#0100000742
(1487087111.112380) can0 2C0#0000000000000000
(1487087111.113556) can0 153#200000FF00FF304E
(1487087111.114641) can0 4F0#0000840000121402
(1487087111.114641) can0 4F1#CCFF000000000000
(1487087111.118143) can0 316#05179014172C007F
(1487087111.119222) can0 080#00179014172C17FD
(1487087111.119223) can0 081#40000000000000FD
(1487087111.119223) can0 18F#003C1700005B0000
(1487087111.119223) can0 220#0040000000000040
(1487087111.120351) can0 164#0008010000000C05
(1487087111.120351) can0 1F1#0F00000000000000
(1487087111.120352) can0 165#07F87F0000000181
(1487087111.120352) can0 260#0517003001BC5D15
(1487087111.120353) can0 2A0#A20062806E12A900
(1487087111.121491) can0 2B0#0100000753
(1487087111.121492) can0 329#D78D810C112C0010
(1487087111.121492) can0 545#D82B00893DFF42FF
(1487087111.122570) can0 2C0#0000000000000000
(1487087111.123655) can0 153#200000FF00FF405E
(1487087111.124718) can0 4B0#0080008000000000
(1487087111.125809) can0 5F0#0100
(1487087111.128617) can0 220#0040000000000040
(1487087111.129716) can0 164#0008010000000D04
(1487087111.129717) can0 18F#003C1700005B0000
(1487087111.129718) can0 080#00179014172C17EE
(1487087111.129718) can0 081#40000000000000EE
(1487087111.130802) can0 260#0517003001BC5F22
(1487087111.130803) can0 2A0#C20062806E12A900
(1487087111.130804) can0 2B0#0100000724
(1487087111.130804) can0 165#070880000000028D
(1487087111.130804) can0 316#05179014172C007F
(1487087111.131907) can0 329#D78D810C112C0010
(1487087111.131908) can0 545#D82B008843FF42FF
(1487087111.131914) can0 2C0#0000000000000000
(1487087111.133607) can0 153#200000FF00FF506E
(1487087111.134693) can0 4F0#0000860000121402
(1487087111.134695) can0 4F1#CCFF000000000000
(1487087111.137955) can0 316#05177014182C007F
(1487087111.139108) can0 080#00177014172C18EF
(1487087111.139109) can0 081#40000000000000DF
(1487087111.139109) can0 18F#003C1800005B0000
(1487087111.139110) can0 165#07F87F0000000383
(1487087111.140216) can0 220#0040000000000040
(1487087111.140217) can0 164#0008010000000E07
(1487087111.140217) can0 1F1#0F00000000000000
(1487087111.140218) can0 260#0518003001BC5F30
(1487087111.140218) can0 2A0#620062806E12A900
(1487087111.141260) can0 2B0#0100000735
(1487087111.141261) can0 329#D78D810C112C0010
(1487087111.141262) can0 545#D82B008943FF46FF
(1487087111.142318) can0 2C0#0000000000000000
(1487087111.143548) can0 153#200000FF00FF607E
(1487087111.144632) can0 4B0#00C0008000000000
(1487087111.148028) can0 316#05177014182C007F
(1487087111.149115) can0 080#00177014172C18D0
(1487087111.149116) can0 081#40000000000000C0
(1487087111.149116) can0 18F#003C1800005B0000
(1487087111.149117) can0 220#0040000000000040
(1487087111.150215) can0 164#0008010000000F06
(1487087111.150216) can0 260#0518003001BC5F03
(1487087111.150216) can0 2A0#020062806E12A900
(1487087111.150216) can0 2B0#0100000706
(1487087111.150217) can0 165#070880000000048B
(1487087111.151276) can0 329#0F8D810C112C0010
(1487087111.151276) can0 545#D82B008943FF46FF
(1487087111.152379) can0 2C0#0000000000000000
(1487087111.153543) can0 153#200000FF00FF708E
(1487087111.154624) can0 4F0#0000880000121402
(1487087111.154625) can0 4F1#CCFF000000000000
(1487087111.157938) can0 165#070880000000058A
(1487087111.159041) can0 2B0#0000000707
(1487087111.159042) can0 316#05195C14182C007F
(1487087111.159042) can0 18F#003C1800005B0000
(1487087111.159042) can0 080#00175C14192C1801
