(1487076403.598856) can0 220#ED0300000000BB0F
(1487076403.600011) can0 164#0008000000000008
(1487076403.600012) can0 1F1#0000000000000000
(1487076403.600013) can0 4F0#0000FA0000121402
(1487076403.600013) can0 165#0908800000000E8F
(1487076403.601084) can0 2B0#FD06000730
(1487076403.601085) can0 4F1#CCFF000000000000
(1487076403.601086) can0 690#4000400000202400
(1487076403.601087) can0 316#059D0000002F007F
(1487076403.602218) can0 080#001700009D2F00F2
(1487076403.602219) can0 081#40000000000000A2
(1487076403.602220) can0 18F#002C000000720000
(1487076403.602220) can0 260#050000000EA75F26
(1487076403.602220) can0 2A0#C2005D806C12A900
(1487076403.603309) can0 2C0#0000000000000000
(1487076403.603310) can0 329#4F60810E11320010
(1487076403.603311) can0 545#DF00005D54FE54FE
(1487076403.604402) can0 153#200000FF00FFA0BE
(1487076403.604403) can0 4B0#004000C000000000
(1487076403.608853) can0 220#ED0300000000C70F
(1487076403.609900) can0 164#0008000000000109
(1487076403.609902) can0 165#0908800000000F8E
(1487076403.609902) can0 2B0#FD06000721
(1487076403.611069) can0 316#059D0000002F007F
(1487076403.612172) can0 080#001700009D2F00E3
(1487076403.612173) can0 081#4000000000000093
(1487076403.612173) can0 18F#002C000000720000
(1487076403.612174) can0 260#050000000EA75F35
(1487076403.612180) can0 2A0#62005D806C12A900
(1487076403.613289) can0 2C0#0000000000000000
(1487076403.613291) can0 329#4F60810E11320010
(1487076403.613291) can0 545#DF00005E54FE54FE
(1487076403.613291) can0 5A1#5442333046422644
(1487076403.614352) can0 153#200000FF00FFB0CE
(1487076403.618917) can0 220#ED0300000000C70F
(1487076403.620028) can0 164#000800000000020A
(1487076403.620029) can0 1F1#0000000000000000
(1487076403.620030) can0 2B0#FD06000712
(1487076403.620030) can0 165#0908800000000081
(1487076403.621094) can0 4F0#0000FC0000121402
(1487076403.621095) can0 4F1#CCFF000000000000
(1487076403.621095) can0 316#059D0000002F007F
(1487076403.621095) can0 080#001700009D2F00D4
(1487076403.622203) can0 081#4000000000000084
(1487076403.622204) can0 18F#002C000000720000
(1487076403.622205) can0 260#050000000EA75F08
(1487076403.622205) can0 2A0#02005D806C12A900
(1487076403.623289) can0 2C0#0000000000000000
(1487076403.623290) can0 329#8060810E11320010
(1487076403.623290) can0 545#DF00005E54FE54FE
(1487076403.624319) can0 153#200000FF00FFC0DE
(1487076403.624320) can0 4B0#008000C000000000
(1487076403.625403) can0 5F0#0100
(1487076403.628364) can0 5E4#040000
(1487076403.629443) can0 165#0908800000000180
(1487076403.629444) can0 220#ED0300000000D40F
(1487076403.629445) can0 164#000800000000030B
(1487076403.629446) can0 2B0#FD06000703
(1487076403.631001) can0 316#059D0000002F007F
(1487076403.632100) can0 080#001700009D2F00C5
(1487076403.632101) can0 081#4000000000000075
(1487076403.632102) can0 18F#002C000000720000
(1487076403.632102) can0 260#050000000EA75F17
(1487076403.633200) can0 2A0#A2005D806C12A900
(1487076403.633201) can0 2C0#0000000000000000
(1487076403.633201) can0 329#8060810E11320010
(1487076403.633202) can0 545#DF00005E54FE54FE
(1487076403.634262) can0 153#200000FF00FFD0EE
(1487076403.638074) can0 165#0908800000000283
(1487076403.639213) can0 2B0#FF06000754
(1487076403.639214) can0 220#ED0300000000D40F
(1487076403.639214) can0 164#000800000000040C
(1487076403.640249) can0 1F1#0000000000000000
(1487076403.640250) can0 4F0#0000FE0000121402
(1487076403.640250) can0 4F1#CCFF000000000000
(1487076403.641436) can0 316#059D0000002F007F
(1487076403.641437) can0 080#001700009D2F00B6
(1487076403.642471) can0 081#4000000000000066
(1487076403.642472) can0 18F#002C000000720000
(1487076403.642473) can0 260#050000000EA75F26
(1487076403.642474) can0 2A0#C2005D806C12A900
(1487076403.642474) can0 2C0#0000000000000000
(1487076403.643625) can0 329#8060810E11320010
(1487076403.643626) can0 545#DF00005D54FE54FE
(1487076403.644707) can0 153#200000FF00FFE0FE
(1487076403.644708) can0 4B0#0000000000000000
(1487076403.647735) can0 165#0908800000000382
(1487076403.648803) can0 2B0#FD06000765
(1487076403.649911) can0 220#ED0300000000CD0F
(1487076403.649912) can0 164#000800000000050D
(1487076403.650998) can0 316#059D0000002F007F
(1487076403.652109) can0 080#001700009D2F00A7
(1487076403.652110) can0 081#4000000000000057
(1487076403.652110) can0 18F#002C000000720000
(1487076403.652111) can0 260#050000000EA75F35
(1487076403.652111) can0 2A0#62005D806C12A900
(1487076403.653170) can0 2C0#0000000000000000
(1487076403.653171) can0 329#8060810E11320010
(1487076403.653172) can0 545#DF00005D54FE54FE
(1487076403.654276) can0 153#200000FF00FF001E
(1487076403.657292) can0 165#0908800000000485
(1487076403.658300) can0 2B0#FD06000756
(1487076403.659427) can0 220#ED0300000000C70F
(1487076403.659429) can0 164#000800000000060E
(1487076403.659429) can0 1F1#0000000000000000
(1487076403.660528) can0 4F0#0000000000121402
(1487076403.660529) can0 4F1#CCFF000000000000
(1487076403.661655) can0 316#059D0000002F007F
(1487076403.661656) can0 080#001700009D2F0098
(1487076403.661657) can0 081#4000000000000048
(1487076403.661657) can0 18F#002C000000720000
(1487076403.662747) can0 260#050000000EA75F08
(1487076403.662748) can0 2A0#02005D806C12A900
(1487076403.662748) can0 2C0#0000000000000000
(1487076403.662749) can0 329#8060810E11320010
(1487076403.663836) can0 545#DF00005E54FE54FE
(1487076403.664902) can0 153#200000FF00FF102E
(1487076403.664903) can0 4B0#0040000000000000
(1487076403.666853) can0 165#0908800000000584
(1487076403.667943) can0 2B0#FD06000747
(1487076403.669026) can0 220#ED0300000000D40F
(1487076403.670068) can0 164#000800000000070F
(1487076403.671164) can0 316#059D0000002F007F
(1487076403.672294) can0 080#001700009D2F0089
(1487076403.672295) can0 081#4000000000000039
(1487076403.672300) can0 18F#002C000000720000
(1487076403.672300) can0 260#050000000EA75F17
(1487076403.672302) can0 2A0#A2005D806C12A900
(1487076403.673402) can0 2C0#0000000000000000
(1487076403.673403) can0 329#8060810E11320010
(1487076403.673404) can0 545#DF00005D54FE54FE
(1487076403.673404) can0 0A0#0040000000280000
(1487076403.674498) can0 0A1#8080808066000000
(1487076403.674499) can0 5F0#0100
(1487076403.674499) can0 153#200000FF00FF203E
(1487076403.676421) can0 165#0908800000000687
(1487076403.677502) can0 2B0#FF06000798
(1487076403.678916) can0 220#ED0300000000CD0F
(1487076403.680003) can0 164#0008000000000800
(1487076403.680004) can0 1F1#0000000000000000
(1487076403.680004) can0 4F0#0000020000121402
(1487076403.680005) can0 4F1#CCFF000000000000
(1487076403.681083) can0 316#059D0000002F007F
(1487076403.682209) can0 080#001700009D2F007A
(1487076403.682210) can0 081#400000000000002A
(1487076403.682210) can0 18F#002C000000720000
(1487076403.682211) can0 260#050000000EA75F26
(1487076403.682211) can0 2A0#C2005D806C12A900
(1487076403.683290) can0 2C0#0000000000000000
(1487076403.683291) can0 329#D760810E11320010
(1487076403.683291) can0 545#DF00005E54FE54FE
(1487076403.684377) can0 153#200000FF00FF304E
(1487076403.684378) can0 4B0#0080000000000000
(1487076403.686028) can0 165#0908800000000786
(1487076403.687083) can0 2B0#FD060007A9
(1487076403.688907) can0 220#ED0300000000CD0F
(1487076403.689978) can0 164#0008000000000901
(1487076403.691014) can0 316#059D0000002F007F
(1487076403.692188) can0 080#001700009D2F006B
(1487076403.692189) can0 081#400000000000001B
(1487076403.692190) can0 18F#002C000000720000
(1487076403.692191) can0 260#050000000EA75F35
(1487076403.692191) can0 2A0#62005D806C12A900
(1487076403.693277) can0 2C0#0000000000000000
(1487076403.693278) can0 329#D760810E11320010
(1487076403.693278) can0 545#DF00005D54FE54FE
(1487076403.694352) can0 153#200000FF00FF405E
(1487076403.695533) can0 165#0908800000000889
(1487076403.696667) can0 2B0#FD0600079A
(1487076403.698919) can0 220#ED0300000000ED0F
(1487076403.700003) can0 164#0008000000000A02
(1487076403.700004) can0 1F1#0000000000000000
(1487076403.700004) can0 4F0#0000040000121402
(1487076403.700004) can0 4F1#CCFF000000000000
(1487076403.701104) can0 690#4000400000202800
(1487076403.701105) can0 316#059D0000002F007F
(1487076403.702176) can0 080#001700009D2F005C
(1487076403.702177) can0 081#400000000000000C
(1487076403.702177) can0 18F#002C000000720000
(1487076403.702178) can0 260#050000000EA75F08
(1487076403.702178) can0 2A0#02005D806C12A900
(1487076403.703290) can0 2C0#0000000000000000
(1487076403.703291) can0 329#D760810E11320010
(1487076403.703292) can0 545#DF00005D54FE54FE
(1487076403.704380) can0 153#200000FF00FF506E
(1487076403.704381) can0 4B0#00C0000000000000
(1487076403.705458) can0 165#0908800000000988
(1487076403.705459) can0 2B0#FD0600078B
(1487076403.708919) can0 220#ED0300000000ED0F
(1487076403.709978) can0 164#0008000000000B03
(1487076403.711125) can0 316#059D0000002F007F
(1487076403.712214) can0 080#001700009D2F004D
(1487076403.712215) can0 081#40000000000000FD
(1487076403.712216) can0 18F#002C000000720000
(1487076403.712217) can0 260#050000000EA75F17
(1487076403.713312) can0 2A0#A2005D806C12A900
(1487076403.713314) can0 2C0#0000000000000000
(1487076403.713314) can0 329#D760810E11320010
(1487076403.713314) can0 545#DF00005E54FE54FE
(1487076403.714381) can0 153#200000FF00FF607E
(1487076403.715460) can0 165#0908800000000A8B
(1487076403.715462) can0 2B0#FD060007FC
(1487076403.718916) can0 220#ED0300000000E00F
(1487076403.720003) can0 164#0008000000000C04
(1487076403.720004) can0 1F1#0000000000000000
(1487076403.720005) can0 4F0#0000060000121402
(1487076403.720005) can0 4F1#CCFF000000000000
(1487076403.721084) can0 5F0#0100
(1487076403.721085) can0 316#059D0000002F007F
(1487076403.722208) can0 2A0#C2005D806C12A900
(1487076403.722209) can0 080#001700009D2F003E
(1487076403.722209) can0 081#40000000000000EE
(1487076403.722210) can0 18F#002C000000720000
(1487076403.723313) can0 260#050000000EA75F26
(1487076403.723314) can0 2C0#0000000000000000
(1487076403.723315) can0 329#D760810E11320010
(1487076403.723315) can0 545#DF00005D54FE54FE
(1487076403.724400) can0 153#200000FF00FF708E
(1487076403.724401) can0 4B0#0000004000000000
(1487076403.724402) can0 165#0908800000000B8A
(1487076403.725479) can0 2B0#FD060007ED
(1487076403.728923) can0 220#ED0300000000B40F
(1487076403.730001) can0 164#0008000000000D05
(1487076403.730002) can0 5E4#040000
(1487076403.731082) can0 316#059D0000002F007F
(1487076403.731083) can0 080#001700009D2F002F
(1487076403.732138) can0 081#40000000000000DF
(1487076403.732140) can0 18F#002C000000720000
(1487076403.732140) can0 260#050000000EA75F35
(1487076403.732141) can0 2A0#62005D806C12A900
(1487076403.733278) can0 2C0#0000000000000000
(1487076403.733279) can0 329#D760810E11320010
(1487076403.733279) can0 545#DF00005E54FE54FE
(1487076403.734335) can0 165#0908800000000C8D
(1487076403.734336) can0 153#200000FF00FF809E
(1487076403.734336) can0 2B0#FF060007FE
(1487076403.738918) can0 220#ED0300000000A80F
(1487076403.739986) can0 164#0008000000000E06
(1487076403.739987) can0 1F1#0000000000000000
(1487076403.739988) can0 4F0#0000080000121402
(1487076403.739989) can0 4F1#CCFF000000000000
(1487076403.741100) can0 316#059D0000002F007F
(1487076403.742209) can0 080#001700009D2F0010
(1487076403.742210) can0 081#40000000000000C0
(1487076403.742211) can0 18F#002C000000720000
(1487076403.742211) can0 260#050000000EA75F08
(1487076403.742212) can0 2A0#02005D806C12A900
(1487076403.743270) can0 2C0#0000000000000000
(1487076403.743271) can0 329#0F60810E11320010
(1487076403.743271) can0 545#DF00005E54FE54FE
(1487076403.744328) can0 165#0908800000000D8C
(1487076403.744329) can0 2B0#FD060007CF
(1487076403.744330) can0 153#200000FF00FF90AE
(1487076403.744331) can0 4B0#0040004000000000
(1487076403.748860) can0 220#ED0300000000E60F
(1487076403.749937) can0 164#0008000000000F07
(1487076403.750992) can0 316#059D0000002F007F
(1487076403.752128) can0 080#001700009D2F0001
(1487076403.752129) can0 081#40000000000000B1
(1487076403.752129) can0 18F#002C000000720000
(1487076403.752130) can0 260#050000000EA75F17
(1487076403.753230) can0 2A0#A2005D806C12A900
(1487076403.753241) can0 2C0#0000000000000000
(1487076403.753242) can0 329#0F60810E11320010
(1487076403.753243) can0 545#DF00005D54FE54FE
(1487076403.753243) can0 165#0908800000000E8F
(1487076403.754312) can0 2B0#FD06000730
(1487076403.754313) can0 153#200000FF00FFA0BE
(1487076403.758853) can0 220#ED0300000000E60F
(1487076403.759979) can0 164#0008000000000008
(1487076403.759980) can0 1F1#0000000000000000
(1487076403.759980) can0 4F0#00000A0000121402
(1487076403.759980) can0 4F1#CCFF000000000000
(1487076403.761041) can0 316#059D0000002F007F
(1487076403.762165) can0 080#001700009D2F00F2
(1487076403.762166) can0 081#40000000000000A2
(1487076403.762166) can0 18F#002C000000720000
(1487076403.762167) can0 260#050000000EA75F26
(1487076403.762167) can0 2A0#C2005D806C12A900
(1487076403.763271) can0 2C0#0000000000000000
(1487076403.763275) can0 165#0908800000000F8E
(1487076403.763276) can0 2B0#FD06000721
(1487076403.763276) can0 329#0F60810E11320010
(1487076403.764356) can0 545#DF00005E54FE54FE
(1487076403.764357) can0 153#200000FF00FFB0CE
(1487076403.764358) can0 4B0#0080004000000000
(1487076403.768755) can0 5F0#0100
(1487076403.769841) can0 220#ED0300000000F30F
(1487076403.769842) can0 164#0008000000000109
(1487076403.770915) can0 316#059D0000002F007F
(1487076403.772021) can0 080#001700009D2F00E3
(1487076403.772022) can0 081#4000000000000093
(1487076403.772023) can0 18F#002C000000720000
(1487076403.772023) can0 260#050000000EA75F35
(1487076403.772024) can0 2A0#62005D806C12A900
(1487076403.773146) can0 165#0908800000000081
(1487076403.773147) can0 2B0#FD06000712
(1487076403.773147) can0 2C0#0000000000000000
(1487076403.773148) can0 329#0F60810E11320010
(1487076403.773148) can0 545#DF00005D54FE54FE
(1487076403.774272) can0 0A0#0040000000280000
(1487076403.774272) can0 0A1#8080808066000000
(1487076403.775343) can0 153#200000FF00FFC0DE
(1487076403.778857) can0 220#ED0300000000F30F
(1487076403.779967) can0 164#000800000000020A
(1487076403.779968) can0 1F1#0000000000000000
(1487076403.779969) can0 4F0#00000C0000121402
(1487076403.779969) can0 4F1#CCFF000000000000
(1487076403.781041) can0 316#059D0000002F007F
(1487076403.781041) can0 080#001700009D2F00D4
(1487076403.782146) can0 081#4000000000000084
(1487076403.782147) can0 18F#002C000000720000
(1487076403.782147) can0 165#0908800000000180
(1487076403.782148) can0 260#050000000EA75F08
(1487076403.783250) can0 2A0#02005D806C12A900
(1487076403.783250) can0 2B0#FD06000703
(1487076403.783251) can0 2C0#0000000000000000
(1487076403.783251) can0 329#0F60810E11320010
(1487076403.783252) can0 545#DF00005E54FE54FE
(1487076403.784341) can0 153#200000FF00FFD0EE
(1487076403.784342) can0 4B0#00C0004000000000
(1487076403.788857) can0 220#ED0300000000E60F
(1487076403.789938) can0 164#000800000000030B
(1487076403.791021) can0 316#059D0000002F007F
(1487076403.792082) can0 080#001700009D2F00C5
(1487076403.792083) can0 081#4000000000000075
(1487076403.792083) can0 18F#002C000000720000
(1487076403.792084) can0 260#050000000EA75F17
(1487076403.793216) can0 2A0#A2005D806C12A900
(1487076403.793217) can0 2B0#FD06000774
(1487076403.793217) can0 165#0A08800000000280
(1487076403.793218) can0 2C0#0000000000000000
(1487076403.793218) can0 329#0F60810E11320010
(1487076403.794291) can0 545#DF00005E54FE54FE
(1487076403.794292) can0 153#200000FF00FFE0FE
(1487076403.798852) can0 220#ED0300000000CD0F
(1487076403.799968) can0 164#000800000000040C
(1487076403.799969) can0 1F1#0000000000000000
(1487076403.799969) can0 4F0#00000E0000121402
(1487076403.799970) can0 4F1#CCFF000000000000
(1487076403.801040) can0 690#4000400000202C00
(1487076403.801041) can0 165#0908800000000382
(1487076403.801041) can0 2B0#FD06000765
(1487076403.802127) can0 316#059D0000002F007F
(1487076403.802128) can0 080#001700009D2F00B6
(1487076403.802129) can0 081#4000000000000066
(1487076403.802129) can0 18F#002C000000720000
(1487076403.802130) can0 260#050000000EA75F26
(1487076403.803230) can0 2A0#C2005D806C12A900
(1487076403.803231) can0 2C0#0000000000000000
(1487076403.803231) can0 329#4F60810E11320010
(1487076403.803232) can0 545#DF00005D54FE54FE
(1487076403.804315) can0 153#200000FF00FF001E
(1487076403.804319) can0 4B0#0000008000000000
(1487076403.808855) can0 220#ED0300000000E00F
(1487076403.809937) can0 164#000800000000050D
(1487076403.811064) can0 165#0908800000000485
(1487076403.811065) can0 2B0#FD06000756
(1487076403.811066) can0 316#059D0000002F007F
(1487076403.812150) can0 080#001700009D2F00A7
(1487076403.812151) can0 081#4000000000000057
(1487076403.812151) can0 18F#002C000000720000
(1487076403.812151) can0 260#050000000EA75F35
(1487076403.812152) can0 2A0#62005D806C12A900
(1487076403.813230) can0 2C0#0000000000000000
(1487076403.813231) can0 329#4F60810E11320010
(1487076403.813231) can0 545#DF00005D54FE54FE
(1487076403.814314) can0 153#200000FF00FF102E
(1487076403.816773) can0 5F0#0100
(1487076403.818878) can0 220#ED0300000000E00F
(1487076403.819981) can0 164#000800000000060E
(1487076403.819981) can0 1F1#0000000000000000
(1487076403.819982) can0 4F0#0000100000121402
(1487076403.819982) can0 165#0908800000000584
(1487076403.821093) can0 2B0#FF06000767
(1487076403.821094) can0 4F1#CCFF000000000000
(1487076403.821095) can0 316#059D0000002F007F
(1487076403.821095) can0 080#001700009D2F0098
(1487076403.822271) can0 081#4000000000000048
(1487076403.822272) can0 18F#002C000000720000
(1487076403.822272) can0 260#050000000EA75F08
(1487076403.822273) can0 2A0#02005D806C12A900
(1487076403.823355) can0 2C0#0000000000000000
(1487076403.823356) can0 329#4F60810E11320010
(1487076403.823356) can0 545#DF00005D54FE54FE
(1487076403.824439) can0 153#200000FF00FF203E
(1487076403.824440) can0 4B0#0040008000000000
(1487076403.828937) can0 220#ED0300000000E00F
(1487076403.830030) can0 164#000800000000070F
(1487076403.830031) can0 5E4#040000
(1487076403.830032) can0 2B0#FD060007B8
(1487076403.830032) can0 165#0908800000000687
(1487076403.831087) can0 316#059D0000002F007F
(1487076403.832213) can0 080#001700009D2F0089
(1487076403.832215) can0 081#4000000000000039
(1487076403.832215) can0 18F#002C000000720000
(1487076403.832215) can0 260#050000000EA75F17
(1487076403.833313) can0 2A0#A2005D806C12A900
(1487076403.833314) can0 2C0#0000000000000000
(1487076403.833315) can0 329#4F60810E11320010
(1487076403.833315) can0 545#DF00005E54FE54FE
(1487076403.834406) can0 153#200000FF00FF304E
(1487076403.838941) can0 165#0908800000000786
(1487076403.840050) can0 220#ED0300000000CD0F
(1487076403.840051) can0 164#0008000000000800
(1487076403.840052) can0 1F1#0000000000000000
(1487076403.840052) can0 2B0#FD060007A9
(1487076403.841136) can0 4F0#0000120000121402
(1487076403.841137) can0 4F1#CCFF000000000000
(1487076403.841137) can0 316#059D0000002F007F
(1487076403.842251) can0 080#001700009D2F007A
(1487076403.842252) can0 081#400000000000002A
(1487076403.842252) can0 18F#002C000000720000
(1487076403.842253) can0 260#050000000EA75F26
(1487076403.842254) can0 2A0#C2005D806C12A900
(1487076403.843335) can0 2C0#0000000000000000
(1487076403.843336) can0 329#4F60810E11320010
(1487076403.843337) can0 545#DF00005E54FE54FE
(1487076403.844424) can0 153#200000FF00FF405E
(1487076403.844425) can0 4B0#0080008000000000
(1487076403.848432) can0 165#0908800000000889
(1487076403.849585) can0 2B0#FD0600079A
(1487076403.849586) can0 220#ED0300000000CD0F
(1487076403.849587) can0 164#0008000000000901
(1487076403.850889) can0 316#059D0000002F007F
(1487076403.851998) can0 080#001700009D2F006B
(1487076403.851999) can0 081#400000000000001B
(1487076403.852004) can0 18F#002C000000720000
(1487076403.852004) can0 260#050000000EA75F35
(1487076403.853074) can0 2A0#62005D806C12A900
(1487076403.853075) can0 2C0#0000000000000000
(1487076403.853076) can0 329#4F60810E11320010
(1487076403.853076) can0 545#DF00005D54FE54FE
(1487076403.854166) can0 153#200000FF00FF506E
(1487076403.858181) can0 165#0908800000000988
(1487076403.859157) can0 2B0#FD0600078B
(1487076403.859159) can0 220#ED0300000000E00F
(1487076403.859159) can0 164#0008000000000A02
(1487076403.860324) can0 1F1#0000000000000000
(1487076403.860326) can0 4F0#0000140000121402
(1487076403.860326) can0 4F1#CCFF000000000000
(1487076403.861429) can0 316#059D0000002F007F
(1487076403.861430) can0 080#001700009D2F005C
(1487076403.861430) can0 081#400000000000000C
(1487076403.862545) can0 18F#002C000000720000
(1487076403.862546) can0 260#050000000EA75F08
(1487076403.862547) can0 2A0#02005D806C12A900
(1487076403.862547) can0 2C0#0000000000000000
(1487076403.863619) can0 329#8060810E11320010
(1487076403.863620) can0 545#DF00005E54FE54FE
(1487076403.864700) can0 153#200000FF00FF607E
(1487076403.864701) can0 4B0#00C0008000000000
(1487076403.865771) can0 5F0#0100
(1487076403.867724) can0 165#0908800000000A8B
(1487076403.868787) can0 2B0#FD060007FC
(1487076403.869839) can0 220#ED0300000000E00F
(1487076403.869840) can0 164#0008000000000B03
(1487076403.871072) can0 316#059D0000002F007F
(1487076403.872183) can0 080#001700009D2F004D
(1487076403.872185) can0 081#40000000000000FD
(1487076403.872185) can0 18F#002C000000720000
(1487076403.872186) can0 260#050000000EA75F17
(1487076403.873289) can0 2A0#A2005D806C12A900
(1487076403.873290) can0 2C0#0000000000000000
(1487076403.873290) can0 329#8060810E11320010
(1487076403.873290) can0 545#DF00005D54FE54FE
(1487076403.874343) can0 153#200000FF00FF708E
(1487076403.875587) can0 0A0#0040000000280000
(1487076403.876656) can0 0A1#8080808066000000
(1487076403.877761) can0 165#0A08800000000B89
(1487076403.877762) can0 2B0#FF060007CD
(1487076403.878929) can0 220#ED0300000000DA0F
(1487076403.880044) can0 164#0008000000000C04
(1487076403.880045) can0 1F1#0000000000000000
(1487076403.880045) can0 4F0#0000160000121402
(1487076403.880046) can0 4F1#CCFF000000000000
(1487076403.881119) can0 316#059D0000002F007F
(1487076403.882241) can0 080#001700009D2F003E
(1487076403.882242) can0 081#40000000000000EE
(1487076403.882242) can0 18F#002C000000720000
(1487076403.882243) can0 260#050000000EA75F26
(1487076403.882243) can0 2A0#C2005D806C12A900
(1487076403.883325) can0 2C0#0000000000000000
(1487076403.883326) can0 329#8060810E11320010
(1487076403.883326) can0 545#DF00005E54FE54FE
(1487076403.884418) can0 153#200000FF00FF809E
(1487076403.884419) can0 4B0#000000C000000000
(1487076403.886856) can0 165#0908800000000C8D
(1487076403.887952) can0 2B0#FD060007DE
(1487076403.889012) can0 220#ED0300000000CD0F
(1487076403.890097) can0 164#0008000000000D05
(1487076403.891181) can0 316#059D0000002F007F
(1487076403.891182) can0 080#001700009D2F002F
(1487076403.892307) can0 081#40000000000000DF
(1487076403.892309) can0 18F#002C000000720000
(1487076403.892309) can0 260#050000000EA75F35
(1487076403.892309) can0 2A0#62005D806C12A900
(1487076403.893387) can0 2C0#0000000000000000
(1487076403.893388) can0 329#8060810E11320010
(1487076403.893389) can0 545#DF00005D54FE54FE
(1487076403.894453) can0 153#200000FF00FF90AE
(1487076403.896421) can0 165#0908800000000D8C
(1487076403.897513) can0 2B0#FF060007EF
(1487076403.898932) can0 220#ED0300000000CD0F
(1487076403.900045) can0 164#0008000000000E06
(1487076403.900046) can0 1F1#0000000000000000
(1487076403.900046) can0 4F0#0000180000121402
(1487076403.900046) can0 4F1#CCFF000000000000
(1487076403.901137) can0 690#4000400000203000
(1487076403.901138) can0 316#059D0000002F007F
(1487076403.901138) can0 080#001700009D2F0010
(1487076403.902210) can0 081#40000000000000C0
(1487076403.902211) can0 18F#002C000000720000
(1487076403.902212) can0 260#050000000EA75F08
(1487076403.902212) can0 2A0#02005D806C12A900
(1487076403.903320) can0 2C0#0000000000000000
(1487076403.903321) can0 329#8060810E11320010
(1487076403.903322) can0 545#DF00005E54FE54FE
(1487076403.904419) can0 153#200000FF00FFA0BE
(1487076403.904420) can0 4B0#004000C000000000
(1487076403.905993) can0 165#0908800000000E8F
(1487076403.907002) can0 2B0#FD06000730
(1487076403.908948) can0 220#ED0300000000E60F
(1487076403.910043) can0 164#0008000000000F07
(1487076403.911117) can0 316#059D0000002F007F
(1487076403.912207) can0 080#001700009D2F0001
(1487076403.912208) can0 081#40000000000000B1
(1487076403.912208) can0 18F#002C000000720000
(1487076403.912209) can0 260#050000000EA75F17
(1487076403.913301) can0 2A0#A2005D806C12A900
(1487076403.913302) can0 2C0#0000000000000000
(1487076403.913303) can0 329#8060810E11320010
(1487076403.913303) can0 545#DF00005D54FE54FE
(1487076403.913304) can0 5F0#0100
(1487076403.914387) can0 153#200000FF00FFB0CE
(1487076403.915581) can0 165#0908800000000F8E
(1487076403.916666) can0 2B0#FD06000721
(1487076403.918952) can0 220#ED0300000000E60F
(1487076403.920044) can0 164#0008000000000008
(1487076403.920045) can0 1F1#0000000000000000
(1487076403.920046) can0 4F0#00001A0000121402
(1487076403.920046) can0 4F1#CCFF000000000000
(1487076403.921113) can0 316#059D0000002F007F
(1487076403.922222) can0 080#001700009D2F00F2
(1487076403.922223) can0 081#40000000000000A2
(1487076403.922223) can0 18F#002C000000720000
(1487076403.922224) can0 260#050000000EA75F26
(1487076403.922224) can0 2A0#C2005D806C12A900
(1487076403.923302) can0 2C0#0000000000000000
(1487076403.923303) can0 329#D760810E11320010
(1487076403.923304) can0 545#DF00005D54FE54FE
(1487076403.924372) can0 153#200000FF00FFC0DE
(1487076403.924373) can0 4B0#008000C000000000
(1487076403.925472) can0 165#0908800000000081
(1487076403.925473) can0 2B0#FD06000712
(1487076403.928952) can0 220#ED0300000000E00F
(1487076403.930042) can0 164#0008000000000109
(1487076403.930043) can0 5E4#040000
(1487076403.931137) can0 316#059D0000002F007F
(1487076403.931138) can0 080#001700009D2F00E3
(1487076403.932156) can0 081#4000000000000093
(1487076403.932158) can0 18F#002C000000720000
(1487076403.932158) can0 260#050000000EA75F35
(1487076403.932158) can0 2A0#62005D806C12A900
(1487076403.933306) can0 2C0#0000000000000000
(1487076403.933307) can0 329#D760810E11320010
(1487076403.933308) can0 545#DF00005E54FE54FE
(1487076403.934374) can0 153#200000FF00FFD0EE
(1487076403.935469) can0 165#0908800000000180
(1487076403.935470) can0 2B0#FD06000703
(1487076403.938950) can0 220#ED0300000000D40F
(1487076403.940045) can0 164#000800000000020A
(1487076403.940046) can0 1F1#0000000000000000
(1487076403.940046) can0 4F0#00001C0000121402
(1487076403.940047) can0 4F1#CCFF000000000000
(1487076403.941168) can0 316#059D0000002F007F
(1487076403.941169) can0 080#001700009D2F00D4
(1487076403.942244) can0 081#4000000000000084
(1487076403.942245) can0 18F#002C000000720000
(1487076403.942245) can0 260#050000000EA75F08
(1487076403.942250) can0 2A0#02005D806C12A900
(1487076403.943327) can0 2C0#0000000000000000
(1487076403.943328) can0 329#D760810E11320010
(1487076403.943329) can0 545#DF00005E54FE54FE
(1487076403.944439) can0 153#200000FF00FFE0FE
(1487076403.944440) can0 4B0#0000000000000000
(1487076403.944441) can0 165#0908800000000283
(1487076403.945541) can0 2B0#FD06000774
(1487076403.948954) can0 220#ED0300000000E00F
(1487076403.949970) can0 164#000800000000030B
(1487076403.951115) can0 316#059D0000002F007F
(1487076403.952223) can0 080#001700009D2F00C5
(1487076403.952224) can0 081#4000000000000075
(1487076403.952224) can0 18F#002C000000720000
(1487076403.952225) can0 260#050000000EA75F17
(1487076403.953330) can0 2A0#A2005D806C12A900
(1487076403.953331) can0 2C0#0000000000000000
(1487076403.953331) can0 329#D760810E11320010
(1487076403.953331) can0 545#DF00005E54FE54FE
(1487076403.954413) can0 165#0908800000000382
(1487076403.954415) can0 153#200000FF00FF001E
(1487076403.954415) can0 2B0#FD06000765
(1487076403.958957) can0 220#ED0300000000F30F
(1487076403.960044) can0 164#000800000000040C
(1487076403.960045) can0 1F1#0000000000000000
(1487076403.960045) can0 4F0#00001E0000121402
(1487076403.960046) can0 4F1#CCFF000000000000
(1487076403.961116) can0 5F0#0100
(1487076403.961117) can0 316#059D0000002F007F
(1487076403.962244) can0 329#D760810E11320010
(1487076403.962245) can0 080#001700009D2F00B6
(1487076403.962245) can0 081#4000000000000066
(1487076403.962246) can0 18F#002C000000720000
(1487076403.963371) can0 260#050000000EA75F26
(1487076403.963372) can0 2A0#C2005D806C12A900
(1487076403.963373) can0 2C0#0000000000000000
(1487076403.963373) can0 545#DF00005E54FE54FE
(1487076403.964461) can0 165#0908800000000485
(1487076403.964462) can0 2B0#FD06000756
(1487076403.964463) can0 153#200000FF00FF102E
(1487076403.964463) can0 4B0#0040000000000000
(1487076403.968949) can0 220#ED0300000000F30F
(1487076403.970031) can0 164#000800000000050D
(1487076403.971085) can0 316#059D0000002F007F
(1487076403.971087) can0 080#001700009D2F00A7
(1487076403.972193) can0 081#4000000000000057
(1487076403.972194) can0 18F#002C000000720000
(1487076403.972195) can0 0A0#0040000000280000
(1487076403.972195) can0 0A1#8080808066000000
(1487076403.973297) can0 260#050000000EA75F35
(1487076403.973298) can0 2A0#62005D806C12A900
(1487076403.973298) can0 2C0#0000000000000000
(1487076403.973299) can0 165#0A08800000000587
(1487076403.973299) can0 2B0#FF06000767
(1487076403.974377) can0 329#D760810E11320010
(1487076403.974378) can0 545#DF00005D54FE54FE
(1487076403.974378) can0 153#200000FF00FF203E
(1487076403.978943) can0 220#ED0300000000CD0F
(1487076403.980032) can0 164#000800000000060E
(1487076403.980033) can0 1F1#0000000000000000
(1487076403.980034) can0 4F0#0000200000121402
(1487076403.980034) can0 4F1#CCFF000000000000
(1487076403.981106) can0 316#059D0000002F007F
(1487076403.981107) can0 080#001700009D2F0098
(1487076403.982212) can0 081#4000000000000048
(1487076403.982214) can0 18F#002C000000720000
(1487076403.982214) can0 260#050000000EA75F08
(1487076403.982215) can0 2A0#02005D806C12A900
(1487076403.983315) can0 2C0#0000000000000000
(1487076403.983316) can0 165#0908800000000687
(1487076403.983316) can0 2B0#FD060007B8
(1487076403.983317) can0 329#0F60810E11320010
(1487076403.983317) can0 545#DF00005E54FE54FE
(1487076403.984423) can0 153#200000FF00FF304E
(1487076403.984429) can0 4B0#0080000000000000
(1487076403.988947) can0 220#ED0300000000CD0F
(1487076403.990014) can0 164#000800000000070F
(1487076403.991105) can0 316#059D0000002F007F
(1487076403.992213) can0 080#001700009D2F0089
(1487076403.992215) can0 081#4000000000000039
(1487076403.992215) can0 18F#002C000000720000
(1487076403.992215) can0 260#050000000EA75F17
(1487076403.993337) can0 165#0908800000000786
(1487076403.993338) can0 2A0#A2005D806C12A900
(1487076403.993339) can0 2B0#FF06000789
(1487076403.993339) can0 2C0#0000000000000000
(1487076403.993339) can0 329#0F60810E11320010
(1487076403.994421) can0 545#DF00005D54FE54FE
(1487076403.994423) can0 153#200000FF00FF405E
(1487076403.998911) can0 220#ED0300000000E00F
(1487076404.000033) can0 164#0008000000000800
(1487076404.000034) can0 1F1#0000000000000000
(1487076404.000035) can0 4F0#0000220000121402
(1487076404.000035) can0 4F1#CCFF000000000000
(1487076404.001107) can0 690#4000400000203400
(1487076404.001108) can0 316#059D0000002F007F
(1487076404.002234) can0 080#001700009D2F007A
(1487076404.002235) can0 081#400000000000002A
(1487076404.002235) can0 165#0908800000000889
(1487076404.002236) can0 18F#002C000000720000
(1487076404.002236) can0 260#050000000EA75F26
(1487076404.003299) can0 2A0#C2005D806C12A900
(1487076404.003300) can0 2B0#FD0600079A
(1487076404.003300) can0 2C0#0000000000000000
(1487076404.003301) can0 329#0F60810E11320010
(1487076404.003301) can0 545#DF00005E54FE54FE
(1487076404.004419) can0 153#200000FF00FF506E
(1487076404.004420) can0 4B0#00C0000000000000
(1487076404.008840) can0 5F0#0100
(1487076404.009924) can0 220#ED0300000000DA0F
(1487076404.009925) can0 164#0008000000000901
(1487076404.010987) can0 316#059D0000002F007F
(1487076404.012111) can0 080#001700009D2F006B
(1487076404.012112) can0 081#400000000000001B
(1487076404.012112) can0 18F#002C000000720000
(1487076404.012113) can0 260#050000000EA75F35
(1487076404.012113) can0 2A0#62005D806C12A900
(1487076404.013233) can0 2B0#FD0600078B
(1487076404.013234) can0 165#0A0880000000098B
(1487076404.013235) can0 2C0#0000000000000000
(1487076404.013235) can0 329#0F60810E11320010
(1487076404.014321) can0 545#DF00005E54FE54FE
(1487076404.014322) can0 153#200000FF00FF607E
(1487076404.018941) can0 220#ED0300000000DA0F
(1487076404.020016) can0 164#0008000000000A02
(1487076404.020018) can0 1F1#0000000000000000
(1487076404.020018) can0 4F0#0000240000121402
(1487076404.020018) can0 4F1#CCFF000000000000
(1487076404.021050) can0 165#0908800000000A8B
(1487076404.021051) can0 260#050000000EA75F08
(1487076404.022173) can0 2A0#02005D806C12A900
(1487076404.022174) can0 080#001700009D2F005C
(1487076404.022174) can0 081#400000000000000C
(1487076404.022175) can0 18F#002C000000720000
(1487076404.022176) can0 2B0#FF060007DC
(1487076404.023256) can0 2C0#0000000000000000
(1487076404.023257) can0 316#059D0000002F007F
(1487076404.023258) can0 329#0F60810E11320010
(1487076404.023258) can0 545#DF00005D54FE54FE
(1487076404.024409) can0 153#200000FF00FF708E
(1487076404.024410) can0 4B0#0000004000000000
(1487076404.028944) can0 220#ED0300000000C70F
(1487076404.030032) can0 164#0008000000000B03
(1487076404.031056) can0 5E4#040000
(1487076404.031057) can0 2B0#FD060007ED
(1487076404.031057) can0 165#0908800000000B8A
(1487076404.031058) can0 316#059D0000002F007F
(1487076404.032238) can0 080#001700009D2F004D
(1487076404.032239) can0 081#40000000000000FD
(1487076404.032240) can0 18F#002C000000720000
(1487076404.032240) can0 260#050000000EA75F17
(1487076404.033316) can0 2A0#A2005D806C12A900
(1487076404.033317) can0 2C0#0000000000000000
(1487076404.033317) can0 329#0F60810E11320010
(1487076404.033318) can0 545#DF00005E54FE54FE
(1487076404.034406) can0 153#200000FF00FF809E
(1487076404.038949) can0 220#ED0300000000C70F
(1487076404.040072) can0 164#0008000000000C04
(1487076404.040073) can0 1F1#0000000000000000
(1487076404.040073) can0 4F0#0000260000121402
(1487076404.040074) can0 165#0908800000000C8D
(1487076404.041158) can0 2B0#FD060007DE
(1487076404.041159) can0 4F1#CCFF000000000000
(1487076404.041160) can0 316#059D0000002F007F
(1487076404.042283) can0 080#001700009D2F003E
(1487076404.042284) can0 081#40000000000000EE
(1487076404.042285) can0 18F#002C000000720000
(1487076404.042285) can0 260#050000000EA75F26
(1487076404.042285) can0 2A0#C2005D806C12A900
(1487076404.043339) can0 2C0#0000000000000000
(1487076404.043340) can0 329#4F60810E11320010
(1487076404.043340) can0 545#DF00005D54FE54FE
(1487076404.044423) can0 153#200000FF00FF90AE
(1487076404.044425) can0 4B0#0040004000000000
(1487076404.048916) can0 220#ED0300000000C10F
(1487076404.050046) can0 164#0008000000000D05
(1487076404.050048) can0 165#0908800000000D8C
(1487076404.050049) can0 2B0#FD060007CF
(1487076404.051130) can0 316#059D0000002F007F
(1487076404.051131) can0 080#001700009D2F002F
(1487076404.052218) can0 081#40000000000000DF
(1487076404.052219) can0 18F#002C000000720000
(1487076404.052220) can0 260#050000000EA75F35
(1487076404.052220) can0 2A0#62005D806C12A900
(1487076404.053340) can0 2C0#0000000000000000
(1487076404.053341) can0 329#4F60810E11320010
(1487076404.053341) can0 545#DF00005E54FE54FE
(1487076404.054421) can0 153#200000FF00FFA0BE
(1487076404.056821) can0 5F0#0100
(1487076404.058941) can0 220#ED0300000000C10F
(1487076404.060053) can0 164#0008000000000E06
(1487076404.060054) can0 1F1#0000000000000000
(1487076404.060054) can0 2B0#FD06000730
(1487076404.060055) can0 165#0A08800000000E8C
(1487076404.061171) can0 4F0#0000280000121402
(1487076404.061172) can0 4F1#CCFF000000000000
(1487076404.061173) can0 316#059D0000002F007F
(1487076404.061173) can0 080#001700009D2F0010
(1487076404.062297) can0 081#40000000000000C0
(1487076404.062298) can0 18F#002C000000720000
(1487076404.062298) can0 260#050000000EA75F08
(1487076404.062299) can0 2A0#02005D806C12A900
(1487076404.062299) can0 2C0#0000000000000000
(1487076404.063365) can0 329#4F60810E11320010
(1487076404.063366) can0 545#DF00005D54FE54FE
(1487076404.064459) can0 153#200000FF00FFB0CE
(1487076404.064460) can0 4B0#0080004000000000
(1487076404.068544) can0 165#0908800000000F8E
(1487076404.069668) can0 2B0#FD06000721
(1487076404.069669) can0 220#ED0300000000AE0F
(1487076404.069670) can0 164#0008000000000F07
(1487076404.071045) can0 316#059D0000002F007F
(1487076404.072121) can0 080#001700009D2F0001
(1487076404.072122) can0 081#40000000000000B1
(1487076404.072122) can0 18F#002C000000720000
(1487076404.072123) can0 260#050000000EA75F17
(1487076404.073246) can0 2A0#A2005D806C12A900
(1487076404.073247) can0 2C0#0000000000000000
(1487076404.073247) can0 329#4F60810E11320010
(1487076404.073247) can0 545#DF00005D54FE54FE
(1487076404.073252) can0 0A0#0040000000280000
(1487076404.074327) can0 0A1#8080808066000000
(1487076404.074328) can0 153#200000FF00FFC0DE
(1487076404.078123) can0 165#0908800000000081
(1487076404.079222) can0 2B0#FD06000712
(1487076404.079224) can0 220#ED0300000000C70F
(1487076404.079224) can0 164#0008000000000008
(1487076404.080308) can0 1F1#0000000000000000
(1487076404.080309) can0 4F0#00002A0000121402
(1487076404.080309) can0 4F1#CCFF000000000000
(1487076404.081402) can0 316#059D0000002F007F
(1487076404.081403) can0 080#001700009D2F00F2
(1487076404.082517) can0 081#40000000000000A2
(1487076404.082518) can0 18F#002C000000720000
(1487076404.082519) can0 260#050000000EA75F26
(1487076404.082519) can0 2A0#C2005D806C12A900
(1487076404.082520) can0 2C0#0000000000000000
(1487076404.083603) can0 329#4F60810E11320010
(1487076404.083604) can0 545#DF00005D54FE54FE
(1487076404.084683) can0 153#200000FF00FFD0EE
(1487076404.084684) can0 4B0#00C0004000000000
(1487076404.087690) can0 165#0908800000000180
(1487076404.088765) can0 2B0#FD06000703
(1487076404.089848) can0 220#ED0300000000C70F
(1487076404.089849) can0 164#0008000000000109
(1487076404.090933) can0 316#059D0000002F007F
(1487076404.092065) can0 080#001700009D2F00E3
(1487076404.092066) can0 081#4000000000000093
(1487076404.092066) can0 18F#002C000000720000
(1487076404.092067) can0 260#050000000EA75F35
(1487076404.092067) can0 2A0#62005D806C12A900
(1487076404.093145) can0 2C0#0000000000000000
(1487076404.093146) can0 329#4F60810E11320010
(1487076404.093146) can0 545#DF00005D54FE54FE
(1487076404.094222) can0 153#200000FF00FFE0FE
(1487076404.097254) can0 165#0908800000000283
(1487076404.098331) can0 2B0#FD06000774
(1487076404.099442) can0 220#ED0300000000CD0F
(1487076404.099443) can0 164#000800000000020A
(1487076404.099443) can0 1F1#0000000000000000
(1487076404.100545) can0 4F0#00002C0000121402
(1487076404.100546) can0 4F1#CCFF000000000000
(1487076404.100546) can0 690#4000400000203800
(1487076404.101619) can0 316#059D0000002F007F
(1487076404.101620) can0 080#001700009D2F00D4
(1487076404.101620) can0 081#4000000000000084
(1487076404.102745) can0 18F#002C000000720000
(1487076404.102746) can0 260#050000000EA75F08
(1487076404.102747) can0 2A0#02005D806C12A900
(1487076404.102747) can0 2C0#0000000000000000
(1487076404.102747) can0 329#8060810E11320010
(1487076404.103793) can0 545#DF00005E54FE54FE
(1487076404.104915) can0 153#200000FF00FF001E
(1487076404.104916) can0 4B0#0000008000000000
(1487076404.104916) can0 5F0#0100
(1487076404.106745) can0 165#0908800000000382
(1487076404.107760) can0 2B0#FD06000765
(1487076404.108970) can0 220#ED0300000000CD0F
(1487076404.110043) can0 164#000800000000030B
(1487076404.111139) can0 316#059D0000002F007F
(1487076404.112201) can0 080#001700009D2F00C5
(1487076404.112202) can0 081#4000000000000075
(1487076404.112203) can0 18F#002C000000720000
(1487076404.112204) can0 260#050000000EA75F17
(1487076404.113346) can0 2A0#A2005D806C12A900
(1487076404.113347) can0 2C0#0000000000000000
(1487076404.113348) can0 329#8060810E11320010
(1487076404.113348) can0 545#DF00005E54FE54FE
(1487076404.114419) can0 153#200000FF00FF102E
(1487076404.116395) can0 165#0908800000000485
(1487076404.117457) can0 2B0#FD06000756
(1487076404.118973) can0 220#ED0300000000DA0F
(1487076404.120060) can0 164#000800000000040C
(1487076404.120065) can0 1F1#0000000000000000
(1487076404.120065) can0 4F0#00002E0000121402
(1487076404.120066) can0 4F1#CCFF000000000000
(1487076404.121166) can0 316#059D0000002F007F
(1487076404.122265) can0 080#001700009D2F00B6
(1487076404.122266) can0 081#4000000000000066
(1487076404.122266) can0 18F#002C000000720000
(1487076404.122266) can0 260#050000000EA75F26
(1487076404.122267) can0 2A0#C2005D806C12A900
(1487076404.123350) can0 2C0#0000000000000000
(1487076404.123351) can0 329#8060810E11320010
(1487076404.123351) can0 545#DF00005D54FE54FE
(1487076404.124425) can0 153#200000FF00FF203E
(1487076404.124426) can0 4B0#0040008000000000
(1487076404.125988) can0 165#0908800000000584
(1487076404.127067) can0 2B0#FD06000747
(1487076404.128948) can0 220#ED0300000000DA0F
(1487076404.130030) can0 164#000800000000050D
(1487076404.131127) can0 5E4#040000
(1487076404.131128) can0 316#059D0000002F007F
(1487076404.131129) can0 329#8060810E11320010
(1487076404.132183) can0 080#001700009D2F00A7
(1487076404.132185) can0 081#4000000000000057
(1487076404.132185) can0 18F#002C000000720000
(1487076404.132186) can0 260#050000000EA75F35
(1487076404.133302) can0 2A0#62005D806C12A900
(1487076404.133304) can0 2C0#0000000000000000
(1487076404.133304) can0 545#DF00005E54FE54FE
(1487076404.134420) can0 153#200000FF00FF304E
(1487076404.135538) can0 165#0A08800000000684
(1487076404.136608) can0 2B0#FD060007B8
(1487076404.138963) can0 220#ED0300000000DA0F
(1487076404.140052) can0 164#000800000000060E
(1487076404.140054) can0 1F1#0000000000000000
(1487076404.140054) can0 4F0#0000300000121402
(1487076404.140054) can0 4F1#CCFF000000000000
(1487076404.141131) can0 316#059D0000002F007F
(1487076404.141132) can0 080#001700009D2F0098
(1487076404.142212) can0 081#4000000000000048
(1487076404.142213) can0 18F#002C000000720000
(1487076404.142214) can0 260#050000000EA75F08
(1487076404.142214) can0 2A0#02005D806C12A900
(1487076404.143319) can0 2C0#0000000000000000
(1487076404.143320) can0 329#8060810E11320010
(1487076404.143320) can0 545#DF00005D54FE54FE
(1487076404.144340) can0 153#200000FF00FF405E
(1487076404.144341) can0 4B0#0080008000000000
(1487076404.145484) can0 165#0908800000000786
(1487076404.145485) can0 2B0#FD060007A9
(1487076404.148949) can0 220#ED0300000000D40F
(1487076404.150035) can0 164#000800000000070F
(1487076404.151106) can0 316#059D0000002F007F
(1487076404.152238) can0 080#001700009D2F0089
(1487076404.152239) can0 081#4000000000000039
(1487076404.152239) can0 18F#002C000000720000
(1487076404.152239) can0 260#050000000EA75F17
(1487076404.153321) can0 2A0#A2005D806C12A900
(1487076404.153322) can0 2C0#0000000000000000
(1487076404.153323) can0 329#8060810E11320010
(1487076404.153323) can0 545#DF00005E54FE54FE
(1487076404.153323) can0 5F0#0100
(1487076404.154390) can0 153#200000FF00FF506E
(1487076404.155489) can0 165#0908800000000889
(1487076404.155490) can0 2B0#FD0600079A
(1487076404.158966) can0 220#ED0300000000DA0F
(1487076404.160052) can0 164#0008000000000800
(1487076404.160053) can0 1F1#0000000000000000
(1487076404.160053) can0 4F0#0000320000121402
(1487076404.160054) can0 4F1#CCFF000000000000
(1487076404.161114) can0 316#059D0000002F007F
(1487076404.162236) can0 080#001700009D2F007A
(1487076404.162237) can0 081#400000000000002A
(1487076404.162238) can0 18F#002C000000720000
(1487076404.162238) can0 260#050000000EA75F26
(1487076404.162238) can0 2A0#C2005D806C12A900
(1487076404.163317) can0 2C0#0000000000000000
(1487076404.163318) can0 329#D760810E11320010
(1487076404.163319) can0 545#DF00005D54FE54FE
(1487076404.164451) can0 153#200000FF00FF607E
(1487076404.164457) can0 4B0#00C0008000000000
(1487076404.164457) can0 165#0908800000000988
(1487076404.165535) can0 2B0#FD0600078B
(1487076404.168968) can0 220#ED0300000000DA0F
(1487076404.170047) can0 164#0008000000000901
(1487076404.171131) can0 316#059D0000002F007F
(1487076404.171133) can0 080#001700009D2F006B
(1487076404.172237) can0 081#400000000000001B
(1487076404.172238) can0 18F#002C000000720000
(1487076404.172238) can0 260#050000000EA75F35
(1487076404.172239) can0 2A0#62005D806C12A900
(1487076404.173322) can0 2C0#0000000000000000
(1487076404.173323) can0 329#D760810E11320010
(1487076404.173323) can0 545#DF00005E54FE54FE
(1487076404.174425) can0 165#0908800000000A8B
(1487076404.174426) can0 153#200000FF00FF708E
(1487076404.174426) can0 0A0#0040000000280000
(1487076404.175510) can0 0A1#8080808066000000
(1487076404.175511) can0 2B0#FD060007FC
(1487076404.178968) can0 220#ED0300000000DA0F
(1487076404.180034) can0 164#0008000000000A02
(1487076404.180035) can0 1F1#0000000000000000
(1487076404.180036) can0 4F0#0000340000121402
(1487076404.180036) can0 4F1#CCFF000000000000
(1487076404.181132) can0 316#059D0000002F007F
(1487076404.181133) can0 080#001700009D2F005C
(1487076404.182257) can0 081#400000000000000C
(1487076404.182258) can0 18F#002C000000720000
(1487076404.182259) can0 260#050000000EA75F08
(1487076404.182259) can0 2A0#02005D806C12A900
(1487076404.183361) can0 2C0#0000000000000000
(1487076404.183362) can0 329#D760810E11320010
(1487076404.183362) can0 545#DF00005E54FE54FE
(1487076404.184469) can0 165#0908800000000B8A
(1487076404.184470) can0 2B0#FD060007ED
(1487076404.184471) can0 153#200000FF00FF809E
(1487076404.184471) can0 4B0#000000C000000000
(1487076404.188971) can0 220#ED0300000000E60F
(1487076404.190046) can0 164#0008000000000B03
(1487076404.191112) can0 316#059D0000002F007F
(1487076404.192241) can0 080#001700009D2F004D
(1487076404.192242) can0 081#40000000000000FD
(1487076404.192243) can0 18F#002C000000720000
(1487076404.192243) can0 260#050000000EA75F17
(1487076404.193323) can0 2A0#A2005D806C12A900
(1487076404.193325) can0 2C0#0000000000000000
(1487076404.193325) can0 329#D760810E11320010
(1487076404.193325) can0 165#0908800000000C8D
(1487076404.193326) can0 2B0#FD060007DE
(1487076404.194445) can0 545#DF00005D54FE54FE
(1487076404.194446) can0 153#200000FF00FF90AE
(1487076404.198973) can0 220#ED0300000000E60F
(1487076404.200069) can0 164#0008000000000C04
(1487076404.200070) can0 1F1#0000000000000000
(1487076404.200070) can0 4F0#0000360000121402
(1487076404.200071) can0 4F1#CCFF000000000000
(1487076404.201160) can0 690#4000400000203C00
(1487076404.201161) can0 5F0#0100
(1487076404.201162) can0 316#059D0000002F007F
(1487076404.202286) can0 2A0#C2005D806C12A900
(1487076404.202287) can0 080#001700009D2F003E
(1487076404.202287) can0 081#40000000000000EE
(1487076404.202288) can0 18F#002C000000720000
(1487076404.202289) can0 260#050000000EA75F26
(1487076404.203410) can0 2C0#0000000000000000
(1487076404.203411) can0 2B0#FD060007CF
(1487076404.203411) can0 165#0908800000000D8C
(1487076404.203412) can0 329#D760810E11320010
(1487076404.204471) can0 545#DF00005E54FE54FE
(1487076404.204473) can0 153#200000FF00FFA0BE
(1487076404.204473) can0 4B0#004000C000000000
(1487076404.208932) can0 220#ED0300000000DA0F
(1487076404.210018) can0 164#0008000000000D05
(1487076404.211131) can0 316#059D0000002F007F
(1487076404.211133) can0 080#001700009D2F002F
(1487076404.212242) can0 081#40000000000000DF
(1487076404.212243) can0 18F#002C000000720000
(1487076404.212243) can0 260#050000000EA75F35
(1487076404.212245) can0 165#0908800000000E8F
(1487076404.213345) can0 2A0#62005D806C12A900
(1487076404.213346) can0 2B0#FF06000710
(1487076404.213346) can0 2C0#0000000000000000
(1487076404.213347) can0 329#D760810E11320010
(1487076404.213347) can0 545#DF00005D54FE54FE
(1487076404.214410) can0 153#200000FF00FFB0CE
(1487076404.218970) can0 220#ED0300000000E00F
(1487076404.220047) can0 164#0008000000000E06
(1487076404.220048) can0 1F1#0000000000000000
(1487076404.220049) can0 4F0#0000380000121402
(1487076404.220049) can0 4F1#CCFF000000000000
(1487076404.221126) can0 316#059D0000002F007F
(1487076404.221127) can0 080#001700009D2F0010
(1487076404.222258) can0 081#40000000000000C0
(1487076404.222259) can0 18F#002C000000720000
(1487076404.222260) can0 165#0908800000000F8E
(1487076404.222260) can0 260#050000000EA75F08
(1487076404.223344) can0 2A0#02005D806C12A900
(1487076404.223345) can0 2B0#FD06000721
(1487076404.223346) can0 2C0#0000000000000000
(1487076404.223346) can0 329#0F60810E11320010
(1487076404.223346) can0 545#DF00005E54FE54FE
(1487076404.224424) can0 153#200000FF00FFC0DE
(1487076404.224425) can0 4B0#008000C000000000
(1487076404.228973) can0 220#ED0300000000C70F
(1487076404.230052) can0 164#0008000000000F07
(1487076404.231120) can0 316#059D0000002F007F
(1487076404.232261) can0 080#001700009D2F0001
(1487076404.232262) can0 081#40000000000000B1
(1487076404.232262) can0 18F#002C000000720000
(1487076404.232263) can0 260#050000000EA75F17
(1487076404.232264) can0 2A0#A2005D806C12A900
(1487076404.233359) can0 2B0#FD06000712
(1487076404.233360) can0 2C0#0000000000000000
(1487076404.233361) can0 329#0F60810E11320010
(1487076404.233361) can0 545#DF00005E54FE54FE
(1487076404.233362) can0 5E4#040000
(1487076404.234446) can0 165#0908800000000081
(1487076404.234448) can0 153#200000FF00FFD0EE
(1487076404.238970) can0 220#ED0300000000C70F
(1487076404.240072) can0 164#0008000000000008
(1487076404.240073) can0 1F1#0000000000000000
(1487076404.240073) can0 4F0#00003A0000121402
(1487076404.240074) can0 4F1#CCFF000000000000
(1487076404.241174) can0 165#0908800000000180
(1487076404.241175) can0 2B0#FD06000703
(1487076404.241176) can0 260#050000000EA75F26
(1487076404.242270) can0 2A0#C2005D806C12A900
(1487076404.242271) can0 080#001700009D2F00F2
(1487076404.242272) can0 081#40000000000000A2
(1487076404.242272) can0 18F#002C000000720000
(1487076404.243381) can0 2C0#0000000000000000
(1487076404.243382) can0 316#059D0000002F007F
(1487076404.243383) can0 329#0F60810E11320010
(1487076404.243383) can0 545#DF00005D54FE54FE
(1487076404.244460) can0 153#200000FF00FFE0FE
(1487076404.244461) can0 4B0#0000000000000000
(1487076404.248783) can0 5F0#0100
(1487076404.249922) can0 220#ED0300000000C70F
(1487076404.249923) can0 164#0008000000000109
(1487076404.251021) can0 165#0908800000000283
(1487076404.251022) can0 2B0#FF06000754
(1487076404.251023) can0 316#059D0000002F007F
(1487076404.252127) can0 080#001700009D2F00E3
(1487076404.252128) can0 081#4000000000000093
(1487076404.252129) can0 18F#002C000000720000
(1487076404.252129) can0 260#050000000EA75F35
(1487076404.252134) can0 2A0#62005D806C12A900
(1487076404.253227) can0 2C0#0000000000000000
(1487076404.253228) can0 329#0F60810E11320010
(1487076404.253229) can0 545#DF00005E54FE54FE
(1487076404.254298) can0 153#200000FF00FF001E
(1487076404.258949) can0 220#ED0300000000F30F
(1487076404.260097) can0 164#000800000000020A
(1487076404.260098) can0 1F1#0000000000000000
(1487076404.260099) can0 4F0#00003C0000121402
(1487076404.260099) can0 165#0908800000000382
(1487076404.261205) can0 2B0#FD06000765
(1487076404.261206) can0 4F1#CCFF000000000000
(1487076404.261206) can0 316#059D0000002F007F
(1487076404.261206) can0 080#001700009D2F00D4
(1487076404.262311) can0 081#4000000000000084
(1487076404.262312) can0 18F#002C000000720000
(1487076404.262312) can0 260#050000000EA75F08
(1487076404.262312) can0 2A0#02005D806C12A900
(1487076404.263392) can0 2C0#0000000000000000
(1487076404.263393) can0 329#0F60810E11320010
(1487076404.263394) can0 545#DF00005D54FE54FE
(1487076404.264479) can0 153#200000FF00FF102E
(1487076404.264480) can0 4B0#0040000000000000
(1487076404.268982) can0 220#ED0300000000F30F
(1487076404.270062) can0 164#000800000000030B
(1487076404.270063) can0 165#0908800000000485
(1487076404.270064) can0 2B0#FD06000756
(1487076404.271144) can0 316#059D0000002F007F
(1487076404.272271) can0 080#001700009D2F00C5
(1487076404.272272) can0 081#4000000000000075
(1487076404.272273) can0 18F#002C000000720000
(1487076404.272273) can0 260#050000000EA75F17
(1487076404.273354) can0 2A0#A2005D806C12A900
(1487076404.273355) can0 2C0#0000000000000000
(1487076404.273355) can0 329#0F60810E11320010
(1487076404.273356) can0 545#DF00005E54FE54FE
(1487076404.274438) can0 153#200000FF00FF203E
(1487076404.275684) can0 0A0#0040000000280000
(1487076404.276748) can0 0A1#8080808066000000
(1487076404.278896) can0 165#0908800000000584
(1487076404.279935) can0 220#ED0300000000ED0F
(1487076404.279937) can0 164#000800000000040C
(1487076404.279937) can0 1F1#0000000000000000
(1487076404.279937) can0 2B0#FD06000747
(1487076404.281107) can0 4F0#00003E0000121402
(1487076404.281108) can0 4F1#CCFF000000000000
(1487076404.281108) can0 316#059D0000002F007F
(1487076404.282230) can0 080#001700009D2F00B6
(1487076404.282231) can0 081#4000000000000066
(1487076404.282231) can0 18F#002C000000720000
(1487076404.282232) can0 260#050000000EA75F26
(1487076404.282233) can0 2A0#C2005D806C12A900
(1487076404.283350) can0 2C0#0000000000000000
(1487076404.283351) can0 329#4F60810E11320010
(1487076404.283352) can0 545#DF00005E54FE54FE
(1487076404.283352) can0 5A0#0000000000000000
(1487076404.283352) can0 5A2#04029103
(1487076404.284417) can0 153#200000FF00FF304E
(1487076404.284418) can0 4B0#0080000000000000
(1487076404.288550) can0 165#0908800000000687
(1487076404.289643) can0 2B0#FF06000798
(1487076404.289644) can0 220#ED0300000000E60F
(1487076404.289644) can0 164#000800000000050D
(1487076404.290860) can0 316#059D0000002F007F
(1487076404.291944) can0 080#001700009D2F00A7
(1487076404.291945) can0 081#4000000000000057
(1487076404.291946) can0 18F#002C000000720000
(1487076404.291946) can0 260#050000000EA75F35
(1487076404.293060) can0 2A0#62005D806C12A900
(1487076404.293061) can0 2C0#0000000000000000
(1487076404.293061) can0 329#4F60810E11320010
(1487076404.293061) can0 545#DF00005D54FE54FE
(1487076404.294121) can0 153#200000FF00FF405E
(1487076404.296836) can0 5F0#0100
(1487076404.298104) can0 165#0908800000000786
(1487076404.299227) can0 2B0#FD060007A9
(1487076404.299228) can0 220#ED0300000000D40F
(1487076404.299233) can0 164#000800000000060E
(1487076404.300316) can0 1F1#0000000000000000
(1487076404.300317) can0 4F0#0000400000121402
(1487076404.300318) can0 4F1#CCFF000000000000
(1487076404.300318) can0 690#4000400000200000
(1487076404.301396) can0 316#059D0000002F007F
(1487076404.301397) can0 080#001700009D2F0098
(1487076404.301397) can0 081#4000000000000048
(1487076404.302502) can0 18F#002C000000720000
(1487076404.302503) can0 260#050000000EA75F08
(1487076404.302503) can0 2A0#02005D806C12A900
(1487076404.302504) can0 2C0#0000000000000000
(1487076404.303583) can0 329#4F60810E11320010
(1487076404.303585) can0 545#DF00005E54FE54FE
(1487076404.304624) can0 153#200000FF00FF506E
(1487076404.304625) can0 4B0#00C0000000000000
(1487076404.307619) can0 165#0908800000000889
(1487076404.308677) can0 2B0#FD0600079A
(1487076404.309827) can0 220#ED0300000000E00F
(1487076404.309828) can0 164#000800000000070F
(1487076404.311107) can0 316#059D0000002F007F
(1487076404.312187) can0 080#001700009D2F0089
(1487076404.312188) can0 081#4000000000000039
(1487076404.312189) can0 18F#002C000000720000
(1487076404.312189) can0 260#050000000EA75F17
(1487076404.313297) can0 2A0#A2005D806C12A900
(1487076404.313298) can0 2C0#0000000000000000
(1487076404.313299) can0 329#4F60810E11320010
(1487076404.313299) can0 545#DF00005D54FE54FE
(1487076404.314372) can0 153#200000FF00FF607E
(1487076404.317256) can0 165#0908800000000988
(1487076404.318312) can0 2B0#FD0600078B
(1487076404.319436) can0 220#ED0300000000E00F
(1487076404.319437) can0 164#0008000000000800
(1487076404.320501) can0 1F1#0000000000000000
(1487076404.320502) can0 4F0#0000420000121402
(1487076404.320503) can0 4F1#CCFF000000000000
(1487076404.321602) can0 316#059D0000002F007F
(1487076404.321603) can0 080#001700009D2F007A
(1487076404.321604) can0 081#400000000000002A
(1487076404.322694) can0 18F#002C000000720000
(1487076404.322695) can0 260#050000000EA75F26
(1487076404.322695) can0 2A0#C2005D806C12A900
(1487076404.322695) can0 2C0#0000000000000000
(1487076404.322696) can0 329#4F60810E11320010
(1487076404.323715) can0 545#DF00005E54FE54FE
(1487076404.324868) can0 153#200000FF00FF708E
(1487076404.324869) can0 4B0#0000004000000000
(1487076404.326812) can0 165#0908800000000A8B
(1487076404.327898) can0 2B0#FD060007FC
(1487076404.328979) can0 220#ED0300000000F30F
(1487076404.330062) can0 164#0008000000000901
(1487076404.331150) can0 316#059D0000002F007F
(1487076404.331151) can0 080#001700009D2F006B
(1487076404.332186) can0 081#400000000000001B
(1487076404.332187) can0 18F#002C000000720000
(1487076404.332188) can0 260#050000000EA75F35
(1487076404.332188) can0 2A0#62005D806C12A900
(1487076404.333354) can0 2C0#0000000000000000
(1487076404.333355) can0 329#4F60810E11320010
(1487076404.333355) can0 545#DF00005E54FE54FE
(1487076404.333356) can0 5E4#040000
(1487076404.334435) can0 153#200000FF00FF809E
(1487076404.336390) can0 165#0908800000000B8A
(1487076404.337459) can0 2B0#FF060007CD
(1487076404.338979) can0 220#ED0300000000F30F
(1487076404.340006) can0 164#0008000000000A02
(1487076404.340007) can0 1F1#0000000000000000
(1487076404.340007) can0 4F0#0000440000121402
(1487076404.340008) can0 4F1#CCFF000000000000
(1487076404.341147) can0 316#059D0000002F007F
(1487076404.341148) can0 080#001700009D2F005C
(1487076404.342253) can0 081#400000000000000C
(1487076404.342254) can0 18F#002C000000720000
(1487076404.342254) can0 260#050000000EA75F08
(1487076404.342255) can0 2A0#02005D806C12A900
(1487076404.343333) can0 2C0#0000000000000000
(1487076404.343334) can0 329#8060810E11320010
(1487076404.343339) can0 545#DF00005D54FE54FE
(1487076404.344422) can0 153#200000FF00FF90AE
(1487076404.344423) can0 4B0#0040004000000000
(1487076404.345476) can0 5F0#0100
(1487076404.346561) can0 165#0908800000000C8D
(1487076404.346562) can0 2B0#FD060007DE
(1487076404.349002) can0 220#ED0300000000ED0F
(1487076404.350063) can0 164#0008000000000B03
(1487076404.351146) can0 316#059D0000002F007F
(1487076404.352258) can0 080#001700009D2F004D
(1487076404.352259) can0 081#40000000000000FD
(1487076404.352260) can0 18F#002C000000720000
(1487076404.352260) can0 260#050000000EA75F17
(1487076404.353353) can0 2A0#A2005D806C12A900
(1487076404.353354) can0 2C0#0000000000000000
(1487076404.353354) can0 329#8060810E11320010
(1487076404.353354) can0 545#DF00005E54FE54FE
(1487076404.354439) can0 153#200000FF00FFA0BE
(1487076404.355552) can0 165#0A08800000000D8F
(1487076404.356608) can0 2B0#FF060007EF
(1487076404.358977) can0 220#ED0300000000C10F
(1487076404.360087) can0 164#0008000000000C04
(1487076404.360088) can0 1F1#0000000000000000
(1487076404.360088) can0 4F0#0000460000121402
(1487076404.360089) can0 4F1#CCFF000000000000
(1487076404.361176) can0 316#059D0000002F007F
(1487076404.362191) can0 080#001700009D2F003E
(1487076404.362192) can0 081#40000000000000EE
(1487076404.362193) can0 18F#002C000000720000
(1487076404.362193) can0 260#050000000EA75F26
(1487076404.362194) can0 2A0#C2005D806C12A900
(1487076404.363353) can0 2C0#0000000000000000
(1487076404.363354) can0 329#8060810E11320010
(1487076404.363355) can0 545#DF00005D54FE54FE
(1487076404.364378) can0 153#200000FF00FFB0CE
(1487076404.364379) can0 4B0#0080004000000000
(1487076404.365495) can0 165#0908800000000E8F
(1487076404.365496) can0 2B0#FD06000730
(1487076404.368975) can0 220#ED0300000000C10F
(1487076404.370052) can0 164#0008000000000D05
(1487076404.371135) can0 316#059D0000002F007F
(1487076404.371136) can0 080#001700009D2F002F
(1487076404.372191) can0 081#40000000000000DF
(1487076404.372193) can0 18F#002C000000720000
(1487076404.372193) can0 260#050000000EA75F35
(1487076404.372194) can0 0A0#0040000000280000
(1487076404.373364) can0 0A1#8080808066000000
(1487076404.373366) can0 2A0#62005D806C12A900
(1487076404.373366) can0 2C0#0000000000000000
(1487076404.373367) can0 329#8060810E11320010
(1487076404.373368) can0 545#DF00005E54FE54FE
(1487076404.374429) can0 153#200000FF00FFC0DE
(1487076404.375513) can0 165#0908800000000F8E
(1487076404.375514) can0 2B0#FD06000721
(1487076404.378970) can0 220#ED0300000000CD0F
(1487076404.380062) can0 164#0008000000000E06
(1487076404.380064) can0 1F1#0000000000000000
(1487076404.380064) can0 4F0#0000480000121402
(1487076404.380064) can0 4F1#CCFF000000000000
(1487076404.381163) can0 316#059D0000002F007F
(1487076404.381164) can0 080#001700009D2F0010
(1487076404.382289) can0 081#40000000000000C0
(1487076404.382290) can0 18F#002C000000720000
(1487076404.382290) can0 260#050000000EA75F08
(1487076404.382291) can0 2A0#02005D806C12A900
(1487076404.383363) can0 2C0#0000000000000000
(1487076404.383364) can0 329#8060810E11320010
(1487076404.383364) can0 545#DF00005D54FE54FE
(1487076404.384483) can0 153#200000FF00FFD0EE
(1487076404.384484) can0 4B0#00C0004000000000
(1487076404.384484) can0 165#0908800000000081
(1487076404.385564) can0 2B0#FD06000712
(1487076404.388964) can0 220#ED0300000000CD0F
(1487076404.390063) can0 164#0008000000000F07
(1487076404.391145) can0 316#059D0000002F007F
(1487076404.392277) can0 080#001700009D2F0001
(1487076404.392279) can0 081#40000000000000B1
(1487076404.392283) can0 18F#002C000000720000
(1487076404.392284) can0 260#050000000EA75F17
(1487076404.392284) can0 2A0#A2005D806C12A900
(1487076404.393358) can0 2C0#0000000000000000
(1487076404.393359) can0 329#8060810E11320010
(1487076404.393359) can0 545#DF00005E54FE54FE
(1487076404.393360) can0 5F0#0100
(1487076404.394441) can0 165#0908800000000180
(1487076404.394442) can0 153#200000FF00FFE0FE
(1487076404.394442) can0 2B0#FD06000703
(1487076404.399006) can0 220#ED0300000000AE0F
(1487076404.400082) can0 164#0008000000000008
(1487076404.400083) can0 1F1#0000000000000000
(1487076404.400083) can0 4F0#00004A0000121402
(1487076404.400084) can0 4F1#CCFF000000000000
(1487076404.401189) can0 690#4000400000200400
(1487076404.401190) can0 316#059D0000002F007F
(1487076404.402302) can0 080#001700009D2F00F2
(1487076404.402303) can0 081#40000000000000A2
(1487076404.402303) can0 18F#002C000000720000
(1487076404.402304) can0 260#050000000EA75F26
(1487076404.402304) can0 2A0#C2005D806C12A900
(1487076404.403421) can0 2C0#0000000000000000
(1487076404.403422) can0 329#D760810E11320010
(1487076404.403423) can0 545#DF00005E54FE54FE
(1487076404.403423) can0 165#0908800000000283
(1487076404.404428) can0 2B0#FD06000774
(1487076404.404429) can0 153#200000FF00FF001E
(1487076404.404430) can0 4B0#0000008000000000
(1487076404.408933) can0 220#ED0300000000AE0F
(1487076404.410059) can0 164#0008000000000109
(1487076404.411128) can0 316#059D0000002F007F
(1487076404.411129) can0 080#001700009D2F00E3
(1487076404.412256) can0 081#4000000000000093
(1487076404.412257) can0 18F#002C000000720000
(1487076404.412257) can0 260#050000000EA75F35
(1487076404.412258) can0 2A0#62005D806C12A900
(1487076404.413356) can0 2C0#0000000000000000
(1487076404.413357) can0 329#D760810E11320010
(1487076404.413358) can0 545#DF00005D54FE54FE
(1487076404.413358) can0 165#0908800000000382
(1487076404.413358) can0 2B0#FD06000765
(1487076404.414438) can0 153#200000FF00FF102E
(1487076404.419007) can0 220#ED0300000000BB0F
(1487076404.420085) can0 164#000800000000020A
(1487076404.420086) can0 1F1#0000000000000000
(1487076404.420087) can0 4F0#00004C0000121402
(1487076404.420087) can0 4F1#CCFF000000000000
(1487076404.421123) can0 316#059D0000002F007F
(1487076404.421135) can0 080#001700009D2F00D4
(1487076404.422300) can0 081#4000000000000084
(1487076404.422301) can0 18F#002C000000720000
(1487076404.422302) can0 260#050000000EA75F08
(1487076404.422302) can0 2A0#02005D806C12A900
(1487076404.423392) can0 2C0#0000000000000000
(1487076404.423393) can0 165#0908800000000485
(1487076404.423394) can0 2B0#FD06000756
(1487076404.423394) can0 329#D760810E11320010
(1487076404.423395) can0 545#DF00005E54FE54FE
(1487076404.424449) can0 153#200000FF00FF203E
(1487076404.424450) can0 4B0#0040008000000000
(1487076404.428977) can0 220#ED0300000000C10F
(1487076404.430053) can0 164#000800000000030B
(1487076404.431104) can0 316#059D0000002F007F
(1487076404.432268) can0 080#001700009D2F00C5
(1487076404.432269) can0 081#4000000000000075
(1487076404.432270) can0 18F#002C000000720000
(1487076404.432270) can0 260#050000000EA75F17
(1487076404.433365) can0 2A0#A2005D806C12A900
(1487076404.433366) can0 2B0#FD06000747
(1487076404.433367) can0 2C0#0000000000000000
(1487076404.433367) can0 329#D760810E11320010
(1487076404.433367) can0 545#DF00005D54FE54FE
(1487076404.433373) can0 5E4#040000
(1487076404.434452) can0 165#0908800000000584
(1487076404.434453) can0 153#200000FF00FF304E
(1487076404.438990) can0 220#ED0300000000D40F
(1487076404.440075) can0 164#000800000000040C
(1487076404.440076) can0 1F1#0000000000000000
(1487076404.440076) can0 4F0#00004E0000121402
(1487076404.440077) can0 4F1#CCFF000000000000
(1487076404.441164) can0 5F0#0100
(1487076404.441165) can0 316#059D0000002F007F
(1487076404.442290) can0 2C0#0000000000000000
(1487076404.442291) can0 080#001700009D2F00B6
(1487076404.442291) can0 081#4000000000000066
(1487076404.442292) can0 18F#002C000000720000
(1487076404.443417) can0 260#050000000EA75F26
(1487076404.443418) can0 2A0#C2005D806C12A900
(1487076404.443418) can0 2B0#FD060007B8
(1487076404.443419) can0 165#0908800000000687
(1487076404.443419) can0 329#D760810E11320010
(1487076404.444490) can0 545#DF00005E54FE54FE
(1487076404.444491) can0 153#200000FF00FF405E
(1487076404.444491) can0 4B0#0080008000000000
(1487076404.448963) can0 220#ED0300000000F30F
(1487076404.450068) can0 164#000800000000050D
(1487076404.451164) can0 316#059D0000002F007F
(1487076404.451165) can0 080#001700009D2F00A7
(1487076404.452294) can0 081#4000000000000057
(1487076404.452295) can0 18F#002C000000720000
(1487076404.452295) can0 260#050000000EA75F35
(1487076404.452296) can0 2A0#62005D806C12A900
(1487076404.452296) can0 2B0#FD060007A9
(1487076404.453342) can0 165#0908800000000786
(1487076404.453343) can0 2C0#0000000000000000
(1487076404.453344) can0 329#D760810E11320010
(1487076404.453344) can0 545#DF00005E54FE54FE
(1487076404.454433) can0 153#200000FF00FF506E
(1487076404.458942) can0 220#ED0300000000F30F
(1487076404.460076) can0 164#000800000000060E
(1487076404.460077) can0 1F1#0000000000000000
(1487076404.460077) can0 4F0#0000500000121402
(1487076404.460078) can0 4F1#CCFF000000000000
(1487076404.461164) can0 165#0908800000000889
(1487076404.461165) can0 2B0#FD0600079A
(1487076404.461166) can0 2A0#02005D806C12A900
(1487076404.462259) can0 080#001700009D2F0098
(1487076404.462260) can0 081#4000000000000048
(1487076404.462261) can0 18F#002C000000720000
(1487076404.462261) can0 260#050000000EA75F08
(1487076404.463366) can0 2C0#0000000000000000
(1487076404.463367) can0 316#059D0000002F007F
(1487076404.463368) can0 329#0F60810E11320010
(1487076404.463368) can0 545#DF00005D54FE54FE
(1487076404.464451) can0 153#200000FF00FF607E
(1487076404.464452) can0 4B0#00C0008000000000
(1487076404.469018) can0 220#ED0300000000E00F
(1487076404.470082) can0 164#000800000000070F
(1487076404.471178) can0 165#0908800000000988
(1487076404.471179) can0 2B0#FD0600078B
(1487076404.471179) can0 316#059D0000002F007F
(1487076404.472290) can0 080#001700009D2F0089
(1487076404.472291) can0 081#4000000000000039
(1487076404.472291) can0 18F#002C000000720000
(1487076404.472292) can0 260#050000000EA75F17
(1487076404.472292) can0 2A0#A2005D806C12A900
(1487076404.473384) can0 2C0#0000000000000000
(1487076404.473385) can0 329#0F60810E11320010
(1487076404.473386) can0 0A0#0040000000280000
(1487076404.473386) can0 0A1#8080808066000000
(1487076404.474492) can0 545#DF00005E54FE54FE
(1487076404.474493) can0 153#200000FF00FF708E
(1487076404.478950) can0 220#ED0300000000E00F
(1487076404.480117) can0 164#0008000000000800
(1487076404.480118) can0 1F1#0000000000000000
(1487076404.480123) can0 4F0#0000520000121402
(1487076404.480123) can0 165#0908800000000A8B
(1487076404.481220) can0 2B0#FD060007FC
(1487076404.481221) can0 4F1#CCFF000000000000
(1487076404.481222) can0 316#059D0000002F007F
(1487076404.481222) can0 080#001700009D2F007A
(1487076404.482327) can0 081#400000000000002A
(1487076404.482328) can0 18F#002C000000720000
(1487076404.482328) can0 260#050000000EA75F26
(1487076404.482329) can0 2A0#C2005D806C12A900
(1487076404.483416) can0 2C0#0000000000000000
(1487076404.483418) can0 329#0F60810E11320010
(1487076404.483418) can0 545#DF00005D54FE54FE
(1487076404.484490) can0 153#200000FF00FF809E
(1487076404.484491) can0 4B0#000000C000000000
(1487076404.488830) can0 5F0#0100
(1487076404.489932) can0 220#ED0300000000E60F
(1487076404.489933) can0 164#0008000000000901
(1487076404.489934) can0 165#0908800000000B8A
(1487076404.489934) can0 2B0#FD060007ED
(1487076404.491012) can0 316#059D0000002F007F
(1487076404.492120) can0 080#001700009D2F006B
(1487076404.492121) can0 081#400000000000001B
(1487076404.492121) can0 18F#002C000000720000
(1487076404.492121) can0 260#050000000EA75F35
(1487076404.492122) can0 2A0#62005D806C12A900
(1487076404.493199) can0 2C0#0000000000000000
(1487076404.493200) can0 329#0F60810E11320010
(1487076404.493201) can0 545#DF00005E54FE54FE
(1487076404.494287) can0 153#200000FF00FF90AE
(1487076404.498957) can0 165#0908800000000C8D
(1487076404.500077) can0 220#ED0300000000DA0F
(1487076404.500078) can0 164#0008000000000A02
(1487076404.500078) can0 1F1#0000000000000000
(1487076404.500079) can0 2B0#FD060007DE
(1487076404.501201) can0 4F0#0000540000121402
(1487076404.501202) can0 4F1#CCFF000000000000
(1487076404.501202) can0 690#4000400000200800
(1487076404.501203) can0 316#059D0000002F007F
(1487076404.501203) can0 329#0F60810E11320010
(1487076404.502255) can0 080#001700009D2F005C
(1487076404.502257) can0 081#400000000000000C
(1487076404.502257) can0 18F#002C000000720000
(1487076404.502258) can0 260#050000000EA75F08
(1487076404.503415) can0 2A0#02005D806C12A900
(1487076404.503416) can0 2C0#0000000000000000
(1487076404.503416) can0 545#DF00005E54FE54FE
(1487076404.504493) can0 153#200000FF00FFA0BE
(1487076404.504494) can0 4B0#004000C000000000
(1487076404.508516) can0 165#0908800000000D8C
(1487076404.509531) can0 2B0#FD060007CF
(1487076404.509533) can0 220#ED0300000000F30F
(1487076404.509533) can0 164#0008000000000B03
(1487076404.511120) can0 316#059D0000002F007F
(1487076404.512206) can0 080#001700009D2F004D
(1487076404.512207) can0 081#40000000000000FD
(1487076404.512207) can0 18F#002C000000720000
(1487076404.512208) can0 260#050000000EA75F17
(1487076404.513305) can0 2A0#A2005D806C12A900
(1487076404.513306) can0 2C0#0000000000000000
(1487076404.513306) can0 329#0F60810E11320010
(1487076404.513306) can0 545#DF00005D54FE54FE
(1487076404.514387) can0 153#200000FF00FFB0CE
(1487076404.518100) can0 165#0908800000000E8F
(1487076404.519196) can0 2B0#FD06000730
(1487076404.519197) can0 220#ED0300000000CD0F
(1487076404.520272) can0 164#0008000000000C04
(1487076404.520274) can0 1F1#0000000000000000
(1487076404.520274) can0 4F0#0000560000121402
(1487076404.520275) can0 4F1#CCFF000000000000
(1487076404.521417) can0 316#059D0000002F007F
(1487076404.521418) can0 080#001700009D2F003E
(1487076404.522491) can0 081#40000000000000EE
(1487076404.522493) can0 18F#002C000000720000
(1487076404.522493) can0 260#050000000EA75F26
(1487076404.522493) can0 2A0#C2005D806C12A900
(1487076404.522494) can0 2C0#0000000000000000
(1487076404.523580) can0 329#4F60810E11320010
(1487076404.523581) can0 545#DF00005E54FE54FE
(1487076404.524666) can0 153#200000FF00FFC0DE
(1487076404.524667) can0 4B0#008000C000000000
(1487076404.527560) can0 165#0908800000000F8E
(1487076404.528637) can0 2B0#FD06000721
(1487076404.529721) can0 220#ED0300000000CD0F
(1487076404.529722) can0 164#0008000000000D05
(1487076404.530850) can0 316#059D0000002F007F
(1487076404.531941) can0 080#001700009D2F002F
(1487076404.531942) can0 081#40000000000000DF
(1487076404.531943) can0 18F#002C000000720000
(1487076404.531943) can0 260#050000000EA75F35
(1487076404.533055) can0 2A0#62005D806C12A900
(1487076404.533056) can0 2C0#0000000000000000
(1487076404.533057) can0 329#4F60810E11320010
(1487076404.533057) can0 545#DF00005D54FE54FE
(1487076404.533057) can0 5E4#040000
(1487076404.534137) can0 153#200000FF00FFD0EE
(1487076404.536827) can0 5F0#0100
(1487076404.537896) can0 165#0908800000000081
(1487076404.537897) can0 2B0#FD06000712
(1487076404.539012) can0 220#ED0300000000ED0F
(1487076404.540098) can0 164#0008000000000E06
(1487076404.540099) can0 1F1#0000000000000000
(1487076404.540099) can0 4F0#0000580000121402
(1487076404.540099) can0 4F1#CCFF000000000000
(1487076404.541180) can0 316#059D0000002F007F
(1487076404.541181) can0 080#001700009D2F0010
(1487076404.542304) can0 081#40000000000000C0
(1487076404.542305) can0 18F#002C000000720000
(1487076404.542305) can0 260#050000000EA75F08
(1487076404.542305) can0 2A0#02005D806C12A900
(1487076404.543336) can0 2C0#0000000000000000
(1487076404.543336) can0 329#4F60810E11320010
(1487076404.543337) can0 545#DF00005E54FE54FE
(1487076404.544471) can0 153#200000FF00FFE0FE
(1487076404.544472) can0 4B0#0000000000000000
(1487076404.546698) can0 165#0908800000000180
(1487076404.547795) can0 2B0#FD06000703
(1487076404.549013) can0 220#ED0300000000ED0F
(1487076404.550076) can0 164#0008000000000F07
(1487076404.551123) can0 316#059D0000002F007F
(1487076404.552295) can0 080#001700009D2F0001
(1487076404.552296) can0 081#40000000000000B1
(1487076404.552296) can0 18F#002C000000720000
(1487076404.552298) can0 260#050000000EA75F17
(1487076404.552298) can0 2A0#A2005D806C12A900
(1487076404.553365) can0 2C0#0000000000000000
(1487076404.553366) can0 329#4F60810E11320010
(1487076404.553367) can0 545#DF00005D54FE54FE
(1487076404.554451) can0 153#200000FF00FF001E
(1487076404.556341) can0 165#0908800000000283
(1487076404.557430) can0 2B0#FD06000774
(1487076404.559011) can0 220#ED0300000000D40F
(1487076404.560099) can0 164#0008000000000008
(1487076404.560101) can0 1F1#0000000000000000
(1487076404.560101) can0 4F0#00005A0000121402
(1487076404.560101) can0 4F1#CCFF000000000000
(1487076404.561201) can0 316#059D0000002F007F
(1487076404.562305) can0 080#001700009D2F00F2
(1487076404.562307) can0 081#40000000000000A2
(1487076404.562307) can0 18F#002C000000720000
(1487076404.562307) can0 260#050000000EA75F26
(1487076404.562308) can0 2A0#C2005D806C12A900
(1487076404.563387) can0 2C0#0000000000000000
(1487076404.563388) can0 329#4F60810E11320010
(1487076404.563389) can0 545#DF00005D54FE54FE
(1487076404.564481) can0 153#200000FF00FF102E
(1487076404.564482) can0 4B0#0040000000000000
(1487076404.565961) can0 165#0908800000000382
(1487076404.566943) can0 2B0#FD06000765
(1487076404.569023) can0 220#ED0300000000E00F
(1487076404.570105) can0 164#0008000000000109
(1487076404.571189) can0 316#059D0000002F007F
(1487076404.571190) can0 080#001700009D2F00E3
(1487076404.572258) can0 081#4000000000000093
(1487076404.572259) can0 18F#002C000000720000
(1487076404.572259) can0 260#050000000EA75F35
(1487076404.572260) can0 2A0#62005D806C12A900
(1487076404.573397) can0 2C0#0000000000000000
(1487076404.573398) can0 329#4F60810E11320010
(1487076404.573398) can0 545#DF00005E54FE54FE
(1487076404.574481) can0 0A0#0040000000280000
(1487076404.574482) can0 0A1#8080808066000000
(1487076404.574483) can0 153#200000FF00FF203E
(1487076404.575556) can0 165#0908800000000485
(1487076404.576626) can0 2B0#FD06000756
(1487076404.579001) can0 220#ED0300000000ED0F
(1487076404.580096) can0 164#000800000000020A
(1487076404.580097) can0 1F1#0000000000000000
(1487076404.580097) can0 4F0#00005C0000121402
(1487076404.580098) can0 4F1#CCFF000000000000
(1487076404.581189) can0 316#059D0000002F007F
(1487076404.581190) can0 080#001700009D2F00D4
(1487076404.582315) can0 081#4000000000000084
(1487076404.582316) can0 18F#002C000000720000
(1487076404.582316) can0 260#050000000EA75F08
(1487076404.582317) can0 2A0#02005D806C12A900
(1487076404.582318) can0 2C0#0000000000000000
(1487076404.583363) can0 329#8060810E11320010
(1487076404.583364) can0 545#DF00005D54FE54FE
(1487076404.584477) can0 153#200000FF00FF304E
(1487076404.584478) can0 4B0#0080000000000000
(1487076404.585567) can0 5F0#0100
(1487076404.585568) can0 165#0908800000000584
(1487076404.585568) can0 2B0#FD06000747
(1487076404.589007) can0 220#ED0300000000D40F
(1487076404.590069) can0 164#000800000000030B
(1487076404.591177) can0 316#059D0000002F007F
(1487076404.592290) can0 080#001700009D2F00C5
(1487076404.592291) can0 081#4000000000000075
(1487076404.592291) can0 18F#002C000000720000
(1487076404.592292) can0 260#050000000EA75F17
(1487076404.592293) can0 2A0#A2005D806C12A900
(1487076404.593364) can0 2C0#0000000000000000
(1487076404.593365) can0 329#8060810E11320010
(1487076404.593365) can0 545#DF00005E54FE54FE
(1487076404.594462) can0 153#200000FF00FF405E
(1487076404.595528) can0 165#0908800000000687
(1487076404.595529) can0 2B0#FD060007B8
(1487076404.599005) can0 220#ED0300000000D40F
(1487076404.600112) can0 164#000800000000040C
(1487076404.600114) can0 1F1#0000000000000000
(1487076404.600114) can0 4F0#00005E0000121402
(1487076404.600114) can0 4F1#CCFF000000000000
(1487076404.601212) can0 690#4000400000200C00
(1487076404.601213) can0 316#059D0000002F007F
(1487076404.602315) can0 080#001700009D2F00B6
(1487076404.602317) can0 081#4000000000000066
(1487076404.602317) can0 18F#002C000000720000
(1487076404.602317) can0 260#050000000EA75F26
(1487076404.602318) can0 2A0#C2005D806C12A900
(1487076404.603400) can0 2C0#0000000000000000
(1487076404.603401) can0 329#8060810E11320010
(1487076404.603401) can0 545#DF00005D54FE54FE
(1487076404.604411) can0 153#200000FF00FF506E
(1487076404.604413) can0 165#0908800000000786
(1487076404.604413) can0 2B0#FF06000789
(1487076404.605482) can0 4B0#00C0000000000000
(1487076404.609008) can0 220#ED0300000000BB0F
(1487076404.610032) can0 164#000800000000050D
(1487076404.611190) can0 316#059D0000002F007F
(1487076404.611191) can0 080#001700009D2F00A7
(1487076404.612243) can0 081#4000000000000057
(1487076404.612244) can0 18F#002C000000720000
(1487076404.612245) can0 260#050000000EA75F35
(1487076404.612251) can0 2A0#62005D806C12A900
(1487076404.613384) can0 2C0#0000000000000000
(1487076404.613385) can0 329#8060810E11320010
(1487076404.613385) can0 545#DF00005D54FE54FE
(1487076404.613386) can0 5A1#5442333046422644
(1487076404.614480) can0 165#0908800000000889
(1487076404.614481) can0 153#200000FF00FF607E
(1487076404.614481) can0 2B0#FD0600079A
(1487076404.619004) can0 220#ED0300000000BB0F
(1487076404.620109) can0 164#000800000000060E
(1487076404.620110) can0 1F1#0000000000000000
(1487076404.620111) can0 4F0#0000600000121402
(1487076404.620111) can0 4F1#CCFF000000000000
(1487076404.621185) can0 316#059D0000002F007F
(1487076404.621186) can0 080#001700009D2F0098
(1487076404.622316) can0 081#4000000000000048
(1487076404.622317) can0 18F#002C000000720000
(1487076404.622317) can0 260#050000000EA75F08
(1487076404.622318) can0 2A0#02005D806C12A900
(1487076404.622318) can0 2C0#0000000000000000
(1487076404.623400) can0 329#8060810E11320010
(1487076404.623401) can0 545#DF00005E54FE54FE
(1487076404.623401) can0 165#0908800000000988
(1487076404.624451) can0 2B0#FD0600078B
(1487076404.624452) can0 153#200000FF00FF708E
(1487076404.624453) can0 4B0#0000004000000000
(1487076404.629009) can0 220#ED0300000000CD0F
(1487076404.630086) can0 164#000800000000070F
(1487076404.631134) can0 316#059D0000002F007F
(1487076404.632195) can0 080#001700009D2F0089
(1487076404.632197) can0 081#4000000000000039
(1487076404.632198) can0 18F#002C000000720000
(1487076404.632198) can0 260#050000000EA75F17
(1487076404.632199) can0 2A0#A2005D806C12A900
(1487076404.633399) can0 2C0#0000000000000000
(1487076404.633400) can0 329#8060810E11320010
(1487076404.633400) can0 545#DF00005D54FE54FE
(1487076404.633400) can0 2B0#FF060007DC
(1487076404.633401) can0 5E4#040000
(1487076404.634482) can0 165#0908800000000A8B
(1487076404.634483) can0 5F0#0100
(1487076404.634483) can0 153#200000FF00FF809E
(1487076404.639031) can0 220#ED0300000000CD0F
(1487076404.640109) can0 164#0008000000000800
(1487076404.640110) can0 1F1#0000000000000000
(1487076404.640110) can0 4F0#0000620000121402
(1487076404.640111) can0 4F1#CCFF000000000000
(1487076404.641213) can0 316#059D0000002F007F
(1487076404.642317) can0 080#001700009D2F007A
(1487076404.642318) can0 081#400000000000002A
(1487076404.642318) can0 18F#002C000000720000
(1487076404.642318) can0 260#050000000EA75F26
(1487076404.642319) can0 2A0#C2005D806C12A900
(1487076404.643427) can0 2C0#0000000000000000
(1487076404.643428) can0 165#0A08800000000B89
(1487076404.643428) can0 2B0#FD060007ED
(1487076404.643429) can0 329#D760810E11320010
(1487076404.643429) can0 545#DF00005E54FE54FE
(1487076404.644489) can0 153#200000FF00FF90AE
(1487076404.644490) can0 4B0#0040004000000000
(1487076404.648949) can0 220#ED0300000000E00F
(1487076404.650076) can0 164#0008000000000901
(1487076404.651180) can0 316#059D0000002F007F
(1487076404.651181) can0 080#001700009D2F006B
(1487076404.652311) can0 081#400000000000001B
(1487076404.652312) can0 18F#002C000000720000
(1487076404.652313) can0 260#050000000EA75F35
(1487076404.652313) can0 165#0908800000000C8D
(1487076404.652313) can0 2A0#62005D806C12A900
(1487076404.653390) can0 2B0#FD060007DE
(1487076404.653391) can0 2C0#0000000000000000
(1487076404.653391) can0 329#D760810E11320010
(1487076404.653391) can0 545#DF00005D54FE54FE
(1487076404.654452) can0 153#200000FF00FFA0BE
(1487076404.659001) can0 220#ED0300000000D40F
(1487076404.660106) can0 164#0008000000000A02
(1487076404.660107) can0 1F1#0000000000000000
(1487076404.660107) can0 4F0#0000640000121402
(1487076404.660107) can0 4F1#CCFF000000000000
(1487076404.661190) can0 316#059D0000002F007F
(1487076404.661191) can0 080#001700009D2F005C
(1487076404.662298) can0 081#400000000000000C
(1487076404.662299) can0 165#0908800000000D8C
(1487076404.662300) can0 18F#002C000000720000
(1487076404.662300) can0 260#050000000EA75F08
(1487076404.663399) can0 2A0#02005D806C12A900
(1487076404.663400) can0 2B0#FD060007CF
(1487076404.663401) can0 2C0#0000000000000000
(1487076404.663401) can0 329#D760810E11320010
(1487076404.663401) can0 545#DF00005E54FE54FE
(1487076404.664484) can0 153#200000FF00FFB0CE
(1487076404.664485) can0 4B0#0080004000000000
(1487076404.669030) can0 220#ED0300000000D40F
(1487076404.670108) can0 164#0008000000000B03
(1487076404.671108) can0 316#059D0000002F007F
(1487076404.672318) can0 080#001700009D2F004D
(1487076404.672319) can0 081#40000000000000FD
(1487076404.672319) can0 18F#002C000000720000
(1487076404.672320) can0 260#050000000EA75F17
(1487076404.672321) can0 2A0#A2005D806C12A900
(1487076404.673428) can0 2B0#FD06000730
(1487076404.673429) can0 165#0908800000000E8F
(1487076404.673430) can0 2C0#0000000000000000
(1487076404.673430) can0 329#D760810E11320010
(1487076404.674503) can0 545#DF00005E54FE54FE
(1487076404.674504) can0 153#200000FF00FFC0DE
(1487076404.675592) can0 0A0#0040000000280000
(1487076404.675593) can0 0A1#8080808066000000
(1487076404.679028) can0 220#ED0300000000C70F
(1487076404.680118) can0 164#0008000000000C04
(1487076404.680119) can0 1F1#0000000000000000
(1487076404.680120) can0 4F0#0000660000121402
(1487076404.680120) can0 4F1#CCFF000000000000
(1487076404.681215) can0 165#0908800000000F8E
(1487076404.681216) can0 2B0#FD06000721
(1487076404.681217) can0 260#050000000EA75F26
(1487076404.682265) can0 2A0#C2005D806C12A900
(1487076404.682266) can0 080#001700009D2F003E
(1487076404.682267) can0 081#40000000000000EE
(1487076404.682267) can0 18F#002C000000720000
(1487076404.683442) can0 2C0#0000000000000000
(1487076404.683443) can0 316#059D0000002F007F
(1487076404.683443) can0 329#D760810E11320010
(1487076404.683444) can0 545#DF00005D54FE54FE
(1487076404.683444) can0 5F0#0100
(1487076404.684525) can0 153#200000FF00FFD0EE
(1487076404.684526) can0 4B0#00C0004000000000
(1487076404.689033) can0 220#ED0300000000C70F
(1487076404.690110) can0 164#0008000000000D05
(1487076404.691192) can0 165#0908800000000081
(1487076404.691193) can0 2B0#FD06000712
(1487076404.691193) can0 316#059D0000002F007F
(1487076404.691193) can0 080#001700009D2F002F
(1487076404.692318) can0 081#40000000000000DF
(1487076404.692319) can0 18F#002C000000720000
(1487076404.692320) can0 260#050000000EA75F35
(1487076404.692320) can0 2A0#62005D806C12A900
(1487076404.692320) can0 2C0#0000000000000000
(1487076404.693400) can0 329#D760810E11320010
(1487076404.693401) can0 545#DF00005E54FE54FE
(1487076404.694483) can0 153#200000FF00FFE0FE
(1487076404.699053) can0 220#ED0300000000E00F
(1487076404.700137) can0 164#0008000000000E06
(1487076404.700138) can0 1F1#0000000000000000
(1487076404.700139) can0 4F0#0000680000121402
(1487076404.700139) can0 165#0908800000000180
(1487076404.701255) can0 2B0#FD06000703
(1487076404.701256) can0 4F1#CCFF000000000000
(1487076404.701257) can0 690#4000400000201000
(1487076404.701257) can0 316#059D0000002F007F
(1487076404.701257) can0 329#0F60810E11320010
(1487076404.702380) can0 080#001700009D2F0010
(1487076404.702386) can0 081#40000000000000C0
(1487076404.702387) can0 18F#002C000000720000
(1487076404.702387) can0 260#050000000EA75F08
(1487076404.703465) can0 2A0#02005D806C12A900
(1487076404.703466) can0 2C0#0000000000000000
(1487076404.703466) can0 545#DF00005D54FE54FE
(1487076404.704556) can0 153#200000FF00FF001E
(1487076404.704557) can0 4B0#0000008000000000
(1487076404.709036) can0 220#ED0300000000C70F
(1487076404.710040) can0 164#0008000000000F07
(1487076404.710041) can0 165#0908800000000283
(1487076404.710042) can0 2B0#FD06000774
(1487076404.711182) can0 316#059D0000002F007F
(1487076404.712304) can0 080#001700009D2F0001
(1487076404.712305) can0 081#40000000000000B1
(1487076404.712306) can0 18F#002C000000720000
(1487076404.712306) can0 260#050000000EA75F17
(1487076404.712307) can0 2A0#A2005D806C12A900
(1487076404.713400) can0 2C0#0000000000000000
(1487076404.713401) can0 329#0F60810E11320010
(1487076404.713401) can0 545#DF00005E54FE54FE
(1487076404.714484) can0 153#200000FF00FF102E
(1487076404.718946) can0 165#0908800000000382
(1487076404.720054) can0 220#ED0300000000C70F
(1487076404.720055) can0 164#0008000000000008
(1487076404.720056) can0 1F1#0000000000000000
(1487076404.720056) can0 2B0#FD06000765
(1487076404.721178) can0 4F0#00006A0000121402
(1487076404.721179) can0 4F1#CCFF000000000000
(1487076404.721180) can0 316#059D0000002F007F
(1487076404.722273) can0 080#001700009D2F00F2
(1487076404.722274) can0 081#40000000000000A2
(1487076404.722275) can0 18F#002C000000720000
(1487076404.722275) can0 260#050000000EA75F26
(1487076404.722275) can0 2A0#C2005D806C12A900
(1487076404.723359) can0 2C0#0000000000000000
(1487076404.723360) can0 329#0F60810E11320010
(1487076404.723361) can0 545#DF00005E54FE54FE
(1487076404.724430) can0 153#200000FF00FF203E
(1487076404.724431) can0 4B0#0040008000000000
(1487076404.728517) can0 165#0908800000000485
(1487076404.729602) can0 2B0#FD06000756
(1487076404.729603) can0 5F0#0100
(1487076404.729603) can0 220#ED0300000000C70F
(1487076404.729604) can0 164#0008000000000109
(1487076404.730845) can0 316#059D0000002F007F
(1487076404.731918) can0 080#001700009D2F00E3
(1487076404.731919) can0 081#4000000000000093
(1487076404.731919) can0 18F#002C000000720000
(1487076404.731920) can0 260#050000000EA75F35
(1487076404.733039) can0 2A0#62005D806C12A900
(1487076404.733041) can0 2C0#0000000000000000
(1487076404.733041) can0 329#0F60810E11320010
(1487076404.733042) can0 545#DF00005D54FE54FE
(1487076404.734121) can0 5E4#040000
(1487076404.734122) can0 153#200000FF00FF304E
(1487076404.738061) can0 165#0908800000000584
(1487076404.739140) can0 2B0#FD06000747
(1487076404.739142) can0 220#ED0300000000C70F
(1487076404.740248) can0 164#000800000000020A
(1487076404.740249) can0 1F1#0000000000000000
(1487076404.740249) can0 4F0#00006C0000121402
(1487076404.740250) can0 4F1#CCFF000000000000
(1487076404.741348) can0 316#059D0000002F007F
(1487076404.741349) can0 080#001700009D2F00D4
(1487076404.742433) can0 081#4000000000000084
(1487076404.742434) can0 18F#002C000000720000
(1487076404.742434) can0 260#050000000EA75F08
(1487076404.742434) can0 2A0#02005D806C12A900
(1487076404.742435) can0 2C0#0000000000000000
(1487076404.743520) can0 329#0F60810E11320010
(1487076404.743521) can0 545#DF00005E54FE54FE
(1487076404.744526) can0 153#200000FF00FF405E
(1487076404.744527) can0 4B0#0080008000000000
(1487076404.747565) can0 165#0908800000000687
(1487076404.748611) can0 2B0#FD060007B8
(1487076404.749701) can0 220#ED0300000000DA0F
(1487076404.749702) can0 164#000800000000030B
(1487076404.751017) can0 316#059D0000002F007F
(1487076404.752123) can0 080#001700009D2F00C5
(1487076404.752124) can0 081#4000000000000075
(1487076404.752125) can0 18F#002C000000720000
(1487076404.752125) can0 260#050000000EA75F17
(1487076404.753203) can0 2A0#A2005D806C12A900
(1487076404.753203) can0 2C0#0000000000000000
(1487076404.753204) can0 329#0F60810E11320010
(1487076404.753204) can0 545#DF00005D54FE54FE
(1487076404.754288) can0 153#200000FF00FF506E
(1487076404.757041) can0 165#0908800000000786
(1487076404.758119) can0 2B0#FD060007A9
(1487076404.759232) can0 220#ED0300000000DA0F
(1487076404.759233) can0 164#000800000000040C
(1487076404.760307) can0 1F1#0000000000000000
(1487076404.760308) can0 4F0#00006E0000121402
(1487076404.760308) can0 4F1#CCFF000000000000
(1487076404.761411) can0 316#059D0000002F007F
(1487076404.761412) can0 080#001700009D2F00B6
(1487076404.761413) can0 081#4000000000000066
(1487076404.762494) can0 18F#002C000000720000
(1487076404.762495) can0 260#050000000EA75F26
(1487076404.762496) can0 2A0#C2005D806C12A900
(1487076404.762496) can0 2C0#0000000000000000
(1487076404.763580) can0 329#4F60810E11320010
(1487076404.763581) can0 545#DF00005E54FE54FE
(1487076404.764662) can0 153#200000FF00FF607E
(1487076404.764663) can0 4B0#00C0008000000000
(1487076404.766705) can0 165#0908800000000889
(1487076404.767790) can0 2B0#FD0600079A
(1487076404.768954) can0 220#ED0300000000CD0F
(1487076404.770037) can0 164#000800000000050D
(1487076404.771119) can0 316#059D0000002F007F
(1487076404.771120) can0 080#001700009D2F00A7
(1487076404.772234) can0 081#4000000000000057
(1487076404.772235) can0 18F#002C000000720000
(1487076404.772235) can0 0A0#0040000000280000
(1487076404.772236) can0 0A1#8080808066000000
(1487076404.773327) can0 260#050000000EA75F35
(1487076404.773328) can0 2A0#62005D806C12A900
(1487076404.773328) can0 2C0#0000000000000000
(1487076404.773329) can0 329#4F60810E11320010
(1487076404.773329) can0 545#DF00005E54FE54FE
(1487076404.774412) can0 153#200000FF00FF708E
(1487076404.776267) can0 165#0908800000000988
(1487076404.777357) can0 2B0#FF060007AB
(1487076404.777358) can0 5F0#0100
(1487076404.778956) can0 220#ED0300000000D40F
(1487076404.780059) can0 164#000800000000060E
(1487076404.780059) can0 1F1#0000000000000000
(1487076404.780060) can0 4F0#0000700000121402
(1487076404.780060) can0 4F1#CCFF000000000000
(1487076404.781143) can0 316#059D0000002F007F
(1487076404.781143) can0 080#001700009D2F0098
(1487076404.782266) can0 081#4000000000000048
(1487076404.782267) can0 18F#002C000000720000
(1487076404.782267) can0 260#050000000EA75F08
(1487076404.782268) can0 2A0#02005D806C12A900
(1487076404.782268) can0 2C0#0000000000000000
(1487076404.783358) can0 329#4F60810E11320010
(1487076404.783359) can0 545#DF00005D54FE54FE
(1487076404.784430) can0 153#200000FF00FF809E
(1487076404.784431) can0 4B0#000000C000000000
(1487076404.785858) can0 165#0908800000000A8B
(1487076404.786931) can0 2B0#FD060007FC
(1487076404.788956) can0 220#ED0300000000E60F
(1487076404.790038) can0 164#000800000000070F
(1487076404.791121) can0 316#059D0000002F007F
(1487076404.792211) can0 080#001700009D2F0089
(1487076404.792212) can0 081#4000000000000039
(1487076404.792216) can0 18F#002C000000720000
(1487076404.792217) can0 260#050000000EA75F17
(1487076404.792218) can0 2A0#A2005D806C12A900
(1487076404.793305) can0 2C0#0000000000000000
(1487076404.793306) can0 329#4F60810E11320010
(1487076404.793306) can0 545#DF00005E54FE54FE
(1487076404.794392) can0 153#200000FF00FF90AE
(1487076404.795484) can0 165#0908800000000B8A
(1487076404.796565) can0 2B0#FD060007ED
(1487076404.798983) can0 220#ED0300000000F30F
(1487076404.800059) can0 164#0008000000000800
(1487076404.800060) can0 1F1#0000000000000000
(1487076404.800060) can0 4F0#0000720000121402
(1487076404.800061) can0 4F1#CCFF000000000000
(1487076404.801161) can0 690#4000400000201400
(1487076404.801162) can0 316#059D0000002F007F
(1487076404.801163) can0 080#001700009D2F007A
(1487076404.802265) can0 081#400000000000002A
(1487076404.802266) can0 18F#002C000000720000
(1487076404.802266) can0 260#050000000EA75F26
(1487076404.802266) can0 2A0#C2005D806C12A900
(1487076404.803358) can0 2C0#0000000000000000
(1487076404.803358) can0 329#4F60810E11320010
(1487076404.803359) can0 545#DF00005D54FE54FE
(1487076404.804434) can0 153#200000FF00FFA0BE
(1487076404.804435) can0 4B0#004000C000000000
(1487076404.805515) can0 165#0908800000000C8D
(1487076404.805516) can0 2B0#FD060007DE
(1487076404.808955) can0 220#ED0300000000F30F
(1487076404.810038) can0 164#0008000000000901
(1487076404.811122) can0 316#059D0000002F007F
(1487076404.811122) can0 080#001700009D2F006B
(1487076404.812248) can0 081#400000000000001B
(1487076404.812249) can0 18F#002C000000720000
(1487076404.812249) can0 260#050000000EA75F35
(1487076404.812249) can0 2A0#62005D806C12A900
(1487076404.813329) can0 2C0#0000000000000000
(1487076404.813330) can0 329#4F60810E11320010
(1487076404.813331) can0 545#DF00005E54FE54FE
(1487076404.814413) can0 153#200000FF00FFB0CE
(1487076404.815496) can0 165#0908800000000D8C
(1487076404.815497) can0 2B0#FD060007CF
(1487076404.818983) can0 220#ED0300000000ED0F
(1487076404.820058) can0 164#0008000000000A02
(1487076404.820059) can0 1F1#0000000000000000
(1487076404.820060) can0 4F0#0000740000121402
(1487076404.820060) can0 4F1#CCFF000000000000
(1487076404.821144) can0 316#059D0000002F007F
(1487076404.821145) can0 080#001700009D2F005C
(1487076404.822268) can0 081#400000000000000C
(1487076404.822269) can0 18F#002C000000720000
(1487076404.822269) can0 260#050000000EA75F08
(1487076404.822269) can0 2A0#02005D806C12A900
(1487076404.822270) can0 2C0#0000000000000000
(1487076404.823359) can0 329#8060810E11320010
(1487076404.823360) can0 545#DF00005D54FE54FE
(1487076404.824434) can0 153#200000FF00FFC0DE
(1487076404.824435) can0 165#0908800000000E8F
(1487076404.824435) can0 2B0#FD06000730
(1487076404.825517) can0 4B0#008000C000000000
(1487076404.825518) can0 5F0#0100
(1487076404.828956) can0 220#ED0300000000ED0F
(1487076404.830040) can0 164#0008000000000B03
(1487076404.831122) can0 316#059D0000002F007F
(1487076404.832248) can0 080#001700009D2F004D
(1487076404.832249) can0 081#40000000000000FD
(1487076404.832249) can0 18F#002C000000720000
(1487076404.832250) can0 260#050000000EA75F17
(1487076404.832250) can0 2A0#A2005D806C12A900
(1487076404.833329) can0 2C0#0000000000000000
(1487076404.833329) can0 329#8060810E11320010
(1487076404.833330) can0 545#DF00005D54FE54FE
(1487076404.834413) can0 5E4#040000
(1487076404.834416) can0 2B0#FD06000721
(1487076404.834416) can0 153#200000FF00FFD0EE
(1487076404.834417) can0 165#0908800000000F8E
(1487076404.838961) can0 220#ED0300000000F90F
(1487076404.840060) can0 164#0008000000000C04
(1487076404.840061) can0 1F1#0000000000000000
(1487076404.840061) can0 4F0#0000760000121402
(1487076404.840061) can0 4F1#CCFF000000000000
(1487076404.841163) can0 316#059D0000002F007F
(1487076404.842269) can0 080#001700009D2F003E
(1487076404.842270) can0 081#40000000000000EE
(1487076404.842270) can0 18F#002C000000720000
(1487076404.842270) can0 260#050000000EA75F26
(1487076404.842271) can0 2A0#C2005D806C12A900
(1487076404.843382) can0 2C0#0000000000000000
(1487076404.843382) can0 329#8060810E11320010
(1487076404.843383) can0 545#DF00005E54FE54FE
(1487076404.843383) can0 165#0908800000000081
(1487076404.844485) can0 2B0#FD06000712
(1487076404.844486) can0 153#200000FF00FFE0FE
(1487076404.844486) can0 4B0#0000000000000000
(1487076404.848985) can0 220#ED0300000000E60F
(1487076404.850060) can0 164#0008000000000D05
(1487076404.851142) can0 316#059D0000002F007F
(1487076404.851143) can0 080#001700009D2F002F
(1487076404.852270) can0 081#40000000000000DF
(1487076404.852271) can0 18F#002C000000720000
(1487076404.852271) can0 260#050000000EA75F35
(1487076404.852272) can0 2A0#62005D806C12A900
(1487076404.852272) can0 2C0#0000000000000000
(1487076404.853358) can0 329#8060810E11320010
(1487076404.853359) can0 545#DF00005D54FE54FE
(1487076404.853359) can0 165#0908800000000180
(1487076404.853360) can0 2B0#FD06000703
(1487076404.854434) can0 153#200000FF00FF001E
(1487076404.858995) can0 220#ED0300000000E60F
(1487076404.860058) can0 164#0008000000000E06
(1487076404.860059) can0 1F1#0000000000000000
(1487076404.860059) can0 4F0#0000780000121402
(1487076404.860059) can0 4F1#CCFF000000000000
(1487076404.861141) can0 316#059D0000002F007F
(1487076404.861152) can0 080#001700009D2F0010
(1487076404.862268) can0 081#40000000000000C0
(1487076404.862269) can0 18F#002C000000720000
(1487076404.862269) can0 260#050000000EA75F08
(1487076404.862269) can0 2A0#02005D806C12A900
(1487076404.862270) can0 2C0#0000000000000000
(1487076404.863372) can0 165#0908800000000283
(1487076404.863372) can0 2B0#FD06000774
(1487076404.863373) can0 329#8060810E11320010
(1487076404.863373) can0 545#DF00005E54FE54FE
(1487076404.864456) can0 153#200000FF00FF102E
(1487076404.864467) can0 4B0#0040000000000000
(1487076404.868995) can0 220#ED0300000000E60F
(1487076404.870059) can0 164#0008000000000F07
(1487076404.871141) can0 316#059D0000002F007F
(1487076404.872250) can0 080#001700009D2F0001
(1487076404.872251) can0 081#40000000000000B1
(1487076404.872251) can0 18F#002C000000720000
(1487076404.872251) can0 165#0908800000000382
(1487076404.872252) can0 260#050000000EA75F17
(1487076404.873357) can0 0A0#0040000000280000
(1487076404.873358) can0 0A1#8080808066000000
(1487076404.873359) can0 2A0#A2005D806C12A900
(1487076404.873359) can0 2B0#FD06000765
(1487076404.873370) can0 2C0#0000000000000000
(1487076404.874456) can0 329#8060810E11320010
(1487076404.874456) can0 545#DF00005E54FE54FE
(1487076404.874457) can0 153#200000FF00FF203E
(1487076404.874457) can0 5F0#0100
(1487076404.878996) can0 220#ED0300000000E60F
(1487076404.880082) can0 164#0008000000000008
(1487076404.880083) can0 1F1#0000000000000000
(1487076404.880086) can0 4F0#00007A0000121402
(1487076404.880086) can0 4F1#CCFF000000000000
(1487076404.881143) can0 316#059D0000002F007F
(1487076404.881144) can0 080#001700009D2F00F2
(1487076404.882247) can0 081#40000000000000A2
(1487076404.882248) can0 165#0908800000000485
(1487076404.882248) can0 18F#002C000000720000
(1487076404.882249) can0 260#050000000EA75F26
(1487076404.883360) can0 2A0#C2005D806C12A900
(1487076404.883360) can0 2B0#FD06000756
(1487076404.883361) can0 2C0#0000000000000000
(1487076404.883361) can0 329#D760810E11320010
(1487076404.883361) can0 545#DF00005D54FE54FE
(1487076404.884433) can0 153#200000FF00FF304E
(1487076404.884434) can0 4B0#0080000000000000
(1487076404.888995) can0 220#ED0300000000E00F
(1487076404.890059) can0 164#0008000000000109
(1487076404.891143) can0 316#059D0000002F007F
(1487076404.891144) can0 080#001700009D2F00E3
(1487076404.892248) can0 081#4000000000000093
(1487076404.892248) can0 18F#002C000000720000
(1487076404.892249) can0 260#050000000EA75F35
(1487076404.892249) can0 2A0#62005D806C12A900
(1487076404.892250) can0 2B0#FD06000747
(1487076404.893360) can0 165#0908800000000584
(1487076404.893360) can0 2C0#0000000000000000
(1487076404.893361) can0 329#D760810E11320010
(1487076404.893361) can0 545#DF00005E54FE54FE
(1487076404.894412) can0 153#200000FF00FF405E
(1487076404.898995) can0 220#ED0300000000E00F
(1487076404.900060) can0 164#000800000000020A
(1487076404.900061) can0 1F1#0000000000000000
(1487076404.900061) can0 4F0#00007C0000121402
(1487076404.900061) can0 4F1#CCFF000000000000
(1487076404.901164) can0 690#4000400000201800
(1487076404.901165) can0 165#0908800000000687
(1487076404.901165) can0 2B0#FD060007B8
(1487076404.901165) can0 316#059D0000002F007F
(1487076404.902269) can0 080#001700009D2F00D4
(1487076404.902270) can0 081#4000000000000084
(1487076404.902270) can0 18F#002C000000720000
(1487076404.902271) can0 260#050000000EA75F08
(1487076404.902271) can0 2A0#02005D806C12A900
(1487076404.903360) can0 2C0#0000000000000000
(1487076404.903360) can0 329#D760810E11320010
(1487076404.903361) can0 545#DF00005D54FE54FE
(1487076404.904433) can0 153#200000FF00FF506E
(1487076404.904434) can0 4B0#00C0000000000000
(1487076404.908996) can0 220#ED0300000000DA0F
(1487076404.910083) can0 164#000800000000030B
(1487076404.910094) can0 165#0908800000000786
(1487076404.911165) can0 2B0#FD060007A9
(1487076404.911176) can0 316#059D0000002F007F
(1487076404.912291) can0 080#001700009D2F00C5
(1487076404.912292) can0 081#4000000000000075
